date Tue May 05 02:27:14.865395 AM 2022
base hex  timestamps absolute
internal events logged
Begin Triggerblock Thu Jan 01 10:12:01.773 AM 1970
 0.000000 Start of measurement
 0.000000 1  7DF             Rx   d 8 02 3E 80 00 00 00 00 00
 0.109340 1  7DF             Rx   d 8 02 3E 80 00 00 00 00 00
 0.154467 1  720             Rx   d 8 02 10 01 00 00 00 00 00
 0.164122 1  728             Rx   d 8 06 50 01 00 32 01 F4 00
 0.203632 1  720             Rx   d 8 02 10 02 00 00 00 00 00
 0.215102 1  728             Rx   d 8 06 50 02 00 19 01 F4 00
 0.343684 1  7E8             Rx   d 8 03 7F 10 11 00 00 00 00
 0.727604 1  720             Rx   d 8 02 27 01 00 00 00 00 00
 0.728611 1  728             Rx   d 8 05 67 01 39 00 AE 00 00
 0.791909 1  720             Rx   d 8 05 27 02 0D C3 1E 00 00
 0.793019 1  728             Rx   d 8 02 67 02 00 00 00 00 00
 0.854155 1  720             Rx   d 8 10 0B 34 00 44 03 FF 00
 0.855218 1  728             Rx   d 8 30 00 00 00 00 00 00 00
 0.900365 1  720             Rx   d 8 21 00 00 00 00 18 00 00
 0.901373 1  728             Rx   d 8 04 74 20 00 CA 00 00 00
 0.946201 1  720             Rx   d 8 10 1A 36 01 80 07 04 00
 0.947272 1  728             Rx   d 8 30 00 00 00 00 00 00 00
 1.007386 1  720             Rx   d 8 21 40 26 FF 03 24 26 0C
 1.020912 1  720             Rx   d 8 22 01 40 1E FF 03 23 1E
 1.068659 1  720             Rx   d 8 23 4C 2D 80 07 58 17 00
 1.069715 1  728             Rx   d 8 02 76 01 00 00 00 00 00
 1.141447 1  720             Rx   d 8 01 37 00 00 00 00 00 00
 1.142687 1  728             Rx   d 8 03 77 55 02 00 00 00 00
 1.206745 1  720             Rx   d 8 10 0B 34 00 44 03 FF 00
 1.207817 1  728             Rx   d 8 30 00 00 00 00 00 00 00
 1.253219 1  720             Rx   d 8 21 20 00 00 00 3C 00 00
 1.254235 1  728             Rx   d 8 04 74 20 00 CA 00 00 00
 1.300595 1  720             Rx   d 8 10 3E 36 01 00 00 00 00
 1.301682 1  728             Rx   d 8 30 00 00 00 00 00 00 00
 1.361085 1  720             Rx   d 8 21 FF 07 00 00 06 00 00
 1.391834 1  720             Rx   d 8 22 00 00 50 00 00 FF FF
 1.422446 1  720             Rx   d 8 23 FF FF 04 00 00 00 00
 1.436796 1  720             Rx   d 8 24 00 FF 03 FF 24 FF 03
 1.450898 1  720             Rx   d 8 25 01 00 00 00 FC 2F FF
 1.467296 1  720             Rx   d 8 26 03 00 30 FF 03 01 00
 1.483669 1  720             Rx   d 8 27 00 00 00 00 00 00 FF
 1.531056 1  720             Rx   d 8 28 FF FF FF 00 00 00 00
 1.532095 1  728             Rx   d 8 02 76 01 00 00 00 00 00
 1.603943 1  720             Rx   d 8 01 37 00 00 00 00 00 00
 1.605351 1  728             Rx   d 8 03 77 9B AC 00 00 00 00
 1.670498 1  720             Rx   d 8 10 0B 34 00 44 03 FF 01
 1.671561 1  728             Rx   d 8 30 00 00 00 00 00 00 00
 1.714669 1  720             Rx   d 8 21 00 00 00 00 09 00 00
 1.715684 1  728             Rx   d 8 04 74 20 00 CA 00 00 00
 1.759503 1  720             Rx   d 8 10 0B 36 01 FF FF FF FF
 1.760575 1  728             Rx   d 8 30 00 00 00 00 00 00 00
 1.804562 1  720             Rx   d 8 21 FF FF FF FF FF 00 00
 1.805609 1  728             Rx   d 8 02 76 01 00 00 00 00 00
 1.848919 1  720             Rx   d 8 01 37 00 00 00 00 00 00
 1.850023 1  728             Rx   d 8 03 77 32 AE 00 00 00 00
 1.911021 1  720             Rx   d 8 10 0B 34 00 44 03 FF 01
 1.912092 1  728             Rx   d 8 30 00 00 00 00 00 00 00
 1.973966 1  720             Rx   d 8 21 0C 00 00 21 C2 00 00
 1.974982 1  728             Rx   d 8 04 74 20 00 CA 00 00 00
 2.096701 1  7DF             Rx   d 8 02 3E 80 00 00 00 00 00
 2.193725 1  720             Rx   d 8 10 CA 36 01 86 00 C2 32
 2.194797 1  728             Rx   d 8 30 00 00 00 00 00 00 00
 2.255398 1  720             Rx   d 8 21 46 36 FF 03 26 47 D1
 2.284770 1  720             Rx   d 8 22 22 28 47 0C 01 90 42
 2.301744 1  720             Rx   d 8 23 E1 57 00 00 7F 00 86
 2.316070 1  720             Rx   d 8 24 F7 01 00 22 06 D0 22
 2.330028 1  720             Rx   d 8 25 FF 03 C2 F2 C2 F1 00
 2.346812 1  720             Rx   d 8 26 00 00 15 22 17 8E 01
 2.362515 1  720             Rx   d 8 27 82 12 E9 57 00 00 7F
 2.378297 1  720             Rx   d 8 28 00 80 07 61 00 07 F8
 2.409797 1  720             Rx   d 8 29 09 10 06 EE 00 01 26
 2.442025 1  720             Rx   d 8 2A 37 50 00 03 5F 08 00
 2.476045 1  720             Rx   d 8 2B 88 00 C8 E9 C6 56 07
 2.503474 1  720             Rx   d 8 2C 00 B2 0D 3D 3F 0E 00
 2.535230 1  720             Rx   d 8 2D 82 3A F1 05 01 32 1D
 2.566458 1  720             Rx   d 8 2E F0 87 34 07 54 81 52
 2.596931 1  720             Rx   d 8 2F B9 05 00 52 85 25 61
 2.627543 1  720             Rx   d 8 20 5A 8A 0D 82 00 82 66
 2.655324 1  720             Rx   d 8 21 00 07 C2 62 7D 67 0C
 2.688464 1  720             Rx   d 8 22 00 A5 0D 62 5A 8A 0D
 2.720404 1  720             Rx   d 8 23 80 36 DA 98 1D F0 86
 2.751496 1  720             Rx   d 8 24 34 82 16 00 F1 85 14
 2.782365 1  720             Rx   d 8 25 1D 30 1F 38 08 42 80
 2.813009 1  720             Rx   d 8 26 FF 64 03 20 16 00 01
 2.828799 1  720             Rx   d 8 27 1D F0 87 14 20 16 00
 2.844911 1  720             Rx   d 8 28 02 87 14 01 52 40 06
 2.860357 1  720             Rx   d 8 29 7F 00 82 07 21 00 06
 2.875411 1  720             Rx   d 8 2A 10 82 F7 01 00 26 06
 2.890737 1  720             Rx   d 8 2B D0 22 FF 03 02 5F 09
 2.921248 1  720             Rx   d 8 2C 00 88 00 C2 F2 C6 F1
 2.922295 1  728             Rx   d 8 02 76 01 00 00 00 00 00
 2.986273 1  720             Rx   d 8 10 CA 36 02 08 48 00 35
 2.987360 1  728             Rx   d 8 30 00 00 00 00 00 00 00
 3.091533 1  720             Rx   d 8 21 63 5F 01 00 20 46 80
 3.122381 1  720             Rx   d 8 22 00 BF FF 62 FF 42 06
 3.153689 1  720             Rx   d 8 23 3F 00 86 F7 01 00 22
 3.184414 1  720             Rx   d 8 24 06 D0 22 FF 03 C2 F2
 3.215115 1  720             Rx   d 8 25 C2 F1 00 00 00 F5 07
 3.245503 1  720             Rx   d 8 26 12 A8 14 7F 00 86 F7
 3.276388 1  720             Rx   d 8 27 01 00 22 06 D0 22 FF
 3.291882 1  720             Rx   d 8 28 03 C2 F2 C2 F1 00 00
 3.306911 1  720             Rx   d 8 29 00 15 22 17 4E 01 82
 3.322214 1  720             Rx   d 8 2A 12 E9 57 00 00 7F 00
 3.339099 1  720             Rx   d 8 2B 82 07 21 00 86 F7 01
 3.355671 1  720             Rx   d 8 2C 00 22 06 D0 22 FF 03
 3.370845 1  720             Rx   d 8 2D C2 F2 C2 F1 00 35 63
 3.386811 1  720             Rx   d 8 2E 07 01 00 00 4A 20 46
 3.400513 1  720             Rx   d 8 2F 40 00 BF FF 06 FF 42
 3.432669 1  720             Rx   d 8 20 06 3F 00 80 07 E1 10
 3.463425 1  720             Rx   d 8 21 88 00 C6 41 28 57 0E
 3.494157 1  720             Rx   d 8 22 01 07 D8 00 EA 08 E6
 3.524322 1  720             Rx   d 8 23 00 01 83 52 99 25 20
 3.554990 1  720             Rx   d 8 24 16 14 00 1C F0 87 14
 3.586115 1  720             Rx   d 8 25 68 30 68 32 CA 15 FC
 3.616641 1  720             Rx   d 8 26 EF 0D 00 1D 60 90 62
 3.647053 1  720             Rx   d 8 27 89 0D DD 5E FF 1F FC
 3.678882 1  720             Rx   d 8 28 EF 0B 00 D0 5A 0B E9
 3.709702 1  720             Rx   d 8 29 A5 05 82 EA 1B 30 1C
 3.741603 1  720             Rx   d 8 2A 38 08 42 80 FF 7C 02
 3.773431 1  720             Rx   d 8 2B A5 05 00 EA 3C 47 0E
 3.820281 1  720             Rx   d 8 2C 00 C8 3E 04 20 9A E5
 3.821337 1  728             Rx   d 8 02 76 02 00 00 00 00 00
 3.866652 1  720             Rx   d 8 10 CA 36 03 1D 50 40 06
 3.867739 1  728             Rx   d 8 30 00 00 00 00 00 00 00
 3.973780 1  720             Rx   d 8 21 FF 10 80 07 E1 00 86
 4.004552 1  720             Rx   d 8 22 F7 01 00 22 06 D0 22
 4.035173 1  720             Rx   d 8 23 FF 03 C2 F2 C2 F1 00
 4.066449 1  720             Rx   d 8 24 E5 3C 17 50 00 07 E8
 4.097584 1  720             Rx   d 8 25 C2 66 07 00 EA 05 20
 4.127789 1  720             Rx   d 8 26 16 06 01 7C 17 50 00
 4.159577 1  720             Rx   d 8 27 85 2D DC E7 53 00 C2
 4.190717 1  720             Rx   d 8 28 05 07 12 7C 17 50 00
 4.221002 1  720             Rx   d 8 29 1C 30 1D 38 00 42 BF
 4.252014 1  720             Rx   d 8 2A FF 66 FF E0 51 D2 05
 4.283363 1  720             Rx   d 8 2B 01 12 1D F0 88 13 D5
 4.311871 1  720             Rx   d 8 2C 15 1C 30 1D 38 20 46
 4.328693 1  720             Rx   d 8 2D 20 00 BF FF 4E FF E0
 4.359739 1  720             Rx   d 8 2E 51 9A 0D 1C 30 1D 38
 4.390136 1  720             Rx   d 8 2F 20 46 60 00 BF FF 3E
 4.422893 1  720             Rx   d 8 20 FF E0 51 F2 05 02 12
 4.453761 1  720             Rx   d 8 21 1D F0 88 13 01 12 8A
 4.484605 1  720             Rx   d 8 22 13 89 53 40 06 FF 00
 4.516697 1  720             Rx   d 8 23 80 07 21 00 80 FF A4
 4.547982 1  720             Rx   d 8 24 1A 40 0E FF 03 41 07
 4.578283 1  720             Rx   d 8 25 51 2D 40 0E FF 03 41
 4.610559 1  720             Rx   d 8 26 07 50 2D 40 06 3F 00
 4.641115 1  720             Rx   d 8 27 80 07 21 00 80 FF 74
 4.668920 1  720             Rx   d 8 28 1F 80 FF 3C 09 40 06
 4.702500 1  720             Rx   d 8 29 3F 00 80 07 E1 10 06
 4.733289 1  720             Rx   d 8 2A D8 40 EE FF 03 1D 17
 4.763957 1  720             Rx   d 8 2B 50 2D 3D EE 50 2D 01
 4.811807 1  720             Rx   d 8 2C 52 07 E0 61 12 D1 05
 4.812847 1  728             Rx   d 8 02 76 03 00 00 00 00 00
 4.886957 1  7DF             Rx   d 8 02 3E 80 00 00 00 00 00
 4.936421 1  720             Rx   d 8 10 CA 36 04 E2 05 62 12
 4.937501 1  728             Rx   d 8 30 00 00 00 00 00 00 00
 5.044673 1  720             Rx   d 8 21 D2 15 E5 25 01 12 F5
 5.074367 1  720             Rx   d 8 22 0D 80 FF 16 1E E0 51
 5.106385 1  720             Rx   d 8 23 DA 1D 1B 30 8C 32 1C
 5.137685 1  720             Rx   d 8 24 3E FF FF 8C 3A 80 FF
 5.168121 1  720             Rx   d 8 25 8A 1D E0 51 CA 15 02
 5.201142 1  720             Rx   d 8 26 12 5D 17 00 00 E5 0D
 5.228362 1  720             Rx   d 8 27 80 FF F4 1D E0 51 FA
 5.259743 1  720             Rx   d 8 28 05 BF FF A0 FF 5D 07
 5.290675 1  720             Rx   d 8 29 00 00 02 52 95 0D 0A
 5.321583 1  720             Rx   d 8 2A 06 01 FF BA 05 00 52
 5.337173 1  720             Rx   d 8 2B C5 05 BF FF 8A FF 01
 5.351904 1  720             Rx   d 8 2C 52 40 06 FF 10 80 07
 5.367501 1  720             Rx   d 8 2D 21 00 80 FF 02 1F 80
 5.382835 1  720             Rx   d 8 2E FF C6 08 B5 05 80 FF
 5.398369 1  720             Rx   d 8 2F A2 17 80 FF 9E 1C E0
 5.414103 1  720             Rx   d 8 20 51 BA FD 40 06 3F 00
 5.446259 1  720             Rx   d 8 21 80 07 E1 00 06 E8 07
 5.477447 1  720             Rx   d 8 22 E0 00 4A 00 42 00 12
 5.507564 1  720             Rx   d 8 23 02 F0 DD F1 60 58 02
 5.538129 1  720             Rx   d 8 24 F0 DC F1 60 30 EB 31
 5.569957 1  720             Rx   d 8 25 BA 05 41 4A 89 00 0B
 5.600726 1  720             Rx   d 8 26 06 01 FF BA 05 41 42
 5.631666 1  720             Rx   d 8 27 88 00 41 12 82 00 68
 5.662679 1  720             Rx   d 8 28 12 E1 ED 68 4A A2 15
 5.693059 1  720             Rx   d 8 29 68 42 CA 15 BF FF A6
 5.723399 1  720             Rx   d 8 2A FF 80 FF 6E 1D E0 51
 5.753204 1  720             Rx   d 8 2B CA 0D 1C 30 1D 38 02
 5.801535 1  720             Rx   d 8 2C 42 80 FF 1E 1D E0 51
 5.802566 1  728             Rx   d 8 02 76 04 00 00 00 00 00
 5.849506 1  720             Rx   d 8 10 CA 36 05 DA 05 BF FF
 5.850586 1  728             Rx   d 8 30 00 00 00 00 00 00 00
 5.941501 1  720             Rx   d 8 21 0C FF 02 52 C5 05 BF
 5.971769 1  720             Rx   d 8 22 FF 04 FF 01 52 40 06
 6.002542 1  720             Rx   d 8 23 FF 00 80 07 E1 10 06
 6.033690 1  720             Rx   d 8 24 D8 40 E6 FF 03 1C 17
 6.065743 1  720             Rx   d 8 25 51 2D 3C E6 51 2D 01
 6.098695 1  720             Rx   d 8 26 52 07 E8 61 12 B1 05
 6.127075 1  720             Rx   d 8 27 92 25 C5 35 BF FF 5C
 6.157503 1  720             Rx   d 8 28 FF 80 FF 24 1D E0 51
 6.188501 1  720             Rx   d 8 29 FA 15 DB 66 FF 0F CA
 6.219393 1  720             Rx   d 8 2A 15 1B 30 8C 32 E0 E9
 6.250597 1  720             Rx   d 8 2B 82 15 DD 5E FF 0F DA
 6.280658 1  720             Rx   d 8 2C 0D 8C EA C6 E9 1D 3E
 6.312406 1  720             Rx   d 8 2D FF FF 80 FF 4E 1C E0
 6.343939 1  720             Rx   d 8 2E 51 DA 05 01 12 5C 17
 6.358592 1  720             Rx   d 8 2F 00 00 95 15 BF FF A4
 6.372838 1  720             Rx   d 8 20 FE C5 15 80 FF EA 1C
 6.388764 1  720             Rx   d 8 21 E0 51 FA 05 BF FF 96
 6.405609 1  720             Rx   d 8 22 FE 5C 07 00 00 02 52
 6.436446 1  720             Rx   d 8 23 B5 0D 0A 06 01 FF BA
 6.467027 1  720             Rx   d 8 24 05 00 52 E5 05 BF FF
 6.496743 1  720             Rx   d 8 25 80 FE 5C 07 00 00 01
 6.527347 1  720             Rx   d 8 26 52 40 06 FF 10 80 07
 6.560607 1  720             Rx   d 8 27 21 00 80 FF 72 1A 01
 6.589036 1  720             Rx   d 8 28 52 40 06 3F 00 3E 06
 6.619579 1  720             Rx   d 8 29 01 01 FF 03 61 10 60
 6.650927 1  720             Rx   d 8 2A 30 C8 12 C6 11 00 00
 6.679276 1  720             Rx   d 8 2B 62 30 D0 32 C2 31 00
 6.713975 1  720             Rx   d 8 2C 00 63 10 2C 06 C0 FF
 6.715031 1  728             Rx   d 8 02 76 05 00 00 00 00 00
 6.785911 1  7DF             Rx   d 8 02 3E 80 00 00 00 00 00
 6.866838 1  720             Rx   d 8 10 CA 36 06 01 00 D8 12
 6.867909 1  728             Rx   d 8 30 00 00 00 00 00 00 00
 6.959022 1  720             Rx   d 8 21 C6 11 4C 11 02 06 80
 6.990123 1  720             Rx   d 8 22 F8 E2 57 00 00 7F 00
 7.020415 1  720             Rx   d 8 23 88 00 F5 05 87 67 01
 7.051867 1  720             Rx   d 8 24 00 41 3A 46 67 00 00
 7.082289 1  720             Rx   d 8 25 41 32 08 58 5F 42 88
 7.113477 1  720             Rx   d 8 26 00 E0 59 EA F5 7F 00
 7.143610 1  720             Rx   d 8 27 80 07 21 00 BF FF F8
 7.174174 1  720             Rx   d 8 28 FD 80 FF 86 09 26 06
 7.187884 1  720             Rx   d 8 29 01 01 FF 03 27 06 00
 7.204466 1  720             Rx   d 8 2A 50 01 00 08 42 BF FF
 7.235071 1  720             Rx   d 8 2B CA FF 40 0E FF 03 41
 7.266379 1  720             Rx   d 8 2C 07 00 01 40 06 3F 00
 7.297031 1  720             Rx   d 8 2D 80 07 21 00 80 FF 7A
 7.328172 1  720             Rx   d 8 2E 09 BF FF 74 FF 40 06
 7.358290 1  720             Rx   d 8 2F 3F 00 2C 06 00 50 01
 7.388822 1  720             Rx   d 8 20 00 EC 31 9B 1D 07 58
 7.420851 1  720             Rx   d 8 21 C6 59 2A 06 08 50 01
 7.450951 1  720             Rx   d 8 22 00 EA 59 A3 15 40 0E
 7.481371 1  720             Rx   d 8 23 FF 03 41 07 00 01 00
 7.512016 1  720             Rx   d 8 24 12 40 46 FF 03 28 F6
 7.541461 1  720             Rx   d 8 25 01 01 C2 F1 20 46 FF
 7.558442 1  720             Rx   d 8 26 00 80 43 41 12 82 00
 7.572721 1  720             Rx   d 8 27 68 12 D1 F5 BF 07 AA
 7.586863 1  720             Rx   d 8 28 FE 2B 06 00 50 01 00
 7.603965 1  720             Rx   d 8 29 07 60 AB 61 68 62 99
 7.635785 1  720             Rx   d 8 2A 0D C7 F6 07 00 22 06
 7.667054 1  720             Rx   d 8 2B 01 01 FF 03 C2 F1 60
 7.728135 1  720             Rx   d 8 2C 50 B5 05 87 57 01 00
 7.729175 1  728             Rx   d 8 02 76 06 00 00 00 00 00
 7.791704 1  720             Rx   d 8 10 CA 36 07 8A 00 7F 00
 7.792783 1  728             Rx   d 8 30 00 00 00 00 00 00 00
 7.867772 1  720             Rx   d 8 21 80 07 E1 30 06 D0 07
 7.897953 1  720             Rx   d 8 22 E0 08 D8 09 E8 DD 00
 7.931154 1  720             Rx   d 8 23 95 0D 1A 30 1B 38 BF
 7.960367 1  720             Rx   d 8 24 FF C6 FF 5C 57 00 00
 7.989891 1  720             Rx   d 8 25 41 E2 41 DA 1D 60 5F
 8.005905 1  720             Rx   d 8 26 EA DD 00 E0 61 CA F5
 8.022023 1  720             Rx   d 8 27 40 06 FF 30 88 07 E1
 8.037141 1  720             Rx   d 8 28 70 3C 06 58 2D FF 03
 8.052731 1  720             Rx   d 8 29 FC FF B5 00 FC DF 11
 8.066369 1  720             Rx   d 8 2A 02 00 D2 00 EA 02 72
 8.083647 1  720             Rx   d 8 2B BF D9 03 F0 FC CF B3
 8.114788 1  720             Rx   d 8 2C 00 82 73 1C 77 BA 00
 8.145481 1  720             Rx   d 8 2D DB 00 BF C9 D9 00 83
 8.175925 1  720             Rx   d 8 2E 73 64 72 AA 2D 40 EE
 8.207145 1  720             Rx   d 8 2F FF 03 9D EF E1 22 FD
 8.238741 1  720             Rx   d 8 20 D9 E9 05 F9 D9 CA 05
 8.270154 1  720             Rx   d 8 21 1B D0 FA 00 C5 05 FD
 8.300735 1  720             Rx   d 8 22 C9 A1 35 1D D0 40 16
 8.330811 1  720             Rx   d 8 23 FF 03 02 17 52 2D 61
 8.362657 1  720             Rx   d 8 24 12 D2 2D 00 12 02 F0
 8.393086 1  720             Rx   d 8 25 C3 F1 20 36 FF 00 88
 8.423059 1  720             Rx   d 8 26 33 41 12 C2 00 68 12
 8.454551 1  720             Rx   d 8 27 81 FD 23 3E 08 00 3C
 8.485100 1  720             Rx   d 8 28 46 40 01 DF 41 1A 48
 8.500913 1  720             Rx   d 8 29 C9 00 00 32 BF FF 54
 8.516055 1  720             Rx   d 8 2A FF 85 1D 66 72 EA 15
 8.531765 1  720             Rx   d 8 2B 3C 57 A5 00 20 EE 10
 8.564386 1  720             Rx   d 8 2C 00 CA 56 0F 00 AA E9
 8.565417 1  728             Rx   d 8 02 76 07 00 00 00 00 00
 8.681235 1  7DF             Rx   d 8 02 3E 80 00 00 00 00 00
 8.780584 1  720             Rx   d 8 10 CA 36 08 9D 00 FD D9
 8.781663 1  728             Rx   d 8 30 00 00 00 00 00 00 00
 8.856921 1  720             Rx   d 8 21 E9 05 F9 D9 CA 05 1B
 8.888757 1  720             Rx   d 8 22 D0 FA 00 F5 05 FD C9
 8.919587 1  720             Rx   d 8 23 B1 05 1D D0 B5 05 00
 8.950920 1  720             Rx   d 8 24 52 E5 7D 03 17 03 00
 8.980636 1  720             Rx   d 8 25 64 12 C2 05 66 12 F2
 8.997122 1  720             Rx   d 8 26 5D C5 75 3C 37 A5 00
 9.028174 1  720             Rx   d 8 27 28 06 00 50 01 00 E8
 9.043893 1  720             Rx   d 8 28 31 EA 2D 3C 06 00 01
 9.059674 1  720             Rx   d 8 29 FF 03 00 62 00 4A 00
 9.075352 1  720             Rx   d 8 2A 12 D5 15 02 F0 DC F1
 9.090150 1  720             Rx   d 8 2B 61 30 02 F0 C3 F1 68
 9.105614 1  720             Rx   d 8 2C 38 E7 31 BA 05 41 62
 9.122012 1  720             Rx   d 8 2D CC 00 02 F0 DC F1 61
 9.135506 1  720             Rx   d 8 2E 30 06 06 01 FF BA 05
 9.169151 1  720             Rx   d 8 2F 41 4A C9 00 41 12 C2
 9.199571 1  720             Rx   d 8 20 00 FD 11 B1 ED FD 61
 9.231071 1  720             Rx   d 8 21 B2 0D FD 49 CA 4D 3C
 9.261652 1  720             Rx   d 8 22 3E 01 00 23 46 08 00
 9.294224 1  720             Rx   d 8 23 1D 48 00 32 BF FF B6
 9.323060 1  720             Rx   d 8 24 FE 01 12 5C 17 00 00
 9.354169 1  720             Rx   d 8 25 95 45 40 16 FF 03 02
 9.385221 1  720             Rx   d 8 26 17 52 2D 61 12 F2 05
 9.415074 1  720             Rx   d 8 27 23 3E 08 00 BF FF B2
 9.446582 1  720             Rx   d 8 28 FC 43 57 02 00 FD D9
 9.478338 1  720             Rx   d 8 29 F9 05 F9 D9 DA 05 03
 9.509055 1  720             Rx   d 8 2A 67 02 00 62 62 F2 05
 9.540411 1  720             Rx   d 8 2B 40 16 FF 03 02 17 52
 9.587022 1  720             Rx   d 8 2C 2D 61 12 EA 1D 1C F0
 9.588062 1  728             Rx   d 8 02 76 08 00 00 00 00 00
 9.633234 1  720             Rx   d 8 10 CA 36 09 50 3D 4E 35
 9.634305 1  728             Rx   d 8 30 00 00 00 00 00 00 00
 9.742238 1  720             Rx   d 8 21 BF FF FA FB 43 57 02
 9.771802 1  720             Rx   d 8 22 00 E0 51 E2 5F 00 00
 9.801703 1  720             Rx   d 8 23 40 0E FF 03 41 5F 52
 9.832459 1  720             Rx   d 8 24 2D F5 0D FC 3F B5 00
 9.863675 1  720             Rx   d 8 25 3C 5E 40 01 3C 37 A5
 9.894559 1  720             Rx   d 8 26 00 1A 48 CB 39 89 00
 9.925165 1  720             Rx   d 8 27 09 40 80 FF C0 07 43
 9.955586 1  720             Rx   d 8 28 57 02 00 03 47 02 00
 9.987151 1  720             Rx   d 8 29 E0 41 BA 05 08 D0 C5
 10.002381 1  720             Rx   d 8 2A 05 61 42 AA 05 1F D2
 10.017683 1  720             Rx   d 8 2B 1A 50 EA 00 48 06 FF
 10.033153 1  720             Rx   d 8 2C 70 8A 07 E1 70 06 E0
 10.048335 1  720             Rx   d 8 2D 03 F0 05 3D 08 10 82
 10.064573 1  720             Rx   d 8 2E 00 00 D2 00 CA C2 76
 10.080003 1  720             Rx   d 8 2F 07 00 83 73 02 D8 83
 10.111829 1  720             Rx   d 8 20 DA 9B 00 1C 06 F0 EF
 10.142018 1  720             Rx   d 8 21 A2 0D 1C 06 C8 EF F2
 10.172935 1  720             Rx   d 8 22 05 1C 06 90 EF C2 05
 10.204691 1  720             Rx   d 8 23 1C 06 B0 EF BA 65 43
 10.234639 1  720             Rx   d 8 24 07 02 00 A5 25 00 EA
 10.265331 1  720             Rx   d 8 25 83 37 03 00 23 6F 09
 10.296191 1  720             Rx   d 8 26 00 1D F0 C3 32 06 38
 10.326876 1  720             Rx   d 8 27 CD 31 DC 39 C7 F1 60
 10.358033 1  720             Rx   d 8 28 50 1D F0 C6 F1 00 00
 10.388094 1  720             Rx   d 8 29 60 30 E6 51 BA 05 41
 10.419531 1  720             Rx   d 8 2A D2 9A 00 0A 06 01 FF
 10.448943 1  720             Rx   d 8 2B BA 05 41 CA 99 00 41
 10.481611 1  720             Rx   d 8 2C EA 9D 00 68 EA D1 E5
 10.482651 1  728             Rx   d 8 02 76 09 00 00 00 00 00
 10.616698 1  7DF             Rx   d 8 02 3E 80 00 00 00 00 00
 10.713347 1  720             Rx   d 8 10 CA 36 0A 03 F0 62 70
 10.714419 1  728             Rx   d 8 30 00 00 00 00 00 00 00
 10.790346 1  720             Rx   d 8 21 41 72 82 73 83 47 03
 10.820647 1  720             Rx   d 8 22 00 FB 41 C1 DD A3 37
 10.851057 1  720             Rx   d 8 23 03 00 E0 31 F2 2D 00
 10.882174 1  720             Rx   d 8 24 EA 1D F0 C3 F1 20 36
 10.898148 1  720             Rx   d 8 25 FF 00 8C 33 41 EA 9D
 10.912431 1  720             Rx   d 8 26 00 68 EA 81 FD 03 F0
 10.928285 1  720             Rx   d 8 27 04 45 63 48 00 32 23
 10.943658 1  720             Rx   d 8 28 3E 0C 00 C2 41 A9 41
 10.958423 1  720             Rx   d 8 29 BF FF 70 FD 00 EA 83
 10.990132 1  720             Rx   d 8 2A 17 03 00 1D F0 C3 12
 11.020321 1  720             Rx   d 8 2B DC 11 C2 F1 60 50 1D
 11.050605 1  720             Rx   d 8 2C F0 C3 F1 6C 10 E2 51
 11.082778 1  720             Rx   d 8 2D BA 05 41 D2 9A 00 0A
 11.113797 1  720             Rx   d 8 2E 06 01 FF BA 05 41 CA
 11.144266 1  720             Rx   d 8 2F 99 00 41 EA 9D 00 68
 11.174895 1  720             Rx   d 8 20 EA A1 ED 41 DA 9B 00
 11.206843 1  720             Rx   d 8 21 03 F0 1B 70 C3 72 03
 11.237167 1  720             Rx   d 8 22 75 EE D1 A2 35 EE C9
 11.267684 1  720             Rx   d 8 23 B2 05 00 52 F5 2D 00
 11.298849 1  720             Rx   d 8 24 EA E5 1D A3 5F 03 00
 11.329669 1  720             Rx   d 8 25 E0 59 C2 0D 1B 4E FF
 11.344667 1  720             Rx   d 8 26 FF E9 E9 8A 0D 1D 48
 11.360719 1  720             Rx   d 8 27 C3 4A DC 49 09 30 23
 11.375764 1  720             Rx   d 8 28 3E 0C 00 95 0D 1D 40
 11.391746 1  720             Rx   d 8 29 08 38 23 6F 09 00 C3
 11.407248 1  720             Rx   d 8 2A 3A 07 30 DC 31 CD 39
 11.437981 1  720             Rx   d 8 2B BF FF 0A FB 62 52 AA
 11.500615 1  720             Rx   d 8 2C E5 41 EA 9D 00 FB E9
 11.501670 1  728             Rx   d 8 02 76 0A 00 00 00 00 00
 11.576974 1  720             Rx   d 8 10 CA 36 0B A1 E5 00 12
 11.578045 1  728             Rx   d 8 30 00 00 00 00 00 00 00
 11.653988 1  720             Rx   d 8 21 B5 05 80 FF 88 12 23
 11.684072 1  720             Rx   d 8 22 3F 05 00 1C 30 DC 39
 11.715293 1  720             Rx   d 8 23 BF FF 5C FA 62 52 FA
 11.744377 1  720             Rx   d 8 24 F5 01 52 4A 06 FF 70
 11.760791 1  720             Rx   d 8 25 87 00 95 0D 86 17 01
 11.776429 1  720             Rx   d 8 26 00 41 32 02 06 01 FF
 11.791467 1  720             Rx   d 8 27 B2 05 00 52 F5 05 07
 11.805577 1  720             Rx   d 8 28 60 5F 3A 87 00 E0 61
 11.822159 1  720             Rx   d 8 29 CA F5 01 52 7F 00 80
 11.837045 1  720             Rx   d 8 2A 07 21 00 40 66 FF 03
 11.853334 1  720             Rx   d 8 2B 0C 67 00 01 61 62 DA
 11.885674 1  720             Rx   d 8 2C 1D 00 12 B5 05 80 FF
 11.916510 1  720             Rx   d 8 2D 38 12 27 06 01 01 FF
 11.947219 1  720             Rx   d 8 2E 03 26 06 00 50 01 00
 11.978439 1  720             Rx   d 8 2F BF FF 96 FA 62 52 DA
 12.011563 1  720             Rx   d 8 20 F5 00 12 B5 05 80 FF
 12.038880 1  720             Rx   d 8 21 1C 12 26 06 00 50 01
 12.070948 1  720             Rx   d 8 22 00 27 06 08 50 01 00
 12.102732 1  720             Rx   d 8 23 BF FF EC F9 62 52 DA
 12.131360 1  720             Rx   d 8 24 F5 02 52 40 06 3F 00
 12.163973 1  720             Rx   d 8 25 80 07 21 00 80 FF D2
 12.194210 1  720             Rx   d 8 26 02 40 0E FF 03 41 07
 12.225366 1  720             Rx   d 8 27 52 2D 40 06 3F 00 E0
 12.255443 1  720             Rx   d 8 28 57 7B F6 7F 00 40 07
 12.270073 1  720             Rx   d 8 29 70 F6 05 12 40 17 71
 12.285382 1  720             Rx   d 8 2A F6 20 16 84 00 40 17
 12.316914 1  720             Rx   d 8 2B 70 F6 7F 00 40 66 FF
 12.378969 1  720             Rx   d 8 2C 03 EC 67 F1 2F E0 17
 12.380017 1  728             Rx   d 8 02 76 0B 00 00 00 00 00
 12.496599 1  7DF             Rx   d 8 02 3E 80 00 00 00 00 00
 12.581247 1  720             Rx   d 8 10 CA 36 0C 6B F6 AC 11
 12.582327 1  728             Rx   d 8 30 00 00 00 00 00 00 00
 12.641407 1  720             Rx   d 8 21 C2 00 02 06 00 80 A1
 12.672035 1  720             Rx   d 8 22 0D 3E 06 F0 2F FF 03
 12.685186 1  720             Rx   d 8 23 70 38 01 52 07 3E FA
 12.699344 1  720             Rx   d 8 24 00 80 3C A5 05 00 52
 12.715941 1  720             Rx   d 8 25 7F 00 C8 00 F5 05 87
 12.733100 1  720             Rx   d 8 26 67 01 00 41 3A 46 67
 12.747962 1  720             Rx   d 8 27 00 00 41 32 08 58 5F
 12.780382 1  720             Rx   d 8 28 42 C8 00 E0 59 EA F5
 12.810443 1  720             Rx   d 8 29 7F 00 80 07 E1 00 3D
 12.841823 1  720             Rx   d 8 2A 06 58 2D FF 03 00 E2
 12.870865 1  720             Rx   d 8 2B 3D 36 34 01 BF FF 32
 12.903925 1  720             Rx   d 8 2C F7 E0 51 82 15 3D 17
 12.935439 1  720             Rx   d 8 2D 59 00 E2 67 81 02 E2
 12.966819 1  720             Rx   d 8 2E 5F 83 02 EB 61 8A 0D
 12.998064 1  720             Rx   d 8 2F 3D F7 5D 00 70 50 71
 13.028292 1  720             Rx   d 8 20 48 E9 51 AA 05 01 E2
 13.059393 1  720             Rx   d 8 21 1C 50 AA 00 40 06 FF
 13.089829 1  720             Rx   d 8 22 00 80 07 E1 30 3B 06
 13.121571 1  720             Rx   d 8 23 58 2D FF 03 1B F0 2E
 13.151591 1  720             Rx   d 8 24 ED 2C E5 1D F0 70 58
 13.183099 1  720             Rx   d 8 25 71 60 3B 16 D8 00 EB
 13.197033 1  720             Rx   d 8 26 61 D2 2D 1B D6 02 01
 13.211735 1  720             Rx   d 8 27 1A 30 80 FF 60 11 61
 13.227565 1  720             Rx   d 8 28 52 EA 25 FD 4F 03 00
 13.259865 1  720             Rx   d 8 29 E9 4F 40 02 3D 16 04
 13.290101 1  720             Rx   d 8 2A 00 C9 11 DD 49 89 47
 13.321531 1  720             Rx   d 8 2B 05 00 22 3E 01 00 44
 13.383777 1  720             Rx   d 8 2C 4A 3B 36 34 01 BF FF
 13.384833 1  728             Rx   d 8 02 76 0C 00 00 00 00 00
 13.446649 1  720             Rx   d 8 10 CA 36 0D 50 F7 E0 51
 13.447729 1  728             Rx   d 8 30 00 00 00 00 00 00 00
 13.523401 1  720             Rx   d 8 21 B2 15 1D F0 71 58 41
 13.553773 1  720             Rx   d 8 22 5A 81 5C CB 00 0B 06
 13.584122 1  720             Rx   d 8 23 F0 FF B9 05 7D 07 02
 13.614798 1  720             Rx   d 8 24 00 1D F0 70 40 71 48
 13.628156 1  720             Rx   d 8 25 E8 49 C2 05 1A 30 80
 13.643185 1  720             Rx   d 8 26 FF 28 11 FC 37 81 02
 13.658584 1  720             Rx   d 8 27 FC 17 83 02 E6 11 92
 13.690004 1  720             Rx   d 8 28 1D 02 F0 EA F7 40 02
 13.721936 1  720             Rx   d 8 29 1E 38 DC F1 69 40 DC
 13.751725 1  720             Rx   d 8 2A 39 3B 36 28 01 BF FF
 13.783442 1  720             Rx   d 8 2B 06 F7 E0 51 C2 0D FC
 13.813799 1  720             Rx   d 8 2C 57 83 02 41 52 7C 57
 13.844467 1  720             Rx   d 8 2D 82 02 CA 00 0A 06 C0
 13.875541 1  720             Rx   d 8 2E FF B9 05 7C 07 82 02
 13.906065 1  720             Rx   d 8 2F 40 06 FF 30 80 07 E1
 13.937707 1  720             Rx   d 8 20 00 3D 06 58 2D FF 03
 13.968423 1  720             Rx   d 8 21 1D 17 11 00 E0 11 8A
 13.999068 1  720             Rx   d 8 22 45 1D 17 31 01 62 12
 14.029872 1  720             Rx   d 8 23 CA 05 5D 07 6A 00 95
 14.045031 1  720             Rx   d 8 24 3D 3D 36 34 01 3D E6
 14.061037 1  720             Rx   d 8 25 60 00 1C 38 1D 40 BF
 14.076762 1  720             Rx   d 8 26 FF A0 F7 1D 67 6A 00
 14.091520 1  720             Rx   d 8 27 E0 61 D2 2D BD 3F 69
 14.107361 1  720             Rx   d 8 28 00 5D 07 6A 00 07 50
 14.122607 1  720             Rx   d 8 29 84 52 E9 25 BD 17 2F
 14.152659 1  720             Rx   d 8 2A 01 82 36 08 00 E6 39
 14.183600 1  720             Rx   d 8 2B 82 25 3D EF 59 00 FD
 14.246721 1  720             Rx   d 8 2C 37 81 02 EA 37 40 02
 14.247769 1  728             Rx   d 8 02 76 0D 00 00 00 00 00
 14.365137 1  7DF             Rx   d 8 02 3E 80 00 00 00 00 00
 14.416657 1  720             Rx   d 8 10 CA 36 0E 1C 38 08 42
 14.417728 1  728             Rx   d 8 30 00 00 00 00 00 00 00
 14.477730 1  720             Rx   d 8 21 DD 31 BF FF 8C FE FD
 14.506822 1  720             Rx   d 8 22 17 81 02 BC 67 09 00
 14.521620 1  720             Rx   d 8 23 02 F0 EA F7 40 02 41
 14.537210 1  720             Rx   d 8 24 12 7D 17 80 02 DD F1
 14.569446 1  720             Rx   d 8 25 89 63 C2 00 02 06 C0
 14.603557 1  720             Rx   d 8 26 FF B9 05 7D 07 80 02
 14.632306 1  720             Rx   d 8 27 01 52 A5 05 00 52 40
 14.662199 1  720             Rx   d 8 28 06 FF 00 80 07 E1 10
 14.692315 1  720             Rx   d 8 29 00 DA 3D 06 58 2D FF
 14.724495 1  720             Rx   d 8 2A 03 3D 36 28 01 3D E6
 14.754499 1  720             Rx   d 8 2B 4A 00 1C 38 1D 40 BF
 14.786696 1  720             Rx   d 8 2C FF 1E F7 1D 67 54 00
 14.818308 1  720             Rx   d 8 2D E0 61 F2 55 1D 17 31
 14.849337 1  720             Rx   d 8 2E 01 61 12 BA 0D 1C 5F
 14.880068 1  720             Rx   d 8 2F 08 00 61 5A F2 05 BD
 14.910337 1  720             Rx   d 8 20 17 2F 01 BC 57 09 00
 14.942459 1  720             Rx   d 8 21 E2 51 DA 05 1D 17 01
 14.973175 1  720             Rx   d 8 22 00 E0 11 B2 05 5C 07
 15.003612 1  720             Rx   d 8 23 0A 00 1D 17 11 00 E0
 15.017370 1  720             Rx   d 8 24 11 FA 3D 1D 17 31 01
 15.033416 1  720             Rx   d 8 25 61 12 BA 3D 1C 4F 08
 15.064772 1  720             Rx   d 8 26 00 61 4A C2 05 DC DF
 15.094481 1  720             Rx   d 8 27 09 00 CA 35 BD 17 2F
 15.126375 1  720             Rx   d 8 28 01 BC 5F 09 00 E2 59
 15.156763 1  720             Rx   d 8 29 E2 2D 3D DE D8 00 3D
 15.189687 1  720             Rx   d 8 2A EF 5D 00 FD 17 01 00
 15.219932 1  720             Rx   d 8 2B 1C 38 E9 17 40 02 3D
 15.282381 1  720             Rx   d 8 2C 36 04 00 08 42 C2 31
 15.283444 1  728             Rx   d 8 02 76 0E 00 00 00 00 00
 15.345078 1  720             Rx   d 8 10 CA 36 0F 41 32 BF FF
 15.346166 1  728             Rx   d 8 30 00 00 00 00 00 00 00
 15.406165 1  720             Rx   d 8 21 C8 FD FD 17 01 00 BC
 15.436970 1  720             Rx   d 8 22 57 09 00 02 F0 E9 F7
 15.468447 1  720             Rx   d 8 23 40 02 41 12 7D 17 00
 15.499675 1  720             Rx   d 8 24 00 DD F1 84 53 C2 00
 15.515633 1  720             Rx   d 8 25 02 06 F0 FF B9 05 7D
 15.529855 1  720             Rx   d 8 26 07 00 00 1B EE 2A 00
 15.545661 1  720             Rx   d 8 27 1D 30 80 FF 78 0F 61
 15.560082 1  720             Rx   d 8 28 52 CA 05 1D 30 80 FF
 15.576568 1  720             Rx   d 8 29 84 0F 01 DA 1B 50 40
 15.592293 1  720             Rx   d 8 2A 06 FF 10 80 07 61 00
 15.624403 1  720             Rx   d 8 2B 3E 06 58 2D FF 03 3E
 15.655287 1  720             Rx   d 8 2C EE 34 01 2C 06 00 25
 15.685884 1  720             Rx   d 8 2D FF 03 2F 65 2B 06 E0
 15.716105 1  720             Rx   d 8 2E 25 FF 03 2D 5D 3E 4E
 15.747245 1  720             Rx   d 8 2F D8 00 1E 36 02 01 01
 15.778929 1  720             Rx   d 8 20 3A 80 FF 5C 0F 08 12
 15.811246 1  720             Rx   d 8 21 1D F0 87 13 01 12 80
 15.841434 1  720             Rx   d 8 22 13 89 13 40 06 7F 00
 15.872683 1  720             Rx   d 8 23 40 07 A8 FC 40 07 A0
 15.902936 1  720             Rx   d 8 24 FC 7F 00 01 12 40 17
 15.933649 1  720             Rx   d 8 25 A8 FC 40 17 A0 FC 7F
 15.963717 1  720             Rx   d 8 26 00 7F 00 20 66 96 F5
 15.994041 1  720             Rx   d 8 27 CC 87 00 00 20 16 5A
 16.012671 1  720             Rx   d 8 28 00 40 17 92 F5 06 12
 16.040268 1  720             Rx   d 8 29 40 17 90 F5 C0 C7 96
 16.055386 1  720             Rx   d 8 2A F5 BA F5 20 3E 96 F5
 16.087798 1  720             Rx   d 8 2B C7 87 00 00 20 16 5A
 16.149143 1  720             Rx   d 8 2C 00 40 17 92 F5 20 16
 16.150191 1  728             Rx   d 8 02 76 0F 00 00 00 00 00
 16.269609 1  7DF             Rx   d 8 02 3E 80 00 00 00 00 00
 16.350740 1  720             Rx   d 8 10 CA 36 10 E8 00 40 17
 16.352667 1  728             Rx   d 8 30 00 00 00 00 00 00 00
 16.411133 1  720             Rx   d 8 21 94 F5 C0 C7 96 F5 AA
 16.441593 1  720             Rx   d 8 22 F5 7F 00 20 66 96 F5
 16.457087 1  720             Rx   d 8 23 CC 87 00 00 20 16 5A
 16.471757 1  720             Rx   d 8 24 00 40 17 92 F5 20 16
 16.487995 1  720             Rx   d 8 25 E8 00 40 17 94 F5 C0
 16.518191 1  720             Rx   d 8 26 C7 96 F5 AA F5 7F 00
 16.550251 1  720             Rx   d 8 27 C0 07 82 FD 7F 00 BF
 16.580768 1  720             Rx   d 8 28 07 8E FC 80 07 61 00
 16.611763 1  720             Rx   d 8 29 C6 00 06 E8 BF FF 7C
 16.643271 1  720             Rx   d 8 2A FC EA E9 D9 05 BF FF
 16.674027 1  720             Rx   d 8 2B 7A FC 01 52 A5 05 00
 16.702632 1  720             Rx   d 8 2C 52 40 06 7F 00 80 07
 16.733972 1  720             Rx   d 8 2D 21 00 C0 0F 82 FD BF
 16.766825 1  720             Rx   d 8 2E FF D6 FF 95 0D 20 36
 16.797501 1  720             Rx   d 8 2F 64 00 BF FF D0 FF 61
 16.827954 1  720             Rx   d 8 20 52 BA 05 00 52 A5 0D
 16.858789 1  720             Rx   d 8 21 C0 FF 86 FD CA 05 C0
 16.889529 1  720             Rx   d 8 22 FF 8A FD BA F5 BF FF
 16.904335 1  720             Rx   d 8 23 B4 FF 01 52 40 06 3F
 16.920097 1  720             Rx   d 8 24 00 80 07 21 00 C0 C7
 16.935391 1  720             Rx   d 8 25 86 FD 9A 15 C0 07 82
 16.951213 1  720             Rx   d 8 26 FD BF FF 9C FF 95 0D
 16.983209 1  720             Rx   d 8 27 20 36 64 00 BF FF 96
 17.014629 1  720             Rx   d 8 28 FF 61 52 BA 05 00 52
 17.043483 1  720             Rx   d 8 29 E5 05 C0 C7 82 FD EA
 17.075071 1  720             Rx   d 8 2A F5 BF FF A2 FF 40 06
 17.106023 1  720             Rx   d 8 2B 3F 00 C0 BF 8E F1 86
 17.168632 1  720             Rx   d 8 2C 00 40 37 80 FD BF 07
 17.169663 1  728             Rx   d 8 02 76 10 00 00 00 00 00
 17.214627 1  720             Rx   d 8 10 CA 36 11 6E FF C0 BF
 17.215714 1  728             Rx   d 8 30 00 00 00 00 00 00 00
 17.274460 1  720             Rx   d 8 21 82 FD 7F 00 40 07 02
 17.304441 1  720             Rx   d 8 22 F8 20 16 5A 00 40 17
 17.319342 1  720             Rx   d 8 23 00 F8 40 07 38 F8 00
 17.334564 1  720             Rx   d 8 24 00 00 00 00 00 00 00
 17.349866 1  720             Rx   d 8 25 00 00 80 17 03 F8 61
 17.382244 1  720             Rx   d 8 26 12 82 F5 7F 00 80 07
 17.413249 1  720             Rx   d 8 27 61 00 C0 37 22 F4 00
 17.444621 1  720             Rx   d 8 28 EA 95 1D C0 BF 22 F4
 17.474266 1  720             Rx   d 8 29 C0 BF 02 F4 BF FF 2C
 17.505166 1  720             Rx   d 8 2A FF 0A 32 BF FF 2A FF
 17.536179 1  720             Rx   d 8 2B E0 51 C2 FD C0 3F 02
 17.568047 1  720             Rx   d 8 2C F4 0A 32 BF FF 1C FF
 17.598667 1  720             Rx   d 8 2D E0 51 C2 FD 41 EA 9D
 17.629764 1  720             Rx   d 8 2E 00 6A EA B3 05 00 52
 17.660561 1  720             Rx   d 8 2F 95 1D C0 F7 02 F4 E2
 17.690965 1  720             Rx   d 8 20 E5 C0 3F 22 F4 C0 37
 17.722313 1  720             Rx   d 8 21 42 F4 C0 3F 42 F4 40
 17.752709 1  720             Rx   d 8 22 07 20 F7 C0 37 82 F3
 17.768315 1  720             Rx   d 8 23 C0 3F 82 F3 C0 37 02
 17.782474 1  720             Rx   d 8 24 F3 C0 3F 02 F3 C0 37
 17.798288 1  720             Rx   d 8 25 62 F3 01 52 C0 3F 62
 17.813942 1  720             Rx   d 8 26 F3 40 06 7F 00 80 07
 17.829932 1  720             Rx   d 8 27 21 00 C0 BF 82 FD C0
 17.844873 1  720             Rx   d 8 28 87 8A FD C0 0F 8A FD
 17.860981 1  720             Rx   d 8 29 C0 27 82 FD C0 1F 82
 17.877435 1  720             Rx   d 8 2A FD C0 97 82 FD BF FF
 17.908679 1  720             Rx   d 8 2B 50 FF C0 1F 84 FD C0
 17.972151 1  720             Rx   d 8 2C 17 84 FD C0 07 85 FD
 17.973183 1  728             Rx   d 8 02 76 11 00 00 00 00 00
 18.106815 1  7DF             Rx   d 8 02 3E 80 00 00 00 00 00
 18.171988 1  720             Rx   d 8 10 CA 36 12 C0 8F 84 FD
 18.173076 1  728             Rx   d 8 30 00 00 00 00 00 00 00
 18.232838 1  720             Rx   d 8 21 C0 87 84 FD 20 16 10
 18.263307 1  720             Rx   d 8 22 00 40 17 A0 FD C0 1F
 18.278400 1  720             Rx   d 8 23 A0 FD C0 8F A0 FD C0
 18.292805 1  720             Rx   d 8 24 87 A0 FD C0 3F 82 FD
 18.308571 1  720             Rx   d 8 25 BF FF 44 FF E0 51 92
 18.340591 1  720             Rx   d 8 26 1D BF FF 0A FB BF FF
 18.372295 1  720             Rx   d 8 27 00 FB 0A 06 E1 FF C1
 18.403283 1  720             Rx   d 8 28 FD BF FF 6E FE B5 0D
 18.435111 1  720             Rx   d 8 29 20 36 64 00 BF FF 68
 18.466627 1  720             Rx   d 8 2A FE 61 52 DA 05 C0 BF
 18.496111 1  720             Rx   d 8 2B 82 FD 00 52 D5 05 C0
 18.527196 1  720             Rx   d 8 2C F7 8A FD CA F5 01 52
 18.557048 1  720             Rx   d 8 2D 40 06 3F 00 40 0E FF
 18.589605 1  720             Rx   d 8 2E 03 41 07 55 2D 40 0E
 18.620265 1  720             Rx   d 8 2F FF 03 41 07 53 2D 40
 18.651031 1  720             Rx   d 8 20 0E FF 03 41 07 54 2D
 18.682363 1  720             Rx   d 8 21 7F 00 80 07 21 00 BF
 18.711015 1  720             Rx   d 8 22 FF 24 FE 40 0E FF 03
 18.725261 1  720             Rx   d 8 23 41 07 55 2D 40 0E FF
 18.742802 1  720             Rx   d 8 24 03 41 07 53 2D 01 52
 18.758440 1  720             Rx   d 8 25 40 06 3F 00 80 07 61
 18.773678 1  720             Rx   d 8 26 00 40 EE FF 03 BD 17
 18.792795 1  720             Rx   d 8 27 53 2D 3D EE 53 2D 02
 18.820456 1  720             Rx   d 8 28 06 C4 FF D9 05 5D 07
 18.851972 1  720             Rx   d 8 29 00 00 03 52 A5 1D C0
 18.881567 1  720             Rx   d 8 2A FF 8E F1 C2 05 C0 D7
 18.914257 1  720             Rx   d 8 2B 86 FD BA 15 C0 F7 8A
 18.975075 1  720             Rx   d 8 2C FD 82 15 20 36 64 00
 18.976106 1  728             Rx   d 8 02 76 12 00 00 00 00 00
 19.038507 1  720             Rx   d 8 10 CA 36 13 BF FF E0 FD
 19.039586 1  728             Rx   d 8 30 00 00 00 00 00 00 00
 19.098523 1  720             Rx   d 8 21 0A 40 61 42 FA 05 1D
 19.129348 1  720             Rx   d 8 22 F0 60 38 02 52 C8 39
 19.160329 1  720             Rx   d 8 23 80 3B C5 05 01 52 A5
 19.190189 1  720             Rx   d 8 24 05 00 52 40 06 7F 00
 19.205595 1  720             Rx   d 8 25 80 07 E1 70 06 D0 07
 19.221345 1  720             Rx   d 8 26 C8 08 D8 9B 00 BF FF
 19.236831 1  720             Rx   d 8 27 A0 FF 61 52 A2 55 3D
 19.252372 1  720             Rx   d 8 28 06 55 2D FF 03 63 52
 19.283449 1  720             Rx   d 8 29 EA 05 BF FF 98 FD 5D
 19.311341 1  720             Rx   d 8 2A 07 00 00 E5 15 62 52
 19.342729 1  720             Rx   d 8 2B BA 05 5D 07 00 00 1D
 19.374242 1  720             Rx   d 8 2C 17 00 00 3C 06 54 2D
 19.405910 1  720             Rx   d 8 2D FF 03 61 12 D1 05 82
 19.437522 1  720             Rx   d 8 2E 1D 62 12 D2 1D B5 3D
 19.468223 1  720             Rx   d 8 2F BF FF CC FD E0 51 DA
 19.502131 1  720             Rx   d 8 20 05 5D 57 00 00 01 52
 19.532551 1  720             Rx   d 8 21 85 3D 5C 07 00 00 1A
 19.563204 1  720             Rx   d 8 22 40 87 42 C8 3E 0E 00
 19.593672 1  720             Rx   d 8 23 87 36 A0 00 BF FF DE
 19.625725 1  720             Rx   d 8 24 FD 01 12 B5 25 1A 48
 19.656185 1  720             Rx   d 8 25 89 00 09 40 08 30 BF
 19.686783 1  720             Rx   d 8 26 FF CE FD B5 1D 9C F7
 19.701716 1  720             Rx   d 8 27 01 00 D9 F1 60 30 BF
 19.718130 1  720             Rx   d 8 28 FF C0 FD 1C F0 60 38
 19.734176 1  720             Rx   d 8 29 41 3A 87 00 80 3B FB
 19.748870 1  720             Rx   d 8 2A 39 EA 0D BF FF 16 FF
 19.764460 1  720             Rx   d 8 2B 61 52 D2 FD BF FF 18
 19.797056 1  720             Rx   d 8 2C FD 5D 07 00 00 40 0E
 19.798087 1  728             Rx   d 8 02 76 13 00 00 00 00 00
 19.875700 1  720             Rx   d 8 10 CA 36 14 FF 03 41 07
 19.876771 1  728             Rx   d 8 30 00 00 00 00 00 00 00
 19.982419 1  720             Rx   d 8 21 53 2D A5 0D 02 12 5D
 20.012759 1  720             Rx   d 8 22 17 00 00 00 52 E5 05
 20.043588 1  720             Rx   d 8 23 BF FF FC FC 5D 07 00
 20.073800 1  720             Rx   d 8 24 00 02 52 40 06 FF 70
 20.106592 1  720             Rx   d 8 25 C7 00 C5 05 46 07 00
 20.135509 1  720             Rx   d 8 26 00 41 32 07 60 5F 3A
 20.167369 1  720             Rx   d 8 27 C7 00 E0 61 9A FD 7F
 20.197181 1  720             Rx   d 8 28 00 C7 00 C5 05 46 07
 20.212235 1  720             Rx   d 8 29 00 00 41 32 07 60 5F
 20.226889 1  720             Rx   d 8 2A 3A C7 00 E0 61 9A FD
 20.243431 1  720             Rx   d 8 2B 7F 00 80 07 E1 00 3D
 20.259453 1  720             Rx   d 8 2C 06 58 2D FF 03 1D 30
 20.275355 1  720             Rx   d 8 2D 20 3E 14 02 BF FF DA
 20.306607 1  720             Rx   d 8 2E FF 01 12 1D F0 80 13
 20.336724 1  720             Rx   d 8 2F 8B 13 8D 13 40 F6 FF
 20.366945 1  720             Rx   d 8 20 03 3E F7 ED 22 60 30
 20.398726 1  720             Rx   d 8 21 00 12 06 06 01 FF A2
 20.429522 1  720             Rx   d 8 22 05 06 10 5D 17 28 01
 20.460135 1  720             Rx   d 8 23 66 58 0B 06 01 FF FA
 20.492771 1  720             Rx   d 8 24 0D 20 16 20 00 5D 17
 20.524135 1  720             Rx   d 8 25 2F 01 00 32 5D 07 28
 20.555724 1  720             Rx   d 8 26 01 01 E2 BF FF 8E F0
 20.585608 1  720             Rx   d 8 27 E0 51 A2 1D 02 E2 85
 20.616251 1  720             Rx   d 8 28 1D 60 50 61 52 5D 57
 20.647000 1  720             Rx   d 8 29 28 01 B3 05 5D 07 28
 20.676516 1  720             Rx   d 8 2A 01 67 48 09 06 01 FF
 20.693074 1  720             Rx   d 8 2B EA 05 02 12 5D 17 31
 20.722951 1  720             Rx   d 8 2C 01 66 40 D5 05 01 12
 20.723982 1  728             Rx   d 8 02 76 14 00 00 00 00 00
 20.858807 1  7DF             Rx   d 8 02 3E 80 00 00 00 00 00
 20.955135 1  720             Rx   d 8 10 CA 36 15 5D 17 31 01
 20.956207 1  728             Rx   d 8 30 00 00 00 00 00 00 00
 21.032319 1  720             Rx   d 8 21 67 40 5D 47 2F 01 B5
 21.060628 1  720             Rx   d 8 22 05 5D E7 31 01 20 16
 21.075274 1  720             Rx   d 8 23 64 00 7D 17 08 01 20
 21.090639 1  720             Rx   d 8 24 16 14 00 7D 17 0A 01
 21.107159 1  720             Rx   d 8 25 20 36 96 00 7D 37 0C
 21.123061 1  720             Rx   d 8 26 01 20 36 4B 00 7D 37
 21.137843 1  720             Rx   d 8 27 0E 01 20 36 88 13 7D
 21.154152 1  720             Rx   d 8 28 37 10 01 7D 17 12 01
 21.185461 1  720             Rx   d 8 29 20 16 94 11 7D 17 14
 21.215682 1  720             Rx   d 8 2A 01 BF FF 7C F8 BF FF
 21.246343 1  720             Rx   d 8 2B 2E F4 3D 36 12 02 BF
 21.276419 1  720             Rx   d 8 2C FF DA F3 61 52 E2 17
 21.307335 1  720             Rx   d 8 2D 00 00 5D 17 10 00 40
 21.338803 1  720             Rx   d 8 2E 06 FF 00 80 07 61 00
 21.369553 1  720             Rx   d 8 2F 40 EE FF 03 86 5E 30
 21.399486 1  720             Rx   d 8 20 00 5D 5F 6A 2D 3D EE
 21.431826 1  720             Rx   d 8 21 6A 2D 1D 4E 01 00 09
 21.463478 1  720             Rx   d 8 22 30 07 3A BF FF F0 FE
 21.494619 1  720             Rx   d 8 23 01 12 1D F0 B2 13 B3
 21.525031 1  720             Rx   d 8 24 03 B4 13 40 06 7F 00
 21.558563 1  720             Rx   d 8 25 84 07 E1 70 3D 06 58
 21.587488 1  720             Rx   d 8 26 2D FF 03 1D 67 54 00
 21.602477 1  720             Rx   d 8 27 3D E6 4A 00 00 CA 61
 21.618279 1  720             Rx   d 8 28 62 B2 05 80 07 E2 02
 21.633389 1  720             Rx   d 8 29 3D DE D8 00 1D 3F 4A
 21.649555 1  720             Rx   d 8 2A 00 3D 76 98 00 63 77
 21.663713 1  720             Rx   d 8 2B 05 00 3D D6 40 01 C7
 21.727819 1  720             Rx   d 8 2C 06 F0 00 A2 0D 1C 17
 21.728841 1  728             Rx   d 8 02 76 15 00 00 00 00 00
 21.805545 1  720             Rx   d 8 10 CA 36 16 00 00 C2 36
 21.806625 1  728             Rx   d 8 30 00 00 00 00 00 00 00
 21.898375 1  720             Rx   d 8 21 F0 00 06 06 F0 FF B2
 21.929477 1  720             Rx   d 8 22 05 80 07 86 01 3D F6
 21.959713 1  720             Rx   d 8 23 12 00 37 53 61 52 F2
 21.992069 1  720             Rx   d 8 24 05 3D 36 28 01 BF FF
 22.022610 1  720             Rx   d 8 25 6E F0 E0 51 AA 05 01
 22.053479 1  720             Rx   d 8 26 CA 1C 67 00 00 CC 06
 22.084387 1  720             Rx   d 8 27 F0 00 AA 0D CC 16 0F
 22.116269 1  720             Rx   d 8 28 00 B2 05 67 12 A3 05
 22.146619 1  720             Rx   d 8 29 01 CA BC 77 01 00 D5
 22.162336 1  720             Rx   d 8 2A 0D BC 57 01 00 CC 46
 22.176790 1  720             Rx   d 8 2B 0F 00 C8 42 C8 00 08
 22.207907 1  720             Rx   d 8 2C 51 68 52 A9 05 01 CA
 22.239432 1  720             Rx   d 8 2D 9C 77 03 00 43 77 03
 22.271340 1  720             Rx   d 8 2E 00 40 F6 FF 03 3E F7
 22.302513 1  720             Rx   d 8 2F E9 22 00 45 3F 06 EA
 22.333429 1  720             Rx   d 8 20 11 FF 03 1D 38 1C 30
 22.364161 1  720             Rx   d 8 21 68 00 43 57 02 00 E0
 22.394590 1  720             Rx   d 8 22 C9 B2 05 80 07 0C 01
 22.425355 1  720             Rx   d 8 23 5B CF 0A 00 80 FF 02
 22.456703 1  720             Rx   d 8 24 07 E0 51 BA 05 80 07
 22.487907 1  720             Rx   d 8 25 34 02 5D 07 24 01 1C
 22.518088 1  720             Rx   d 8 26 4F 00 00 C9 06 F0 00
 22.548100 1  720             Rx   d 8 27 BA 0D C9 46 0F 00 7A
 22.578881 1  720             Rx   d 8 28 47 D0 00 1A 30 1C 3E
 22.594079 1  720             Rx   d 8 29 01 00 BF FF E4 F2 F5
 22.609086 1  720             Rx   d 8 2A 35 03 4F 02 00 67 4A
 22.623973 1  720             Rx   d 8 2B B2 05 68 4A DA 0D 1C
 22.657088 1  720             Rx   d 8 2C 3F 08 00 61 3A DA 05
 22.658127 1  728             Rx   d 8 02 76 16 00 00 00 00 00
 22.793033 1  7DF             Rx   d 8 02 3E 80 00 00 00 00 00
 22.889505 1  720             Rx   d 8 10 CA 36 17 03 37 02 00
 22.890577 1  728             Rx   d 8 30 00 00 00 00 00 00 00
 22.965016 1  720             Rx   d 8 21 67 32 9A 2D 02 32 BF
 22.996437 1  720             Rx   d 8 22 FF C8 FE D5 25 00 32
 23.027921 1  720             Rx   d 8 23 BF FF C0 FE 01 12 5D
 23.058381 1  720             Rx   d 8 24 17 47 00 5D 17 24 01
 23.072851 1  720             Rx   d 8 25 5D 17 25 01 1A 30 1C
 23.088865 1  720             Rx   d 8 26 3E 02 00 06 42 BF FF
 23.104447 1  720             Rx   d 8 27 9E F2 1C F0 60 10 61
 23.119498 1  720             Rx   d 8 28 58 1A F0 1B 36 0C 00
 23.133608 1  720             Rx   d 8 29 C2 56 0F 00 0A 48 C9
 23.150206 1  720             Rx   d 8 2A 00 09 40 C8 00 08 38
 23.166068 1  720             Rx   d 8 2B C8 3A 07 59 E8 5C 06
 23.197848 1  720             Rx   d 8 2C 12 E6 14 80 FF 2A 09
 23.228852 1  720             Rx   d 8 2D 03 F0 02 6D 63 10 4D
 23.260049 1  720             Rx   d 8 2E 17 00 00 63 10 5D 17
 23.290925 1  720             Rx   d 8 2F 6C 00 02 13 62 12 81
 23.321554 1  720             Rx   d 8 20 15 A2 15 64 12 B1 15
 23.352263 1  720             Rx   d 8 21 92 0D 66 12 C3 05 6B
 23.383122 1  720             Rx   d 8 22 12 92 15 A5 25 20 16
 23.413918 1  720             Rx   d 8 23 11 00 F5 15 20 16 22
 23.444075 1  720             Rx   d 8 24 00 C5 15 20 16 13 00
 23.476031 1  720             Rx   d 8 25 95 15 20 16 33 00 E5
 23.513875 1  720             Rx   d 8 26 0D 20 16 7F 00 B5 0D
 23.535224 1  720             Rx   d 8 27 1C 4F 00 00 C9 4E F0
 23.550015 1  720             Rx   d 8 28 00 EA 0D 5C 4F 0A 00
 23.565901 1  720             Rx   d 8 29 00 52 80 07 4E 01 03
 23.598313 1  720             Rx   d 8 2A F0 02 6D 4D 17 01 00
 23.628464 1  720             Rx   d 8 2B 02 6D 01 12 4D 17 02
 23.692057 1  720             Rx   d 8 2C 00 5C 07 0A 00 80 07
 23.693096 1  728             Rx   d 8 02 76 17 00 00 00 00 00
 23.754498 1  720             Rx   d 8 10 CA 36 18 34 01 06 06
 23.755593 1  728             Rx   d 8 30 00 00 00 00 00 00 00
 23.830225 1  720             Rx   d 8 21 E0 FF AA 55 1D 17 24
 23.861069 1  720             Rx   d 8 22 01 61 12 EA 4D 1C F0
 23.891585 1  720             Rx   d 8 23 00 13 8A 03 C2 56 0F
 23.922701 1  720             Rx   d 8 24 00 BD 17 25 01 C2 36
 23.952961 1  720             Rx   d 8 25 0F 00 02 3E 01 00 5D
 23.969127 1  720             Rx   d 8 26 3F 25 01 E6 51 BA 35
 23.982789 1  720             Rx   d 8 27 FA 37 CD 00 FA 4F D1
 23.998307 1  720             Rx   d 8 28 00 1C 3E 01 00 06 10
 24.013353 1  720             Rx   d 8 29 02 56 07 00 DA 31 EA
 24.029679 1  720             Rx   d 8 2A 49 87 15 06 48 07 42
 24.060524 1  720             Rx   d 8 2B BF FF B8 F1 FA 5F CD
 24.090969 1  720             Rx   d 8 2C 00 1B 36 0C 00 47 5A
 24.122829 1  720             Rx   d 8 2D 7A 5F CC 00 80 FF 5A
 24.153882 1  720             Rx   d 8 2E 08 02 52 95 6D A2 49
 24.184878 1  720             Rx   d 8 2F 89 00 09 40 BF FF 98
 24.216011 1  720             Rx   d 8 20 F1 FA 47 D1 00 5D 07
 24.245255 1  720             Rx   d 8 21 24 01 1B 3E 06 00 07
 24.277827 1  720             Rx   d 8 22 30 7A 47 CC 00 80 FF
 24.309712 1  720             Rx   d 8 23 36 08 23 57 05 00 0A
 24.340716 1  720             Rx   d 8 24 57 02 00 E0 51 8A 55
 24.373003 1  720             Rx   d 8 25 A5 55 5D 07 24 01 5D
 24.403791 1  720             Rx   d 8 26 07 9A 00 01 12 5D 17
 24.433995 1  720             Rx   d 8 27 B9 00 1B 36 06 00 80
 24.464176 1  720             Rx   d 8 28 FF 12 08 B5 45 1C 17
 24.479013 1  720             Rx   d 8 29 00 00 C2 5E F0 00 0B
 24.493852 1  720             Rx   d 8 2A 06 D0 FF CA 3D 1D 17
 24.510210 1  720             Rx   d 8 2B 24 01 62 12 8A 3D 1C
 24.542917 1  720             Rx   d 8 2C 17 00 00 C2 46 0F 00
 24.543957 1  728             Rx   d 8 02 76 18 00 00 00 00 00
 24.677017 1  7DF             Rx   d 8 02 3E 80 00 00 00 00 00
 24.773301 1  720             Rx   d 8 10 CA 36 19 61 42 EA 1D
 24.774372 1  728             Rx   d 8 30 00 00 00 00 00 00 00
 24.835429 1  720             Rx   d 8 21 FD 67 27 01 0C 58 41
 24.864347 1  720             Rx   d 8 22 62 7D 67 26 01 CB 00
 24.895919 1  720             Rx   d 8 23 0B 06 A8 FD DA 0D 5D
 24.913564 1  720             Rx   d 8 24 07 24 01 1D F0 C6 03
 24.942079 1  720             Rx   d 8 25 C4 03 C5 03 5D 07 90
 24.957613 1  720             Rx   d 8 26 00 C9 03 5B 07 16 00
 24.971675 1  720             Rx   d 8 27 D5 05 1B 36 12 00 80
 24.988569 1  720             Rx   d 8 28 FF BA 07 5D 07 46 00
 25.003871 1  720             Rx   d 8 29 D5 15 C2 4E 0F 00 FA
 25.036379 1  720             Rx   d 8 2A 05 01 12 5D 17 46 00
 25.067288 1  720             Rx   d 8 2B 7D 07 26 01 A5 0D 5D
 25.098412 1  720             Rx   d 8 2C 07 24 01 1D F0 C6 03
 25.129299 1  720             Rx   d 8 2D C4 03 C5 03 5D 07 90
 25.159679 1  720             Rx   d 8 2E 00 C9 03 5B 07 16 00
 25.190291 1  720             Rx   d 8 2F 5C 07 0A 00 01 52 44
 25.221880 1  720             Rx   d 8 20 06 FF 70 80 07 E1 10
 25.252005 1  720             Rx   d 8 21 3D 06 58 2D FF 03 3C
 25.284353 1  720             Rx   d 8 22 06 E8 22 FF 03 3D DE
 25.314317 1  720             Rx   d 8 23 40 01 BF FF EC FC 0A
 25.345505 1  720             Rx   d 8 24 38 E0 39 B2 05 80 07
 25.375737 1  720             Rx   d 8 25 1A 01 9D 17 41 01 02
 25.406366 1  720             Rx   d 8 26 06 F0 FF A2 2D 02 06
 25.420268 1  720             Rx   d 8 27 EF FF E2 1D 02 06 DE
 25.435730 1  720             Rx   d 8 28 FF E2 35 02 06 D9 FF
 25.451832 1  720             Rx   d 8 29 A2 2D 02 06 D2 FF 92
 25.467326 1  720             Rx   d 8 2A 3D 02 06 CF FF 92 3D
 25.499626 1  720             Rx   d 8 2B 02 06 CC FF B1 05 80
 25.562003 1  720             Rx   d 8 2C 07 0A 01 C2 3D 02 06
 25.563043 1  728             Rx   d 8 02 76 19 00 00 00 00 00
 25.624810 1  720             Rx   d 8 10 CA 36 1A CA FF A9 45
 25.625905 1  728             Rx   d 8 30 00 00 00 00 00 00 00
 25.700225 1  720             Rx   d 8 21 A2 4D 02 06 C9 FF 92
 25.731325 1  720             Rx   d 8 22 5D 02 06 C2 FF F2 5D
 25.761202 1  720             Rx   d 8 23 85 7D 3C F7 01 00 1E
 25.790767 1  720             Rx   d 8 24 5D 3F 06 B8 14 FF 03
 25.805581 1  720             Rx   d 8 25 1D 30 6B 00 F5 6D 3C
 25.821003 1  720             Rx   d 8 26 F7 01 00 1A 55 3F 06
 25.836249 1  720             Rx   d 8 27 CA 14 FF 03 1D 30 6A
 25.852247 1  720             Rx   d 8 28 00 E5 65 3C F7 01 00
 25.867187 1  720             Rx   d 8 29 0C 4D 3F 06 DC 14 FF
 25.883729 1  720             Rx   d 8 2A 03 1D 30 69 00 D5 5D
 25.914229 1  720             Rx   d 8 2B 3C F7 01 00 0E 45 3F
 25.946137 1  720             Rx   d 8 2C 06 EE 14 FF 03 1D 30
 25.976973 1  720             Rx   d 8 2D 68 00 C5 55 80 FF 52
 26.008450 1  720             Rx   d 8 2E 08 95 55 3C F7 01 00
 26.041365 1  720             Rx   d 8 2F 10 3D 3F 06 06 15 FF
 26.069618 1  720             Rx   d 8 20 03 1D 30 67 00 85 4D
 26.101031 1  720             Rx   d 8 21 3C F7 01 00 06 65 3F
 26.131574 1  720             Rx   d 8 22 06 18 15 FF 03 1D 30
 26.161163 1  720             Rx   d 8 23 6C 00 F5 3D 3C F7 01
 26.193015 1  720             Rx   d 8 24 00 06 5D 3F 06 2A 15
 26.223811 1  720             Rx   d 8 25 FF 03 1D 30 6B 00 E5
 26.254560 1  720             Rx   d 8 26 35 1D 17 02 00 61 12
 26.284580 1  720             Rx   d 8 27 EA 05 1D 17 B6 00 E0
 26.299994 1  720             Rx   d 8 28 11 EA 2D B5 2D 3C F7
 26.316608 1  720             Rx   d 8 29 01 00 02 55 3F 06 4E
 26.331269 1  720             Rx   d 8 2A 15 FF 03 1D 30 6A 00
 26.346132 1  720             Rx   d 8 2B C5 25 3C F7 01 00 14
 26.379708 1  720             Rx   d 8 2C 4D 3F 06 60 15 FF 03
 26.380755 1  728             Rx   d 8 02 76 1A 00 00 00 00 00
 26.499747 1  7DF             Rx   d 8 02 3E 80 00 00 00 00 00
 26.596286 1  720             Rx   d 8 10 CA 36 1B 1D 30 69 00
 26.597374 1  728             Rx   d 8 30 00 00 00 00 00 00 00
 26.672424 1  720             Rx   d 8 21 B5 1D 3C F7 01 00 1C
 26.703237 1  720             Rx   d 8 22 45 3F 06 72 15 FF 03
 26.734577 1  720             Rx   d 8 23 1D 30 68 00 A5 15 62
 26.762813 1  720             Rx   d 8 24 3A 8A 15 1D 17 02 00
 26.780355 1  720             Rx   d 8 25 61 12 8A 35 9B 17 01
 26.796505 1  720             Rx   d 8 26 00 02 06 CA FF FA 05
 26.811855 1  720             Rx   d 8 27 1D 17 9A 00 E0 11 BA
 26.826933 1  720             Rx   d 8 28 05 80 FF E2 04 1D 17
 26.842787 1  720             Rx   d 8 29 02 00 61 12 9A 25 9B
 26.858412 1  720             Rx   d 8 2A 17 01 00 02 06 CA FF
 26.871410 1  720             Rx   d 8 2B CA 1D FB 37 D1 00 E0
 26.904918 1  720             Rx   d 8 2C 31 82 1D 1D 17 B6 00
 26.935501 1  720             Rx   d 8 2D 61 12 D2 05 1D 17 B9
 26.966474 1  720             Rx   d 8 2E 00 61 12 8A 15 1D 17
 26.996774 1  720             Rx   d 8 2F 9A 00 E0 11 AA 0D 3C
 27.027035 1  720             Rx   d 8 20 F7 01 00 04 65 3F 06
 27.059119 1  720             Rx   d 8 21 D8 15 FF 03 1D 30 6C
 27.089443 1  720             Rx   d 8 22 00 B5 05 5B 07 00 00
 27.121447 1  720             Rx   d 8 23 40 06 FF 10 80 07 E1
 27.151971 1  720             Rx   d 8 24 10 3C 06 58 2D FF 03
 27.181951 1  720             Rx   d 8 25 1C 17 24 01 E0 11 AA
 27.212780 1  720             Rx   d 8 26 45 1C 17 52 00 3C DE
 27.227634 1  720             Rx   d 8 27 98 00 3C EE 12 00 61
 27.242752 1  720             Rx   d 8 28 12 8A 1D BC 57 99 00
 27.257982 1  720             Rx   d 8 29 0A 06 EE FF F2 05 0A
 27.274196 1  720             Rx   d 8 2A 06 EF FF C2 05 0A 06
 27.290073 1  720             Rx   d 8 2B CF FF DA 0D 5B 07 02
 27.322334 1  720             Rx   d 8 2C 00 5C 07 0F 00 3C 46
 27.323357 1  728             Rx   d 8 02 76 1B 00 00 00 00 00
 27.400024 1  720             Rx   d 8 10 CA 36 1C D8 00 1C 4E
 27.401103 1  728             Rx   d 8 30 00 00 00 00 00 00 00
 27.491518 1  720             Rx   d 8 21 DE 00 09 30 80 FF 8E
 27.522274 1  720             Rx   d 8 22 05 B5 25 BB 17 01 00
 27.552719 1  720             Rx   d 8 23 02 06 88 FF BA 05 5C
 27.583379 1  720             Rx   d 8 24 07 06 00 03 32 1D F0
 27.613996 1  720             Rx   d 8 25 80 33 20 36 7F 00 81
 27.644529 1  720             Rx   d 8 26 33 9B 37 01 00 83 13
 27.675021 1  720             Rx   d 8 27 04 3A 82 33 1D 36 04
 27.690707 1  720             Rx   d 8 28 00 BF FF C0 F9 5B 07
 27.706649 1  720             Rx   d 8 29 02 00 01 12 1D F0 B4
 27.721815 1  720             Rx   d 8 2A 13 B2 13 B3 03 1C F0
 27.737781 1  720             Rx   d 8 2B C9 03 8F 03 80 FF 4C
 27.768201 1  720             Rx   d 8 2C 04 40 06 FF 10 80 07
 27.799118 1  720             Rx   d 8 2D E1 10 3D 06 58 2D FF
 27.829914 1  720             Rx   d 8 2E 03 1D E0 1C 67 02 00
 27.861205 1  720             Rx   d 8 2F 61 62 BA 05 80 FF 9E
 27.891953 1  720             Rx   d 8 20 02 1C 5F 04 00 61 5A
 27.922052 1  720             Rx   d 8 21 BA 05 80 FF 28 06 1C
 27.954369 1  720             Rx   d 8 22 57 09 00 3B 06 E8 22
 27.984397 1  720             Rx   d 8 23 FF 03 61 52 D2 05 1C
 28.015425 1  720             Rx   d 8 24 4F 08 00 61 4A 9A 0D
 28.045869 1  720             Rx   d 8 25 3B F7 01 00 08 45 3F
 28.076426 1  720             Rx   d 8 26 06 C4 16 FF 03 1D 30
 28.107070 1  720             Rx   d 8 27 68 00 1C 3F 07 00 61
 28.122632 1  720             Rx   d 8 28 3A BA 05 80 FF 8A 01
 28.137110 1  720             Rx   d 8 29 1C 37 01 00 61 32 FA
 28.152908 1  720             Rx   d 8 2A 1D 9D 5F 6D 00 0B 06
 28.168410 1  720             Rx   d 8 2B F0 FF C2 05 0B 06 EF
 28.231003 1  720             Rx   d 8 2C FF FA 0D 1D 30 BF FF
 28.232027 1  728             Rx   d 8 02 76 1C 00 00 00 00 00
 28.365427 1  7DF             Rx   d 8 02 3E 80 00 00 00 00 00
 28.447604 1  720             Rx   d 8 10 CA 36 1D 34 F2 62 52
 28.448700 1  728             Rx   d 8 30 00 00 00 00 00 00 00
 28.508701 1  720             Rx   d 8 21 AA 15 3B F7 01 00 20
 28.539106 1  720             Rx   d 8 22 55 3F 06 02 17 FF 03
 28.552736 1  720             Rx   d 8 23 1D 30 6A 00 95 0D 3B
 28.568519 1  720             Rx   d 8 24 F7 01 00 20 4D 3F 06
 28.583076 1  720             Rx   d 8 25 14 17 FF 03 1D 30 69
 28.615573 1  720             Rx   d 8 26 00 1C 47 0E 00 61 42
 28.645409 1  720             Rx   d 8 27 9A 0D 3B F7 01 00 16
 28.676438 1  720             Rx   d 8 28 3D 3F 06 2C 17 FF 03
 28.706443 1  720             Rx   d 8 29 1D 30 67 00 1C 37 05
 28.737383 1  720             Rx   d 8 2A 00 61 32 9A 0D 3B F7
 28.764235 1  720             Rx   d 8 2B 01 00 0A 65 3F 06 44
 28.798599 1  720             Rx   d 8 2C 17 FF 03 1D 30 6C 00
 28.828604 1  720             Rx   d 8 2D 1D 17 9A 00 61 12 BA
 28.860125 1  720             Rx   d 8 2E 05 BF FF 96 FE 1D 17
 28.891618 1  720             Rx   d 8 2F 90 00 61 12 9A 0D 3B
 28.921053 1  720             Rx   d 8 20 F7 01 00 18 5D 3F 06
 28.937755 1  720             Rx   d 8 21 68 17 FF 03 1D 30 6B
 28.952568 1  720             Rx   d 8 22 00 40 06 FF 10 80 07
 28.967221 1  720             Rx   d 8 23 E1 70 3D 06 58 2D FF
 28.983003 1  720             Rx   d 8 24 03 3D E6 D8 00 BF FF
 29.014544 1  720             Rx   d 8 25 B6 F8 FD 3F 0B 01 1C
 29.044820 1  720             Rx   d 8 26 30 80 FF 42 04 FD 3F
 29.077424 1  720             Rx   d 8 27 11 01 1C DE 06 00 1B
 29.107997 1  720             Rx   d 8 28 30 80 FF 34 04 FD 3F
 29.139541 1  720             Rx   d 8 29 09 01 1C 36 18 00 80
 29.170121 1  720             Rx   d 8 2A FF 28 04 FD 3F 0D 01
 29.201733 1  720             Rx   d 8 2B 1C CE 0C 00 19 30 80
 29.265023 1  720             Rx   d 8 2C FF 1A 04 FD 3F 0F 01
 29.266047 1  728             Rx   d 8 02 76 1D 00 00 00 00 00
 29.327520 1  720             Rx   d 8 10 CA 36 1E 1C D6 12 00
 29.328592 1  728             Rx   d 8 30 00 00 00 00 00 00 00
 29.388815 1  720             Rx   d 8 21 1A 30 80 FF 0C 04 5D
 29.419715 1  720             Rx   d 8 22 07 E8 00 5D 07 EE 00
 29.450095 1  720             Rx   d 8 23 80 FF 26 03 BF FF 72
 29.480987 1  720             Rx   d 8 24 FC BF FF AC FE 80 FF
 29.494673 1  720             Rx   d 8 25 42 04 80 FF 94 03 BF
 29.511103 1  720             Rx   d 8 26 FF F8 F4 19 30 80 FF
 29.541507 1  720             Rx   d 8 27 C4 03 61 52 FA 15 1D
 29.572072 1  720             Rx   d 8 28 17 24 01 61 12 BA 15
 29.604380 1  720             Rx   d 8 29 1D 17 02 00 61 12 CA
 29.634572 1  720             Rx   d 8 2A 05 5D 17 B9 00 B5 05
 29.664873 1  720             Rx   d 8 2B 5D 07 40 01 5D 07 24
 29.695709 1  720             Rx   d 8 2C 01 5D 07 9A 00 1B 30
 29.726841 1  720             Rx   d 8 2D 80 FF AE 03 59 07 04
 29.757606 1  720             Rx   d 8 2E 00 1A 30 80 FF 8E 03
 29.788083 1  720             Rx   d 8 2F 61 52 8A 15 1D 17 24
 29.819167 1  720             Rx   d 8 20 01 62 12 CA 0D 5D 07
 29.850219 1  720             Rx   d 8 21 24 01 5D 07 90 00 5D
 29.880397 1  720             Rx   d 8 22 07 49 00 1B 30 80 FF
 29.895354 1  720             Rx   d 8 23 86 03 5A 07 04 00 1B
 29.909232 1  720             Rx   d 8 24 30 80 FF 66 03 61 52
 29.940921 1  720             Rx   d 8 25 9A C5 1D F0 C4 03 C5
 29.971942 1  720             Rx   d 8 26 03 5D 07 90 00 01 12
 30.005569 1  720             Rx   d 8 27 81 13 95 BD 80 07 E1
 30.035631 1  720             Rx   d 8 28 00 3D 06 58 2D FF 03
 30.066339 1  720             Rx   d 8 29 1D E0 1C 67 07 00 61
 30.095695 1  720             Rx   d 8 2A 62 8A 4D 3D 3F 1D 01
 30.127299 1  720             Rx   d 8 2B 3D 37 19 01 BF FF EA
 30.189451 1  720             Rx   d 8 2C EC 61 52 D1 05 C2 1D
 30.190491 1  728             Rx   d 8 02 76 1E 00 00 00 00 00
 30.299551 1  7DF             Rx   d 8 02 3E 80 00 00 00 00 00
 30.381216 1  720             Rx   d 8 10 CA 36 1F 62 52 C2 25
 30.382304 1  728             Rx   d 8 30 00 00 00 00 00 00 00
 30.442049 1  720             Rx   d 8 21 C5 3D 3D E6 D8 00 80
 30.472734 1  720             Rx   d 8 22 FF E4 02 1C 30 80 FF
 30.502179 1  720             Rx   d 8 23 18 03 61 52 BA 35 3D
 30.517177 1  720             Rx   d 8 24 F6 98 00 20 16 78 00
 30.548493 1  720             Rx   d 8 25 81 13 FD 3F 15 01 01
 30.579625 1  720             Rx   d 8 26 12 82 13 1C 30 80 FF
 30.608854 1  720             Rx   d 8 27 1E 03 5D 07 06 00 C5
 30.641751 1  720             Rx   d 8 28 25 5C 07 07 00 3D F6
 30.672371 1  720             Rx   d 8 29 98 00 20 16 72 00 81
 30.703319 1  720             Rx   d 8 2A 13 01 12 82 13 A5 1D
 30.733795 1  720             Rx   d 8 2B 1D 17 06 00 5C 07 07
 30.762608 1  720             Rx   d 8 2C 00 E0 11 8A 15 3D F6
 30.794140 1  720             Rx   d 8 2D 6C 00 05 12 81 14 01
 30.825712 1  720             Rx   d 8 2E 12 81 13 20 36 FF 00
 30.856957 1  720             Rx   d 8 2F 84 33 85 03 20 36 10
 30.888304 1  720             Rx   d 8 20 00 86 33 A4 13 D5 05
 30.919316 1  720             Rx   d 8 21 3D 36 DE 00 80 FF C6
 30.933833 1  720             Rx   d 8 22 02 40 06 FF 00 3E 06
 30.948559 1  720             Rx   d 8 23 58 2D FF 03 85 03 5E
 30.964061 1  720             Rx   d 8 24 07 CC 00 88 03 89 03
 30.980291 1  720             Rx   d 8 25 8E 03 81 03 DA 04 D9
 31.011528 1  720             Rx   d 8 26 04 01 32 5E 37 B6 00
 31.042508 1  720             Rx   d 8 27 5E 07 B9 00 5E 07 9A
 31.072649 1  720             Rx   d 8 28 00 C9 03 84 03 87 03
 31.103485 1  720             Rx   d 8 29 BF 07 24 EC 80 07 E1
 31.133772 1  720             Rx   d 8 2A 00 3C 06 58 2D FF 03
 31.165464 1  720             Rx   d 8 2B 1C 67 B7 00 3C EE 9C
 31.212859 1  720             Rx   d 8 2C 00 61 62 BA 05 80 07
 31.213914 1  728             Rx   d 8 02 76 1F 00 00 00 00 00
 31.260757 1  720             Rx   d 8 10 CA 36 20 2E 01 1C 17
 31.261829 1  728             Rx   d 8 30 00 00 00 00 00 00 00
 31.321311 1  720             Rx   d 8 21 0D 00 61 12 EA 1D FC
 31.351235 1  720             Rx   d 8 22 17 11 02 FD 4F 17 00
 31.367413 1  720             Rx   d 8 23 E2 49 8A 1D FD 57 19
 31.397937 1  720             Rx   d 8 24 00 E9 51 89 4D 3C 36
 31.413727 1  720             Rx   d 8 25 D8 00 80 FF 3E 02 61
 31.428997 1  720             Rx   d 8 26 52 EA 0D 3C F6 98 00
 31.444714 1  720             Rx   d 8 27 20 16 78 00 81 13 FC
 31.460192 1  720             Rx   d 8 28 3F 15 01 01 12 82 13
 31.492069 1  720             Rx   d 8 29 3C 36 D8 00 80 FF 42
 31.522297 1  720             Rx   d 8 2A 02 1D F0 7B 38 7C 40
 31.553518 1  720             Rx   d 8 2B E7 41 89 35 1D 37 1C
 31.585450 1  720             Rx   d 8 2C 00 E0 31 CA 25 1C 17
 31.615979 1  720             Rx   d 8 2D 9A 00 E0 11 E2 05 BC
 31.647967 1  720             Rx   d 8 2E 17 99 00 02 06 88 FF
 31.677843 1  720             Rx   d 8 2F BA 1D BF FF 42 EC 0A
 31.708992 1  720             Rx   d 8 20 10 E0 11 CE 0D 3C F6
 31.740212 1  720             Rx   d 8 21 98 00 20 16 72 00 81
 31.770401 1  720             Rx   d 8 22 13 01 12 82 13 1D F0
 31.801413 1  720             Rx   d 8 23 7B 58 8C 5C B5 15 E0
 31.832593 1  720             Rx   d 8 24 11 92 15 1D F0 7C 30
 31.863389 1  720             Rx   d 8 25 04 5D C2 31 8C 34 C2
 31.894857 1  720             Rx   d 8 26 59 05 5D 95 0D 1D F0
 31.925795 1  720             Rx   d 8 27 7B 50 7C 40 04 3D 8C
 31.939747 1  720             Rx   d 8 28 54 8A 41 C8 39 05 3D
 31.955777 1  720             Rx   d 8 29 1D F0 04 5D 02 65 EC
 31.986997 1  720             Rx   d 8 2A 59 CA 1D 7C 48 7B 50
 32.017377 1  720             Rx   d 8 2B E9 51 8A 1D 1D 47 1A
 32.079467 1  720             Rx   d 8 2C 00 E0 41 CA 15 02 32
 32.080507 1  728             Rx   d 8 02 76 20 00 00 00 00 00
 32.199333 1  7DF             Rx   d 8 02 3E 80 00 00 00 00 00
 32.265027 1  720             Rx   d 8 10 CA 36 21 1D F0 8C 04
 32.266107 1  728             Rx   d 8 30 00 00 00 00 00 00 00
 32.326941 1  720             Rx   d 8 21 8B 04 01 12 9D 3F 15
 32.358121 1  720             Rx   d 8 22 00 9A 13 3C F6 6C 00
 32.374190 1  720             Rx   d 8 23 81 34 81 3B A4 13 1D
 32.387820 1  720             Rx   d 8 24 F0 9B 13 9C 03 5C 07
 32.402058 1  720             Rx   d 8 25 40 01 B5 1D FD 37 19
 32.418688 1  720             Rx   d 8 26 00 06 06 36 FF CA 1D
 32.449765 1  720             Rx   d 8 27 7C 07 0C 02 7C 07 0E
 32.480537 1  720             Rx   d 8 28 02 7C 07 10 02 02 32
 32.511102 1  720             Rx   d 8 29 1D F0 8C 04 8B 04 01
 32.541522 1  720             Rx   d 8 2A 12 9D 67 15 00 9A 13
 32.570975 1  720             Rx   d 8 2B 3C F6 6C 00 81 34 81
 32.603371 1  720             Rx   d 8 2C 63 5D 07 1C 00 A4 13
 32.634267 1  720             Rx   d 8 2D 9D 17 15 00 1D F0 95
 32.665047 1  720             Rx   d 8 2E 13 41 12 94 13 40 06
 32.695596 1  720             Rx   d 8 2F FF 00 22 06 58 2D FF
 32.726640 1  720             Rx   d 8 20 03 E2 67 11 02 62 62
 32.757525 1  720             Rx   d 8 21 99 0D 22 F6 98 00 20
 32.771531 1  720             Rx   d 8 22 16 13 00 81 13 01 12
 32.785913 1  720             Rx   d 8 23 82 13 E5 15 22 F6 9C
 32.803319 1  720             Rx   d 8 24 00 7B 58 0C 30 47 5A
 32.818061 1  720             Rx   d 8 25 8B 5C CB 00 E6 59 A3
 32.850777 1  720             Rx   d 8 26 05 8B 34 E2 37 11 02
 32.880929 1  720             Rx   d 8 27 7B 40 E6 41 FA 05 E2
 32.912422 1  720             Rx   d 8 28 3F 13 01 22 36 D8 00
 32.942966 1  720             Rx   d 8 29 80 07 0E 01 7F 00 80
 32.973995 1  720             Rx   d 8 2A 07 E1 00 3D 06 58 2D
 33.006839 1  720             Rx   d 8 2B FF 03 3D E6 4A 00 3D
 33.068105 1  720             Rx   d 8 2C 36 28 01 1C 38 1D 40
 33.069129 1  728             Rx   d 8 02 76 21 00 00 00 00 00
 33.129067 1  720             Rx   d 8 10 CA 36 22 BF FF CE E7
 33.130137 1  728             Rx   d 8 30 00 00 00 00 00 00 00
 33.191627 1  720             Rx   d 8 21 3D 36 34 01 1C 38 1D
 33.221248 1  720             Rx   d 8 22 40 BF FF C2 E7 5D 07
 33.252732 1  720             Rx   d 8 23 54 00 40 06 FF 00 80
 33.268186 1  720             Rx   d 8 24 07 61 00 3D 06 58 2D
 33.283584 1  720             Rx   d 8 25 FF 03 BF FF 76 F0 BF
 33.298438 1  720             Rx   d 8 26 FF DC EF 3D F6 4A 00
 33.314219 1  720             Rx   d 8 27 0A 63 61 62 8A 35 1D
 33.329593 1  720             Rx   d 8 28 17 07 00 E0 11 BA 2D
 33.360589 1  720             Rx   d 8 29 1D 17 09 00 E0 11 FA
 33.391665 1  720             Rx   d 8 2A 25 08 5B 61 5A DA 25
 33.423165 1  720             Rx   d 8 2B 60 10 62 12 EA 15 61
 33.453753 1  720             Rx   d 8 2C 10 02 06 C2 FF EA 1D
 33.484422 1  720             Rx   d 8 2D 02 13 C2 56 7F 00 AA
 33.515754 1  720             Rx   d 8 2E 1D 88 12 89 1D 8A 03
 33.556277 1  720             Rx   d 8 2F 3D F6 D8 00 0A 5B E0
 33.577427 1  720             Rx   d 8 20 59 A2 15 1E 36 06 00
 33.608911 1  720             Rx   d 8 21 80 FF 72 00 D5 0D C2
 33.641313 1  720             Rx   d 8 22 66 F0 00 0C 06 F0 FF
 33.672093 1  720             Rx   d 8 23 F2 05 0C 06 E0 FF C2
 33.702769 1  720             Rx   d 8 24 05 0C 06 D0 FF AA 05
 33.733534 1  720             Rx   d 8 25 8A 03 40 06 7F 00 80
 33.763947 1  720             Rx   d 8 26 07 21 00 BF FF 2C EE
 33.779297 1  720             Rx   d 8 27 61 52 EA 15 00 12 E2
 33.793887 1  720             Rx   d 8 28 F6 06 00 1E 30 46 36
 33.810301 1  720             Rx   d 8 29 FF 03 E6 67 33 2E E0
 33.826283 1  720             Rx   d 8 2A 61 82 0D 26 06 30 2E
 33.840912 1  720             Rx   d 8 2B FF 03 C6 F1 71 58 5F
 33.889388 1  720             Rx   d 8 2C 5A 81 5C 41 12 82 00
 33.890427 1  728             Rx   d 8 02 76 22 00 00 00 00 00
 33.951817 1  720             Rx   d 8 10 CA 36 23 68 12 D1 ED
 33.952887 1  728             Rx   d 8 30 00 00 00 00 00 00 00
 34.043285 1  720             Rx   d 8 21 40 06 3F 00 06 67 04
 34.073498 1  720             Rx   d 8 22 00 00 52 61 62 EA 05
 34.104150 1  720             Rx   d 8 23 E6 5F 03 00 E0 59 E2
 34.136805 1  720             Rx   d 8 24 57 00 00 7F 00 06 F0
 34.167521 1  720             Rx   d 8 25 70 60 01 12 84 13 81
 34.197309 1  720             Rx   d 8 26 64 7F 00 06 F0 80 3C
 34.228113 1  720             Rx   d 8 27 81 3C 01 12 84 13 7F
 34.258557 1  720             Rx   d 8 28 00 9C 07 61 00 06 E8
 34.272419 1  720             Rx   d 8 29 40 0E FF 03 41 07 5E
 34.287969 1  720             Rx   d 8 2A 2D 03 30 20 3E 38 00
 34.304263 1  720             Rx   d 8 2B BF FF 34 F4 03 12 03
 34.319845 1  720             Rx   d 8 2C F0 80 13 20 16 7F 00
 34.352050 1  720             Rx   d 8 2D 81 13 82 EB 20 16 78
 34.383074 1  720             Rx   d 8 2E 00 83 13 01 12 B2 13
 34.413847 1  720             Rx   d 8 2F B4 13 26 06 80 2E FF
 34.444691 1  720             Rx   d 8 20 03 03 38 BF FF 12 E6
 34.475847 1  720             Rx   d 8 21 5C 06 7F 00 80 07 E1
 34.507413 1  720             Rx   d 8 22 00 3C 06 58 2D FF 03
 34.537849 1  720             Rx   d 8 23 1C 67 46 00 3C EE 12
 34.568565 1  720             Rx   d 8 24 00 E0 61 92 4D 9C 5F
 34.599339 1  720             Rx   d 8 25 45 00 BC 17 45 00 E2
 34.629919 1  720             Rx   d 8 26 59 D3 35 E2 4E 0A 00
 34.661524 1  720             Rx   d 8 27 3C 36 28 01 09 40 DD
 34.691304 1  720             Rx   d 8 28 41 08 38 BF FF DA E5
 34.722780 1  720             Rx   d 8 29 E0 51 D2 15 BD 17 33
 34.738698 1  720             Rx   d 8 2A 00 E2 F6 0A 00 DD F1
 34.754345 1  720             Rx   d 8 2B 00 13 C2 3E F0 00 07
 34.783357 1  720             Rx   d 8 2C 06 F0 FF DA 05 1D F0
 34.784412 1  728             Rx   d 8 02 76 23 00 00 00 00 00
 34.921677 1  7DF             Rx   d 8 02 3E 80 00 00 00 00 00
 35.018506 1  720             Rx   d 8 10 CA 36 24 B4 03 01 12
 35.019602 1  728             Rx   d 8 30 00 00 00 00 00 00 00
 35.096250 1  720             Rx   d 8 21 B7 13 BD 5F 33 00 41
 35.125725 1  720             Rx   d 8 22 5A 5D 5F 33 00 BD 4F
 35.156106 1  720             Rx   d 8 23 33 00 9D 57 33 00 E9
 35.186646 1  720             Rx   d 8 24 51 DA 0D 1D 47 35 00
 35.217475 1  720             Rx   d 8 25 E0 41 9A 0D 1D 3F 36
 35.241056 1  720             Rx   d 8 26 00 E0 39 DA 05 3C 36
 35.272565 1  720             Rx   d 8 27 DE 00 BF FF 26 FF 5D
 35.304225 1  720             Rx   d 8 28 07 35 00 F5 0D 1D F0
 35.334517 1  720             Rx   d 8 29 1C 17 24 01 B2 03 B3
 35.365551 1  720             Rx   d 8 2A 03 B7 03 62 12 FA 05
 35.397476 1  720             Rx   d 8 2B 1D 17 36 00 E0 11 BA
 35.427680 1  720             Rx   d 8 2C 05 5C 17 24 01 BF FF
 35.459333 1  720             Rx   d 8 2D 66 ED 40 06 FF 00 7F
 35.490081 1  720             Rx   d 8 2E 00 22 06 98 2E FF 03
 35.504702 1  720             Rx   d 8 2F A2 67 01 00 3E 06 C4
 35.520347 1  720             Rx   d 8 20 2D FF 03 82 5F 03 00
 35.535793 1  720             Rx   d 8 21 86 00 81 63 81 34 84
 35.550839 1  720             Rx   d 8 22 5B 01 12 A4 13 7F 00
 35.566349 1  720             Rx   d 8 23 3E 06 F0 2D FF 03 81
 35.599065 1  720             Rx   d 8 24 33 01 12 82 13 7F 00
 35.629206 1  720             Rx   d 8 25 80 07 21 00 06 F0 6C
 35.660451 1  720             Rx   d 8 26 40 04 35 27 06 9B 2E
 35.691903 1  720             Rx   d 8 27 FF 03 BF FF 9A EA E0
 35.721891 1  720             Rx   d 8 28 51 D2 05 03 32 BF FF
 35.753024 1  720             Rx   d 8 29 B6 FF D5 05 20 36 72
 35.783757 1  720             Rx   d 8 2A 00 BF FF CE FF 40 06
 35.814449 1  720             Rx   d 8 2B 3F 00 C6 00 3E 06 F0
 35.861707 1  720             Rx   d 8 2C 22 FF 03 70 48 E6 49
 35.863603 1  728             Rx   d 8 02 76 24 00 00 00 00 00
 35.909373 1  720             Rx   d 8 10 CA 36 25 CA 05 02 55
 35.910453 1  728             Rx   d 8 30 00 00 00 00 00 00 00
 35.968850 1  720             Rx   d 8 21 E0 51 EA 05 E0 49 C2
 35.982504 1  720             Rx   d 8 22 05 1E F6 10 00 E5 F5
 35.998326 1  720             Rx   d 8 23 1E 50 7F 00 80 07 E1
 36.029675 1  720             Rx   d 8 24 00 40 66 FF 03 0C 67
 36.060527 1  720             Rx   d 8 25 64 2D 3E 06 98 2E FF
 36.090027 1  720             Rx   d 8 26 03 E0 61 E2 05 20 36
 36.121198 1  720             Rx   d 8 27 33 00 BF FF 8A FF D5
 36.152595 1  720             Rx   d 8 28 2D FE E7 D1 00 63 E2
 36.183863 1  720             Rx   d 8 29 D1 15 61 40 62 48 C8
 36.215707 1  720             Rx   d 8 2A 42 C8 00 08 38 07 49
 36.245855 1  720             Rx   d 8 2B C9 00 09 30 BF FF A6
 36.276323 1  720             Rx   d 8 2C FF 0A E8 FD 47 01 00
 36.306016 1  720             Rx   d 8 2D E0 41 82 15 9D 37 0D
 36.337997 1  720             Rx   d 8 2E 00 43 32 E6 E1 C2 05
 36.369064 1  720             Rx   d 8 2F 20 36 13 00 B5 E5 1D
 36.384038 1  720             Rx   d 8 20 F0 6C 38 04 35 BF FF
 36.399788 1  720             Rx   d 8 21 5E EB E0 51 CA 05 20
 36.416473 1  720             Rx   d 8 22 36 31 00 95 DD 3D 57
 36.430505 1  720             Rx   d 8 23 05 00 3F 06 BA 1D FF
 36.445903 1  720             Rx   d 8 24 03 1D 30 6A 00 40 06
 36.462613 1  720             Rx   d 8 25 FF 00 2A 06 00 02 01
 36.494297 1  720             Rx   d 8 26 00 7F 00 40 0E FF 03
 36.525645 1  720             Rx   d 8 27 61 07 6D 2F 40 0E FF
 36.556481 1  720             Rx   d 8 28 03 41 07 70 2F 40 0E
 36.586653 1  720             Rx   d 8 29 FF 03 41 07 88 2F 7F
 36.618221 1  720             Rx   d 8 2A 00 80 57 04 00 20 36
 36.647746 1  720             Rx   d 8 2B E4 1D 46 36 FF 03 A6
 36.711867 1  720             Rx   d 8 2C 51 7F 00 20 56 44 1E
 36.712891 1  728             Rx   d 8 02 76 25 00 00 00 00 00
 36.797708 1  7DF             Rx   d 8 02 3E 80 00 00 00 00 00
 36.849345 1  720             Rx   d 8 10 CA 36 26 4A 56 FF 03
 36.850441 1  728             Rx   d 8 30 00 00 00 00 00 00 00
 36.911295 1  720             Rx   d 8 21 20 5E 44 1E 4B 5E FF
 36.924625 1  720             Rx   d 8 22 03 C5 1D 20 56 44 1E
 36.957125 1  720             Rx   d 8 23 4A 56 FF 03 20 5E 44
 36.987649 1  720             Rx   d 8 24 1E 4B 5E FF 03 B5 15
 37.019213 1  720             Rx   d 8 25 20 56 44 1E 4A 56 FF
 37.050233 1  720             Rx   d 8 26 03 20 5E EE 1F 4B 5E
 37.081565 1  720             Rx   d 8 27 FF 03 A5 0D 20 56 EE
 37.112593 1  720             Rx   d 8 28 1F 4A 56 FF 03 20 5E
 37.143275 1  720             Rx   d 8 29 CE 22 4B 5E FF 03 95
 37.174127 1  720             Rx   d 8 2A 05 66 57 01 00 AA 59
 37.206259 1  720             Rx   d 8 2B 67 5F 01 00 7F 00 80
 37.236991 1  720             Rx   d 8 2C 07 61 00 80 FF 18 01
 37.266883 1  720             Rx   d 8 2D 0A E8 20 36 D4 F8 20
 37.298047 1  720             Rx   d 8 2E 3E D0 F8 0A 42 80 FF
 37.329756 1  720             Rx   d 8 2F 1C 01 1D 30 80 FF 10
 37.361136 1  720             Rx   d 8 20 01 20 36 FF 00 80 FF
 37.391555 1  720             Rx   d 8 21 3A 01 40 06 7F 00 40
 37.406954 1  720             Rx   d 8 22 37 C2 F8 40 07 C3 F8
 37.421592 1  720             Rx   d 8 23 20 66 32 00 40 67 DA
 37.436734 1  720             Rx   d 8 24 F8 80 17 DB F8 82 5E
 37.453131 1  720             Rx   d 8 25 72 00 40 5F DA F8 80
 37.484368 1  720             Rx   d 8 26 17 DB F8 82 56 F2 00
 37.515596 1  720             Rx   d 8 27 40 57 DA F8 00 17 DA
 37.545993 1  720             Rx   d 8 28 F8 C2 4E 20 00 09 06
 37.579165 1  720             Rx   d 8 29 E0 FF A2 FD 20 36 72
 37.606602 1  720             Rx   d 8 2A 00 40 37 DA F8 20 66
 37.637793 1  720             Rx   d 8 2B 32 00 40 67 DA F8 40
 37.699137 1  720             Rx   d 8 2C 07 DA F8 7F 00 80 07
 37.700185 1  728             Rx   d 8 02 76 26 00 00 00 00 00
 37.747444 1  720             Rx   d 8 10 CA 36 27 61 00 80 FF
 37.748524 1  728             Rx   d 8 30 00 00 00 00 00 00 00
 37.807662 1  720             Rx   d 8 21 A2 00 0A E8 20 36 D4
 37.837771 1  720             Rx   d 8 22 F8 20 3E D0 F8 20 46
 37.852881 1  720             Rx   d 8 23 80 00 80 FF A4 00 20
 37.867681 1  720             Rx   d 8 24 66 20 00 40 67 DB F8
 37.883687 1  720             Rx   d 8 25 20 36 80 00 BF FF 8E
 37.915563 1  720             Rx   d 8 26 FF 40 07 DB F8 1D 30
 37.946013 1  720             Rx   d 8 27 80 FF 84 00 00 32 80
 37.976961 1  720             Rx   d 8 28 FF B0 00 40 06 7F 00
 38.008213 1  720             Rx   d 8 29 80 07 21 00 40 66 FF
 38.039570 1  720             Rx   d 8 2A 03 0C 67 70 2F E0 61
 38.071406 1  720             Rx   d 8 2B A2 0D 40 5E FF 03 0B
 38.103483 1  720             Rx   d 8 2C 5F 88 2F 61 5A CA 05
 38.133791 1  720             Rx   d 8 2D 20 56 FE 00 95 15 06
 38.165252 1  720             Rx   d 8 2E 06 02 FF DA 05 BF FF
 38.196104 1  720             Rx   d 8 2F 24 FF 00 52 A5 0D 06
 38.226852 1  720             Rx   d 8 20 06 01 FF DA 05 BF FF
 38.257241 1  720             Rx   d 8 21 8C FF 00 52 B5 05 80
 38.288597 1  720             Rx   d 8 22 FF 7C 00 40 06 3F 00
 38.320089 1  720             Rx   d 8 23 40 07 D7 F8 60 07 CE
 38.350701 1  720             Rx   d 8 24 F8 40 07 DA F8 40 07
 38.382437 1  720             Rx   d 8 25 E8 F8 40 07 DB F8 20
 38.397675 1  720             Rx   d 8 26 36 E6 F8 20 3E D0 F8
 38.414569 1  720             Rx   d 8 27 00 42 80 07 18 00 E5
 38.443573 1  720             Rx   d 8 28 57 40 00 20 36 A0 00
 38.459259 1  720             Rx   d 8 29 E6 2F 20 00 7F 00 E6
 38.490887 1  720             Rx   d 8 2A 2F 20 00 7F 00 58 1A
 38.521435 1  720             Rx   d 8 2B 63 A7 01 00 63 AF 05
 38.584261 1  720             Rx   d 8 2C 00 28 A0 20 AE A5 00
 38.585309 1  728             Rx   d 8 02 76 27 00 00 00 00 00
 38.702756 1  7DF             Rx   d 8 02 3E 80 00 00 00 00 00
 38.768341 1  720             Rx   d 8 10 CA 36 28 47 AF 00 00
 38.769429 1  728             Rx   d 8 30 00 00 00 00 00 00 00
 38.830567 1  720             Rx   d 8 21 46 47 00 00 46 A7 00
 38.859899 1  720             Rx   d 8 22 00 46 47 00 00 23 A7
 38.874999 1  720             Rx   d 8 23 01 00 23 AF 05 00 48
 38.890133 1  720             Rx   d 8 24 1A 7F 00 E6 BF 20 00
 38.923185 1  720             Rx   d 8 25 7F 00 06 57 00 00 7F
 38.953053 1  720             Rx   d 8 26 00 06 57 00 00 7F 00
 38.984025 1  720             Rx   d 8 27 03 1E F0 FF 63 17 01
 39.014510 1  720             Rx   d 8 28 00 63 2F 05 00 63 F7
 39.045530 1  720             Rx   d 8 29 09 00 63 FF 0D 00 23
 39.075431 1  720             Rx   d 8 2A F7 11 00 20 56 C0 3F
 39.108099 1  720             Rx   d 8 2B 80 FF 04 00 1F FE 06
 39.139594 1  720             Rx   d 8 2C 00 6A 00 23 17 01 00
 39.169815 1  720             Rx   d 8 2D 23 2F 05 00 23 F7 09
 39.201075 1  720             Rx   d 8 2E 00 23 FF 0D 00 03 1E
 39.231255 1  720             Rx   d 8 2F 10 00 7F 00 80 07 61
 39.260893 1  720             Rx   d 8 20 00 40 EE FF 03 3D EF
 39.275355 1  720             Rx   d 8 21 6D 2F E0 E9 CA 05 BF
 39.290201 1  720             Rx   d 8 22 FF FA FE D5 05 3F 06
 39.305935 1  720             Rx   d 8 23 0C 20 FF 03 7D 00 40
 39.322620 1  720             Rx   d 8 24 06 7F 00 06 38 09 32
 39.337042 1  720             Rx   d 8 25 00 42 00 4A BF 07 D6
 39.353656 1  720             Rx   d 8 26 FF 0C 32 00 3A 00 42
 39.385305 1  720             Rx   d 8 27 00 4A BF 07 CA FF 80
 39.415957 1  720             Rx   d 8 28 07 E1 00 06 E8 07 E0
 39.446425 1  720             Rx   d 8 29 20 36 22 00 00 3A 00
 39.476869 1  720             Rx   d 8 2A 42 00 4A BF FF B4 FF
 39.508650 1  720             Rx   d 8 2B 02 62 40 0E FF 03 41
 39.570915 1  720             Rx   d 8 2C 67 70 2F 40 0E FF 03
 39.571946 1  728             Rx   d 8 02 76 28 00 00 00 00 00
 39.631755 1  720             Rx   d 8 10 CA 36 29 61 EF 75 2F
 39.632851 1  728             Rx   d 8 30 00 00 00 00 00 00 00
 39.695477 1  720             Rx   d 8 21 40 0E FF 03 61 E7 79
 39.726105 1  720             Rx   d 8 22 2F E0 51 EA 05 01 5A
 39.756869 1  720             Rx   d 8 23 40 0E FF 03 41 5F 88
 39.788546 1  720             Rx   d 8 24 2F 40 06 FF 00 80 07
 39.803960 1  720             Rx   d 8 25 21 00 0E 32 00 3A 00
 39.818726 1  720             Rx   d 8 26 42 00 4A BF FF 78 FF
 39.834548 1  720             Rx   d 8 27 61 52 BA 05 20 56 18
 39.850274 1  720             Rx   d 8 28 00 40 06 3F 00 07 10
 39.865690 1  720             Rx   d 8 29 08 48 06 38 02 40 20
 39.881041 1  720             Rx   d 8 2A 36 20 00 BF 07 5C FF
 39.896687 1  720             Rx   d 8 2B 82 07 61 00 03 62 40
 39.928569 1  720             Rx   d 8 2C 0E FF 03 41 67 70 2F
 39.958829 1  720             Rx   d 8 2D 40 0E FF 03 61 37 85
 39.990098 1  720             Rx   d 8 2E 2F 07 E8 1D 30 40 0E
 40.020174 1  720             Rx   d 8 2F FF 03 61 47 81 2F 08
 40.050379 1  720             Rx   d 8 20 38 03 40 BF FF CA FF
 40.080440 1  720             Rx   d 8 21 23 5F 01 00 40 0E FF
 40.112516 1  720             Rx   d 8 22 03 DD 59 5F 5A 61 5F
 40.143124 1  720             Rx   d 8 23 7D 2F 42 06 7F 00 80
 40.173577 1  720             Rx   d 8 24 07 61 00 06 E8 07 40
 40.204956 1  720             Rx   d 8 25 1D 38 03 32 BF FF B6
 40.235481 1  720             Rx   d 8 26 FF E0 51 9A 15 40 46
 40.251079 1  720             Rx   d 8 27 FF 03 28 47 7D 2F 1D
 40.265821 1  720             Rx   d 8 28 38 03 32 00 4A BF FF
 40.280507 1  720             Rx   d 8 29 F8 FE E0 51 EA 05 01
 40.296217 1  720             Rx   d 8 2A 62 40 0E FF 03 41 67
 40.312351 1  720             Rx   d 8 2B 88 2F 40 06 7F 00 80
 40.360297 1  720             Rx   d 8 2C 07 61 00 06 E8 07 40
 40.361343 1  728             Rx   d 8 02 76 29 00 00 00 00 00
 40.479277 1  7DF             Rx   d 8 02 3E 80 00 00 00 00 00
 40.576089 1  720             Rx   d 8 10 CA 36 2A 1D 38 06 32
 40.577177 1  728             Rx   d 8 30 00 00 00 00 00 00 00
 40.641315 1  720             Rx   d 8 21 BF FF 7E FF E0 51 9A
 40.668671 1  720             Rx   d 8 22 15 40 46 FF 03 28 47
 40.699924 1  720             Rx   d 8 23 7D 2F 1D 38 06 32 00
 40.731400 1  720             Rx   d 8 24 4A BF FF C0 FE E0 51
 40.746750 1  720             Rx   d 8 25 EA 05 01 62 40 0E FF
 40.760348 1  720             Rx   d 8 26 03 41 67 88 2F 40 06
 40.775210 1  720             Rx   d 8 27 7F 00 08 48 06 40 04
 40.792736 1  720             Rx   d 8 28 32 BF 07 A4 FE 80 07
 40.820645 1  720             Rx   d 8 29 61 00 06 E8 07 40 1D
 40.854385 1  720             Rx   d 8 2A 38 08 32 BF FF 3C FF
 40.884768 1  720             Rx   d 8 2B E0 51 9A 15 40 46 FF
 40.917149 1  720             Rx   d 8 2C 03 28 47 7D 2F 1D 38
 40.948701 1  720             Rx   d 8 2D 08 32 00 4A BF FF 7E
 40.980065 1  720             Rx   d 8 2E FE E0 51 EA 05 01 62
 41.009479 1  720             Rx   d 8 2F 40 0E FF 03 41 67 88
 41.040139 1  720             Rx   d 8 20 2F 40 06 7F 00 82 07
 41.071143 1  720             Rx   d 8 21 E1 30 40 0E FF 03 41
 41.104764 1  720             Rx   d 8 22 07 88 2F 20 36 E8 F8
 41.132459 1  720             Rx   d 8 23 BF FF 10 FE CA 5E 80
 41.163104 1  720             Rx   d 8 24 00 0B 06 80 FF C2 65
 41.194229 1  720             Rx   d 8 25 3B 06 70 2F FF 03 20
 41.209787 1  720             Rx   d 8 26 36 D4 F8 20 3E D0 F8
 41.225513 1  720             Rx   d 8 27 0A 42 BF FF C0 FD 20
 41.239663 1  720             Rx   d 8 28 36 E9 F8 BF FF F0 FD
 41.255572 1  720             Rx   d 8 29 CA 16 1F 00 BA 5D 1B
 41.271258 1  720             Rx   d 8 2A 4F 00 00 02 E8 61 4A
 41.288159 1  720             Rx   d 8 2B 92 55 63 4A AA 3D 40
 41.350401 1  720             Rx   d 8 2C 46 FF 03 28 47 81 2F
 41.351441 1  728             Rx   d 8 02 76 2A 00 00 00 00 00
 41.412717 1  720             Rx   d 8 10 CA 36 2B 40 E6 FF 03
 41.413805 1  728             Rx   d 8 30 00 00 00 00 00 00 00
 41.504715 1  720             Rx   d 8 21 3C 4F 7D 2F 3C E6 7C
 41.535439 1  720             Rx   d 8 22 2F E9 41 83 2D BF FF
 41.566020 1  720             Rx   d 8 23 52 FD 3C 37 01 00 40
 41.596792 1  720             Rx   d 8 24 3E FF 03 41 32 7C 37
 41.627476 1  720             Rx   d 8 25 01 00 27 3F 81 2F 06
 41.658513 1  720             Rx   d 8 26 D0 03 40 BF FF 80 FE
 41.688941 1  720             Rx   d 8 27 0A E8 E0 E9 9A 35 23
 41.704507 1  720             Rx   d 8 28 67 01 00 3C 5F 01 00
 41.720225 1  720             Rx   d 8 29 40 36 FF 03 CB 61 0C
 41.735623 1  720             Rx   d 8 2A 46 FF FF 7C 47 01 00
 41.751212 1  720             Rx   d 8 2B 26 37 85 2F 1A 38 00
 41.782400 1  720             Rx   d 8 2C 4A BF FF C0 FD 0A E8
 41.814292 1  720             Rx   d 8 2D E0 E9 DA 1D 95 1D 01
 41.844873 1  720             Rx   d 8 2E 52 5B 57 00 00 20 EE
 41.875589 1  720             Rx   d 8 2F FF 00 D5 2D 62 4A BA
 41.905521 1  720             Rx   d 8 20 2D 40 3E FF 03 01 42
 41.937454 1  720             Rx   d 8 21 5B 47 00 00 27 3F 75
 41.968003 1  720             Rx   d 8 22 2F 40 46 FF 03 28 47
 41.998911 1  720             Rx   d 8 23 79 2F 00 4A 0A 32 BF
 42.030723 1  720             Rx   d 8 24 FF 8A FD D5 E5 20 EE
 42.061111 1  720             Rx   d 8 25 FF 00 85 1D 5B 07 00
 42.091764 1  720             Rx   d 8 26 00 BF FF CA FC B5 15
 42.122638 1  720             Rx   d 8 27 5B 07 00 00 02 06 F0
 42.153714 1  720             Rx   d 8 28 FF B2 05 64 12 CA 05
 42.184327 1  720             Rx   d 8 29 20 EE 1B 00 F5 05 20
 42.199037 1  720             Rx   d 8 2A EE 1A 00 62 12 BA 05
 42.213483 1  720             Rx   d 8 2B 20 EE 1C 00 BF FF A4
 42.277028 1  720             Rx   d 8 2C FC 61 EA E2 5F 00 00
 42.278059 1  728             Rx   d 8 02 76 2B 00 00 00 00 00
 42.411313 1  7DF             Rx   d 8 02 3E 80 00 00 00 00 00
 42.494123 1  720             Rx   d 8 10 2C 36 2C 40 0E FF 03
 42.495202 1  728             Rx   d 8 30 00 00 00 00 00 00 00
 42.555651 1  720             Rx   d 8 21 41 5F 88 2F 1D 50 42
 42.585257 1  720             Rx   d 8 22 06 FF 30 20 36 FF 00
 42.619239 1  720             Rx   d 8 23 00 3A 00 42 00 4A BF
 42.647739 1  720             Rx   d 8 24 07 32 FD 20 36 FE 00
 42.661857 1  720             Rx   d 8 25 00 3A 00 42 00 4A BF
 42.692862 1  720             Rx   d 8 26 07 24 FD 00 00 00 00
 42.693894 1  728             Rx   d 8 02 76 2C 00 00 00 00 00
 42.753016 1  720             Rx   d 8 01 37 00 00 00 00 00 00
 42.773550 1  728             Rx   d 8 03 7F 37 78 00 00 00 00
 42.804347 1  728             Rx   d 8 03 77 91 DF 00 00 00 00
 42.849670 1  720             Rx   d 8 10 0B 34 00 44 03 FF 22
 42.850742 1  728             Rx   d 8 30 00 00 00 00 00 00 00
 42.895987 1  720             Rx   d 8 21 D0 00 00 00 70 00 00
 42.897003 1  728             Rx   d 8 04 74 20 00 CA 00 00 00
 42.959633 1  720             Rx   d 8 10 72 36 01 00 C0 FE 03
 42.960721 1  728             Rx   d 8 30 00 00 00 00 00 00 00
 43.019746 1  720             Rx   d 8 21 00 C6 FE 03 F0 2F FF
 43.050279 1  720             Rx   d 8 22 03 00 01 00 00 08 00
 43.081571 1  720             Rx   d 8 23 02 00 00 00 00 00 B0
 43.112463 1  720             Rx   d 8 24 10 00 00 00 10 00 00
 43.127177 1  720             Rx   d 8 25 11 F1 00 00 F4 1C FF
 43.142959 1  720             Rx   d 8 26 03 38 10 00 00 18 00
 43.159220 1  720             Rx   d 8 27 00 00 13 F1 00 00 F4
 43.174162 1  720             Rx   d 8 28 1C FF 03 50 10 00 00
 43.189168 1  720             Rx   d 8 29 18 00 00 00 8C F1 00
 43.205126 1  720             Rx   d 8 2A 00 F4 1C FF 03 10 10
 43.220020 1  720             Rx   d 8 2B 00 00 10 00 00 00 02
 43.252153 1  720             Rx   d 8 2C F1 00 00 F4 1C FF 03
 43.283253 1  720             Rx   d 8 2D 70 10 00 00 05 00 00
 43.314977 1  720             Rx   d 8 2E 00 00 00 00 00 00 00
 43.345853 1  720             Rx   d 8 2F 00 00 00 00 00 00 00
 43.407863 1  720             Rx   d 8 20 00 00 00 00 00 00 00
 43.408895 1  728             Rx   d 8 02 76 01 00 00 00 00 00
 43.464104 1  720             Rx   d 8 01 37 00 00 00 00 00 00
 43.465847 1  728             Rx   d 8 03 77 D6 F7 00 00 00 00
 43.516986 1  720             Rx   d 8 10 08 31 01 03 01 03 FF
 43.518065 1  728             Rx   d 8 30 00 00 00 00 00 00 00
 43.563061 1  720             Rx   d 8 21 00 00 00 00 00 00 00
 43.564093 1  728             Rx   d 8 05 71 01 03 01 10 00 00
 43.624121 1  720             Rx   d 8 10 0B 35 00 44 00 01 90
 43.625185 1  728             Rx   d 8 30 00 00 00 00 00 00 00
 43.671403 1  720             Rx   d 8 21 00 00 00 00 20 00 00
 43.672443 1  728             Rx   d 8 04 75 20 00 22 00 00 00
 43.744275 1  720             Rx   d 8 02 36 01 00 00 00 00 00
 43.745403 1  728             Rx   d 8 10 22 76 01 00 00 00 00
 43.746450 1  720             Rx   d 8 30 00 00 00 00 00 00 00
 43.747482 1  728             Rx   d 8 21 00 FE FF FF FF FF 00
 43.748473 1  728             Rx   d 8 22 00 00 00 00 08 00 00
 43.749465 1  728             Rx   d 8 23 FE 07 00 00 01 00 00
 43.750447 1  728             Rx   d 8 24 1C 00 E0 FF 7F 00 80
 43.806001 1  720             Rx   d 8 01 37 00 00 00 00 00 00
 43.807297 1  728             Rx   d 8 03 77 BE E6 00 00 00 00
 43.872229 1  720             Rx   d 8 10 0B 35 00 44 00 01 90
 43.873301 1  728             Rx   d 8 30 00 00 00 00 00 00 00
 43.918719 1  720             Rx   d 8 21 20 00 00 00 20 00 00
 43.919750 1  728             Rx   d 8 04 75 20 00 22 00 00 00
 43.960358 1  720             Rx   d 8 02 36 01 00 00 00 00 00
 43.961478 1  728             Rx   d 8 10 22 76 01 03 00 00 3E
 43.962525 1  720             Rx   d 8 30 00 00 00 00 00 00 00
 43.963533 1  728             Rx   d 8 21 00 F8 FF FF 01 C0 07
 43.964517 1  728             Rx   d 8 22 00 00 7F 00 FE FF FF
 43.965476 1  728             Rx   d 8 23 07 E0 0F 00 80 FF 80
 43.966475 1  728             Rx   d 8 24 FF FF FF 1F F0 1F 00
 44.021645 1  720             Rx   d 8 01 37 00 00 00 00 00 00
 44.022956 1  728             Rx   d 8 03 77 7F EF 00 00 00 00
 44.074158 1  720             Rx   d 8 10 0B 35 00 44 00 01 90
 44.075230 1  728             Rx   d 8 30 00 00 00 00 00 00 00
 44.120993 1  720             Rx   d 8 21 40 00 00 00 20 00 00
 44.122016 1  728             Rx   d 8 04 75 20 00 22 00 00 00
 44.207501 1  7DF             Rx   d 8 02 3E 80 00 00 00 00 00
 44.301189 1  720             Rx   d 8 02 36 01 00 00 00 00 00
 44.302325 1  728             Rx   d 8 10 22 76 01 80 FF C0 FF
 44.303371 1  720             Rx   d 8 30 00 00 00 00 00 00 00
 44.304378 1  728             Rx   d 8 21 01 F8 3F F0 1F 00 C0
 44.305362 1  728             Rx   d 8 22 7F F0 3F 00 C0 FF E0
 44.306329 1  728             Rx   d 8 23 3F 00 E0 3F F8 0F 00
 44.307320 1  728             Rx   d 8 24 00 FF C1 7F 00 E0 1F
 44.364633 1  720             Rx   d 8 01 37 00 00 00 00 00 00
 44.365937 1  728             Rx   d 8 03 77 0A F0 00 00 00 00
 44.431089 1  720             Rx   d 8 10 0B 35 00 44 00 01 90
 44.432177 1  728             Rx   d 8 30 00 00 00 00 00 00 00
 44.491674 1  720             Rx   d 8 21 60 00 00 00 20 00 00
 44.492697 1  728             Rx   d 8 04 75 20 00 22 00 00 00
 44.536548 1  720             Rx   d 8 02 36 01 00 00 00 00 00
 44.537667 1  728             Rx   d 8 10 22 76 01 FC 03 00 00
 44.538706 1  720             Rx   d 8 30 00 00 00 00 00 00 00
 44.539713 1  728             Rx   d 8 21 FC 83 7F 00 F0 0F FE
 44.540712 1  728             Rx   d 8 22 01 00 00 F8 07 FF 00
 44.541695 1  728             Rx   d 8 23 F0 0F 7E 00 00 00 E0
 44.542685 1  728             Rx   d 8 24 07 FF 00 F8 07 3F 00
 44.611486 1  720             Rx   d 8 01 37 00 00 00 00 00 00
 44.612789 1  728             Rx   d 8 03 77 00 A6 00 00 00 00
 44.664043 1  720             Rx   d 8 10 0B 35 00 44 00 01 90
 44.665115 1  728             Rx   d 8 30 00 00 00 00 00 00 00
 44.709638 1  720             Rx   d 8 21 80 00 00 00 20 00 00
 44.710661 1  728             Rx   d 8 04 75 20 00 22 00 00 00
 44.752953 1  720             Rx   d 8 02 36 01 00 00 00 00 00
 44.754087 1  728             Rx   d 8 10 22 76 01 00 00 C0 0F
 44.755135 1  720             Rx   d 8 30 00 00 00 00 00 00 00
 44.756127 1  728             Rx   d 8 21 FE 01 F8 87 1F 00 00
 44.757109 1  728             Rx   d 8 22 00 80 1F FE 01 FC 83
 44.758085 1  728             Rx   d 8 23 1F E0 FF 1F 80 1F FC
 44.759043 1  728             Rx   d 8 24 03 FC C3 0F E0 FF 7F
 44.842803 1  720             Rx   d 8 01 37 00 00 00 00 00 00
 44.844090 1  728             Rx   d 8 03 77 12 A5 00 00 00 00
 44.910955 1  720             Rx   d 8 10 0B 35 00 44 00 01 90
 44.912034 1  728             Rx   d 8 30 00 00 00 00 00 00 00
 44.955168 1  720             Rx   d 8 21 A0 00 00 00 20 00 00
 44.956207 1  728             Rx   d 8 04 75 20 00 22 00 00 00
 44.999083 1  720             Rx   d 8 02 36 01 00 00 00 00 00
 45.000210 1  728             Rx   d 8 10 22 76 01 00 3F FC 03
 45.001250 1  720             Rx   d 8 30 00 00 00 00 00 00 00
 45.002281 1  728             Rx   d 8 21 FC C1 07 E0 FF FF 01
 45.003280 1  728             Rx   d 8 22 3E F8 03 FE E1 07 E0
 45.004263 1  728             Rx   d 8 23 FF FF 01 7E F8 07 FE
 45.005238 1  728             Rx   d 8 24 E0 03 E0 FF FF 03 7C
 45.060072 1  720             Rx   d 8 01 37 00 00 00 00 00 00
 45.061391 1  728             Rx   d 8 03 77 15 C4 00 00 00 00
 45.109234 1  720             Rx   d 8 10 0B 35 00 44 00 01 90
 45.110306 1  728             Rx   d 8 30 00 00 00 00 00 00 00
 45.157639 1  720             Rx   d 8 21 C0 00 00 00 20 00 00
 45.158671 1  728             Rx   d 8 04 75 20 00 22 00 00 00
 45.201610 1  720             Rx   d 8 02 36 01 00 00 00 00 00
 45.202729 1  728             Rx   d 8 10 22 76 01 F0 07 FE F0
 45.203769 1  720             Rx   d 8 30 00 00 00 00 00 00 00
 45.204801 1  728             Rx   d 8 21 03 E0 FF FF 03 FC F0
 45.205768 1  728             Rx   d 8 22 07 FE F0 01 E0 07 F8
 45.206743 1  728             Rx   d 8 23 07 F8 F0 07 FE F0 01
 45.207702 1  728             Rx   d 8 24 E0 07 F0 07 F8 F0 07
 45.261840 1  720             Rx   d 8 01 37 00 00 00 00 00 00
 45.263144 1  728             Rx   d 8 03 77 68 C0 00 00 00 00
 45.327729 1  720             Rx   d 8 10 0B 35 00 44 00 01 90
 45.328793 1  728             Rx   d 8 30 00 00 00 00 00 00 00
 45.390164 1  720             Rx   d 8 21 E0 00 00 00 20 00 00
 45.391187 1  728             Rx   d 8 04 75 20 00 22 00 00 00
 45.447237 1  720             Rx   d 8 02 36 01 00 00 00 00 00
 45.448365 1  728             Rx   d 8 10 22 76 01 7F F0 01 E0
 45.449405 1  720             Rx   d 8 30 00 00 00 00 00 00 00
 45.450403 1  728             Rx   d 8 21 07 E0 07 F8 E0 0F 7F
 45.451395 1  728             Rx   d 8 22 F8 00 E0 07 E0 07 F0
 45.452371 1  728             Rx   d 8 23 E1 0F 7F F8 00 E0 07
 45.453322 1  728             Rx   d 8 24 E0 07 F0 E1 0F 7F F8
 45.524923 1  720             Rx   d 8 01 37 00 00 00 00 00 00
 45.526217 1  728             Rx   d 8 03 77 41 44 00 00 00 00
 45.576499 1  720             Rx   d 8 10 0B 35 00 44 00 01 91
 45.577571 1  728             Rx   d 8 30 00 00 00 00 00 00 00
 45.622477 1  720             Rx   d 8 21 00 00 00 00 20 00 00
 45.623491 1  728             Rx   d 8 04 75 20 00 22 00 00 00
 45.665295 1  720             Rx   d 8 02 36 01 00 00 00 00 00
 45.666431 1  728             Rx   d 8 10 22 76 01 00 E0 07 F0
 45.667470 1  720             Rx   d 8 30 00 00 00 00 00 00 00
 45.668461 1  728             Rx   d 8 21 07 F0 E1 0F 7F F8 00
 45.669405 1  728             Rx   d 8 22 E0 07 F8 07 F0 E1 0F
 45.670405 1  728             Rx   d 8 23 7F F8 00 E0 FF FF 03
 45.671349 1  728             Rx   d 8 24 F0 E1 0F 7F F8 00 E0
 45.725583 1  720             Rx   d 8 01 37 00 00 00 00 00 00
 45.726870 1  728             Rx   d 8 03 77 8A 84 00 00 00 00
 45.761753 1  720             Rx   d 8 10 0B 35 00 44 00 01 91
 45.762841 1  728             Rx   d 8 30 00 00 00 00 00 00 00
 45.838498 1  720             Rx   d 8 21 20 00 00 00 20 00 00
 45.839529 1  728             Rx   d 8 04 75 20 00 22 00 00 00
 45.896025 1  720             Rx   d 8 02 36 01 00 00 00 00 00
 45.897144 1  728             Rx   d 8 10 22 76 01 FF FF 03 F0
 45.898191 1  720             Rx   d 8 30 00 00 00 00 00 00 00
 45.899191 1  728             Rx   d 8 21 E1 0F 7F F8 00 E0 FF
 45.900166 1  728             Rx   d 8 22 FF 01 F0 E1 0F 7F F8
 45.901141 1  728             Rx   d 8 23 00 E0 FF FF 00 F0 E1
 45.902132 1  728             Rx   d 8 24 0F 7F F8 00 E0 FF 7F
 45.957701 1  720             Rx   d 8 01 37 00 00 00 00 00 00
 45.958980 1  728             Rx   d 8 03 77 53 54 00 00 00 00
 46.008662 1  720             Rx   d 8 10 0B 35 00 44 00 01 91
 46.009733 1  728             Rx   d 8 30 00 00 00 00 00 00 00
 46.054465 1  720             Rx   d 8 21 40 00 00 00 20 00 00
 46.055489 1  728             Rx   d 8 04 75 20 00 22 00 00 00
 46.096421 1  720             Rx   d 8 02 36 01 00 00 00 00 00
 46.097507 1  728             Rx   d 8 10 22 76 01 00 F0 E1 0F
 46.098547 1  720             Rx   d 8 30 00 00 00 00 00 00 00
 46.099578 1  728             Rx   d 8 21 7F F8 00 E0 FF 1F 00
 46.100521 1  728             Rx   d 8 22 F0 E1 0F 7F F0 01 E0
