(1644567502.222637) can0 720#0210810000000000
(1644567502.226631) can0 728#0250810000000000
(1644567502.405615) can0 720#0322E20000000000
(1644567502.406877) can0 728#0662E200170B6C00
(1644567502.663856) can0 720#02BA0B0000000000
(1644567502.667638) can0 728#037FBA1100000000
(1644567502.884173) can0 720#02BA070000000000
(1644567502.888288) can0 728#04FAB47CEF000000
(1644567503.180818) can0 720#04BAB66E9E000000
(1644567503.189171) can0 728#037FBA1100000000
(1644567503.363298) can0 720#0210FA0000000000
(1644567503.369622) can0 728#0250FA0000000000
(1644567503.580157) can0 720#05BA010200000000
(1644567503.600163) can0 728#05FA010202DD0000
(1644567503.803256) can0 720#05BA010200020000
(1644567503.820729) can0 728#05FA010211850000
(1644567504.028838) can0 720#05BA010200040000
(1644567504.041339) can0 728#05FA010200000000
(1644567504.248686) can0 720#05BA010200060000
(1644567504.261815) can0 728#05FA0102C2740000
(1644567504.476058) can0 720#05BA010200080000
(1644567504.491129) can0 728#05FA010284E90000
(1644567504.708897) can0 720#05BA0102000A0000
(1644567504.725102) can0 728#05FA010209D30000
(1644567504.937304) can0 720#05BA0102000C0000
(1644567504.955574) can0 728#05FA010213A60000
(1644567505.159945) can0 720#05BA0102000E0000
(1644567505.176073) can0 728#05FA0102274C0000
(1644567505.428551) can0 720#05BA010200100000
(1644567505.446659) can0 728#05FA01024E980000
(1644567505.679802) can0 720#05BA010200120000
(1644567505.697189) can0 728#05FA01029D700000
(1644567505.914031) can0 720#05BA010200140000
(1644567505.927676) can0 728#05FA01023AE10000
(1644567506.147018) can0 720#05BA010200160000
(1644567506.158134) can0 728#05FA010275C20000
(1644567506.367436) can0 720#05BA010200180000
(1644567506.378554) can0 728#05FA0102EB840000
(1644567506.582858) can0 720#05BA0102001A0000
(1644567506.598960) can0 728#05FA0102D7090000
(1644567506.808283) can0 720#05BA0102001C0000
(1644567506.819531) can0 728#05FA0102AE130000
(1644567507.017419) can0 720#05BA0102001E0000
(1644567507.029760) can0 728#05FA01025C270000
(1644567507.234055) can0 720#05BA010200200000
(1644567507.250156) can0 728#05FA0102B84E0000
(1644567507.479479) can0 720#05BA010200220000
(1644567507.491333) can0 728#05FA0102709D0000
(1644567507.717414) can0 720#05BA010200240000
(1644567507.731011) can0 728#05FA0102E13A0000
(1644567507.955325) can0 720#05BA010200260000
(1644567507.971412) can0 728#05FA0102D1040000
(1644567508.218251) can0 720#05BA010200280000
(1644567508.231831) can0 728#05FA010246360000
(1644567508.483710) can0 720#05BA0102002A0000
(1644567508.502372) can0 728#05FA010241500000
(1644567508.749114) can0 720#05BA0102002C0000
(1644567508.762685) can0 728#05FA010241410000
(1644567508.982611) can0 720#05BA0102002E0000
(1644567509.003005) can0 728#05FA0102474A0000
(1644567509.233593) can0 720#05BA010200300000
(1644567509.253389) can0 728#05FA010257530000
(1644567509.491400) can0 720#05BA010200320000
(1644567509.503661) can0 728#05FA010245390000
(1644567509.705579) can0 720#05BA010200340000
(1644567509.724194) can0 728#05FA010236380000
(1644567509.950868) can0 720#05BA010200360000
(1644567509.964401) can0 728#05FA010230310000
(1644567510.187471) can0 720#05BA010200380000
(1644567510.204744) can0 728#05FA0102FF310000
(1644567510.413891) can0 720#05BA0102003A0000
(1644567510.429649) can0 728#05FA0102A6B50000
(1644567510.646056) can0 720#05BA0102003C0000
(1644567510.667070) can0 728#05FA010246360000
(1644567510.867598) can0 720#05BA0102003E0000
(1644567510.887332) can0 728#05FA010241500000
(1644567511.097892) can0 720#05BA010200400000
(1644567511.117647) can0 728#05FA010241410000
(1644567511.338198) can0 720#05BA010200420000
(1644567511.357904) can0 728#05FA0102474A0000
(1644567511.584749) can0 720#05BA010200440000
(1644567511.598260) can0 728#05FA010257530000
(1644567511.832559) can0 720#05BA010200460000
(1644567511.848509) can0 728#05FA010239450000
(1644567512.061011) can0 720#05BA010200480000
(1644567512.078982) can0 728#05FA010236380000
(1644567512.289355) can0 720#05BA0102004A0000
(1644567512.309154) can0 728#05FA010230310000
(1644567512.535869) can0 720#05BA0102004C0000
(1644567512.549314) can0 728#05FA0102FF310000
(1644567512.731094) can0 720#05BA0102004E0000
(1644567512.749537) can0 728#05FA01020A1B0000
(1644567512.985749) can0 720#05BA010200500000
(1644567512.999826) can0 728#05FA0102827A0000
(1644567513.191627) can0 720#05BA010200520000
(1644567513.210160) can0 728#05FA0102FE170000
(1644567513.411848) can0 720#05BA010200540000
(1644567513.430234) can0 728#05FA0102FFFF0000
(1644567513.632083) can0 720#05BA010200560000
(1644567513.650494) can0 728#05FA010210100000
(1644567513.875597) can0 720#05BA010200580000
(1644567513.890772) can0 728#05FA010210100000
(1644567514.122607) can0 720#05BA0102005A0000
(1644567514.141032) can0 728#05FA010210100000
(1644567514.355331) can0 720#05BA0102005C0000
(1644567514.371231) can0 728#05FA010210100000
(1644567514.573368) can0 720#05BA0102005E0000
(1644567514.591437) can0 728#05FA010210100000
(1644567514.810807) can0 720#05BA010200600000
(1644567514.831670) can0 728#05FA010210100000
(1644567515.053543) can0 720#05BA010200620000
(1644567515.071902) can0 728#05FA010210100000
(1644567515.287498) can0 720#05BA010200640000
(1644567515.302110) can0 728#05FA010210100000
(1644567515.540239) can0 720#05BA010200660000
(1644567515.552333) can0 728#05FA010210100000
(1644567515.762958) can0 720#05BA010200680000
(1644567515.782573) can0 728#05FA010210100000
(1644567515.996919) can0 720#05BA0102006A0000
(1644567516.012909) can0 728#05FA010210100000
(1644567516.254653) can0 720#05BA0102006C0000
(1644567516.272978) can0 728#05FA010210100000
(1644567516.523639) can0 720#05BA0102006E0000
(1644567516.543218) can0 728#05FA010222100000
(1644567516.740086) can0 720#05BA010200700000
(1644567516.753391) can0 728#05FA010210220000
(1644567516.951499) can0 720#05BA010200720000
(1644567516.963570) can0 728#05FA010223210000
(1644567517.145427) can0 720#05BA010200740000
(1644567517.163743) can0 728#05FA010210230000
(1644567517.390187) can0 720#05BA010200760000
(1644567517.403928) can0 728#05FA010210200000
(1644567517.631066) can0 720#05BA010200780000
(1644567517.644140) can0 728#05FA010210220000
(1644567517.857288) can0 720#05BA0102007A0000
(1644567517.874339) can0 728#05FA01020F8E0000
(1644567518.086800) can0 720#05BA0102007C0000
(1644567518.102613) can0 728#05FA010200000000
(1644567518.316532) can0 720#05BA0102007E0000
(1644567518.328692) can0 728#05FA01024A640000
(1644567518.557464) can0 720#05BA010200800000
(1644567518.571289) can0 728#05FA01025A0F0000
(1644567518.791825) can0 720#05BA010200820000
(1644567518.812739) can0 728#05FA01020FFF0000
(1644567519.010215) can0 720#05BA010200840000
(1644567519.024446) can0 728#05FA0102021F0000
(1644567519.251609) can0 720#05BA010200860000
(1644567519.266212) can0 728#05FA010206060000
(1644567519.485786) can0 720#05BA010200880000
(1644567519.497856) can0 728#05FA0102000B0000
(1644567519.702433) can0 720#05BA0102008A0000
(1644567519.719535) can0 728#05FA010228110000
(1644567519.949240) can0 720#05BA0102008C0000
(1644567519.961376) can0 728#05FA010211240000
(1644567520.188742) can0 720#05BA0102008E0000
(1644567520.202919) can0 728#05FA010280090000
(1644567520.413568) can0 720#05BA010200900000
(1644567520.434394) can0 728#05FA010255860000
(1644567520.632610) can0 720#05BA010200920000
(1644567520.645793) can0 728#05FA0102FFFF0000
(1644567520.853023) can0 720#05BA010200940000
(1644567520.867189) can0 728#05FA010213910000
(1644567521.067117) can0 720#05BA010200960000
(1644567521.078566) can0 728#05FA010200000000
(1644567521.320475) can0 720#05BA010200980000
(1644567521.340672) can0 728#05FA0102010C0000
(1644567521.555554) can0 720#05BA0102009A0000
(1644567521.571307) can0 728#05FA010252380000
(1644567521.775599) can0 720#05BA0102009C0000
(1644567521.792590) can0 728#05FA010239320000
(1644567522.040883) can0 720#05BA0102009E0000
(1644567522.054054) can0 728#05FA0102CFFB0000
(1644567522.264469) can0 720#05BA010200A00000
(1644567522.285262) can0 728#05FA010290810000
(1644567522.510716) can0 720#05BA010200A20000
(1644567522.526534) can0 728#05FA01024DB20000
(1644567522.741909) can0 720#05BA010200A40000
(1644567522.757647) can0 728#05FA010203850000
(1644567522.971827) can0 720#05BA010200A60000
(1644567522.988820) can0 728#05FA010203350000
(1644567523.230557) can0 720#05BA010200A80000
(1644567523.249998) can0 728#05FA010202EB0000
(1644567523.476599) can0 720#05BA010200AA0000
(1644567523.491061) can0 728#05FA010202B10000
(1644567523.717749) can0 720#05BA010200AC0000
(1644567523.732307) can0 728#05FA010202320000
(1644567523.967622) can0 720#05BA010200AE0000
(1644567523.983315) can0 728#05FA010201FB0000
(1644567524.193555) can0 720#05BA010200B00000
(1644567524.216276) can0 728#05FA010201320000
(1644567524.401084) can0 720#05BA010200B20000
(1644567524.413625) can0 728#05FA010200C80000
(1644567524.631521) can0 720#05BA010200B40000
(1644567524.648430) can0 728#05FA010200950000
(1644567524.874198) can0 720#05BA010200B60000
(1644567524.886044) can0 728#05FA010200620000
(1644567525.110961) can0 720#05BA010200B80000
(1644567525.123589) can0 728#05FA010200000000
(1644567525.341783) can0 720#05BA010200BA0000
(1644567525.353652) can0 728#05FA010210220000
(1644567525.567579) can0 720#05BA010200BC0000
(1644567525.585244) can0 728#05FA01021B3F0000
(1644567525.813454) can0 720#05BA010200BE0000
(1644567525.825309) can0 728#05FA010226570000
(1644567526.026721) can0 720#05BA010200C00000
(1644567526.046087) can0 728#05FA01023C8C0000
(1644567526.254965) can0 720#05BA010200C20000
(1644567526.266790) can0 728#05FA010248A80000
(1644567526.478779) can0 720#05BA010200C40000
(1644567526.497497) can0 728#05FA010260E00000
(1644567526.712895) can0 720#05BA010200C60000
(1644567526.728256) can0 728#05FA01026CFC0000
(1644567526.962191) can0 720#05BA010200C80000
(1644567526.979012) can0 728#05FA010279180000
(1644567527.217406) can0 720#05BA010200CA0000
(1644567527.229809) can0 728#05FA010280E80000
(1644567527.469085) can0 720#05BA010200CC0000
(1644567527.481305) can0 728#05FA010200110000
(1644567527.700601) can0 720#05BA010200CE0000
(1644567527.721177) can0 728#05FA010279910000
(1644567527.911236) can0 720#05BA010200D00000
(1644567527.931781) can0 728#05FA010200000000
(1644567528.139334) can0 720#05BA010200D20000
(1644567528.153315) can0 728#05FA01020FA00000
(1644567528.358013) can0 720#05BA010200D40000
(1644567528.372927) can0 728#05FA01021F400000
(1644567528.571733) can0 720#05BA010200D60000
(1644567528.583457) can0 728#05FA01022EE00000
(1644567528.782233) can0 720#05BA010200D80000
(1644567528.794021) can0 728#05FA01023E800000
(1644567529.022878) can0 720#05BA010200DA0000
(1644567529.034601) can0 728#05FA01024E200000
(1644567529.259649) can0 720#05BA010200DC0000
(1644567529.275141) can0 728#05FA01025DC00000
(1644567529.501423) can0 720#05BA010200DE0000
(1644567529.515766) can0 728#05FA01027D000000
(1644567529.749560) can0 720#05BA010200E00000
(1644567529.766321) can0 728#05FA010200000000
(1644567530.002660) can0 720#05BA010200E20000
(1644567530.016954) can0 728#05FA010202220000
(1644567530.228089) can0 720#05BA010200E40000
(1644567530.247324) can0 728#05FA010204650000
(1644567530.486135) can0 720#05BA010200E60000
(1644567530.497855) can0 728#05FA0102067D0000
(1644567530.702841) can0 720#05BA010200E80000
(1644567530.718412) can0 728#05FA010208940000
(1644567530.950885) can0 720#05BA010200EA0000
(1644567530.968846) can0 728#05FA01020AAC0000
(1644567531.183833) can0 720#05BA010200EC0000
(1644567531.199287) can0 728#05FA01020CC40000
(1644567531.419097) can0 720#05BA010200EE0000
(1644567531.439663) can0 728#05FA010210F30000
(1644567531.644701) can0 720#05BA010200F00000
(1644567531.660139) can0 728#05FA010200010000
(1644567531.881397) can0 720#05BA010200F20000
(1644567531.900560) can0 728#05FA0102E2C30000
(1644567532.091965) can0 720#05BA010200F40000
(1644567532.110962) can0 728#05FA010200000000
(1644567532.340967) can0 720#05BA010200F60000
(1644567532.361373) can0 728#05FA010214000000
(1644567532.581372) can0 720#05BA010200F80000
(1644567532.601795) can0 728#05FA01021E000000
(1644567532.781745) can0 720#05BA010200FA0000
(1644567532.802118) can0 728#05FA010228000000
(1644567533.060922) can0 720#05BA010200FC0000
(1644567533.072556) can0 728#05FA010232000000
(1644567533.285052) can0 720#05BA010200FE0000
(1644567533.302933) can0 728#05FA010237000000
(1644567533.520160) can0 720#05BA010201000000
(1644567533.533285) can0 728#05FA010246000000
(1644567533.759562) can0 720#05BA010201020000
(1644567533.773673) can0 728#05FA010282000000
(1644567533.991163) can0 720#05BA010201040000
(1644567534.004078) can0 728#05FA010200000000
(1644567534.237777) can0 720#05BA010201060000
(1644567534.254367) can0 728#05FA010214000000
(1644567534.482759) can0 720#05BA010201080000
(1644567534.494736) can0 728#05FA01021E000000
(1644567534.719741) can0 720#05BA0102010A0000
(1644567534.735057) can0 728#05FA010228000000
(1644567534.973796) can0 720#05BA0102010C0000
(1644567534.985377) can0 728#05FA010232000000
(1644567535.166616) can0 720#05BA0102010E0000
(1644567535.185658) can0 728#05FA010237000000
(1644567535.395680) can0 720#05BA010201100000
(1644567535.415964) can0 728#05FA010246000000
(1644567535.645816) can0 720#05BA010201120000
(1644567535.666293) can0 728#05FA010282000000
(1644567535.883873) can0 720#05BA010201140000
(1644567535.896600) can0 728#05FA010200000000
(1644567536.117848) can0 720#05BA010201160000
(1644567536.136890) can0 728#05FA010203590000
(1644567536.349388) can0 720#05BA010201180000
(1644567536.367178) can0 728#05FA010205060000
(1644567536.579592) can0 720#05BA0102011A0000
(1644567536.597442) can0 728#05FA010206B20000
(1644567536.833711) can0 720#05BA0102011C0000
(1644567536.848577) can0 728#05FA0102085F0000
(1644567537.076469) can0 720#05BA0102011E0000
(1644567537.087967) can0 728#05FA010209350000
(1644567537.286767) can0 720#05BA010201200000
(1644567537.298236) can0 728#05FA01020BB80000
(1644567537.521997) can0 720#05BA010201220000
(1644567537.538480) can0 728#05FA010210BE0000
(1644567537.766038) can0 720#05BA010201240000
(1644567537.778773) can0 728#05FA0102136B0000
(1644567538.006314) can0 720#05BA010201260000
(1644567538.019068) can0 728#05FA010200040000
(1644567538.232831) can0 720#05BA010201280000
(1644567538.249284) can0 728#05FA01024F280000
(1644567538.479310) can0 720#05BA0102012A0000
(1644567538.499538) can0 728#05FA010203200000
(1644567538.725698) can0 720#05BA0102012C0000
(1644567538.742894) can0 728#05FA010203AB0000
(1644567538.977402) can0 720#05BA0102012E0000
(1644567538.991385) can0 728#05FA010204C10000
(1644567539.200173) can0 720#05BA010201300000
(1644567539.211741) can0 728#05FA010205140000
(1644567539.419114) can0 720#05BA010201320000
(1644567539.431834) can0 728#05FA010205C80000
(1644567539.629806) can0 720#05BA010201340000
(1644567539.642860) can0 728#05FA010205ED0000
(1644567539.867078) can0 720#05BA010201360000
(1644567539.882264) can0 728#05FA010206360000
(1644567540.106073) can0 720#05BA010201380000
(1644567540.122481) can0 728#05FA0102065E0000
(1644567540.362549) can0 720#05BA0102013A0000
(1644567540.382715) can0 728#05FA010200000000
(1644567540.614170) can0 720#05BA0102013C0000
(1644567540.624936) can0 728#05FA0102010C0000
(1644567540.805146) can0 720#05BA0102013E0000
(1644567540.826223) can0 728#05FA010203240000
(1644567541.031172) can0 720#05BA010201400000
(1644567541.045495) can0 728#05FA010203C40000
(1644567541.270678) can0 720#05BA010201420000
(1644567541.281555) can0 728#05FA0102042F0000
(1644567541.497651) can0 720#05BA010201440000
(1644567541.517729) can0 728#05FA0102053B0000
(1644567541.741605) can0 720#05BA010201460000
(1644567541.757986) can0 728#05FA010207530000
(1644567541.975621) can0 720#05BA010201480000
(1644567541.988229) can0 728#05FA0102085F0000
(1644567542.221258) can0 720#05BA0102014A0000
(1644567542.238372) can0 728#05FA0102001E0000
(1644567542.477235) can0 720#05BA0102014C0000
(1644567542.488753) can0 728#05FA0102C3470000
(1644567542.681173) can0 720#05BA0102014E0000
(1644567542.698785) can0 728#05FA010200000000
(1644567542.901341) can0 720#05BA010201500000
(1644567542.919434) can0 728#05FA0102011E0000
(1644567543.142792) can0 720#05BA010201520000
(1644567543.159115) can0 728#05FA010201E20000
(1644567543.386751) can0 720#05BA010201540000
(1644567543.399288) can0 728#05FA010202A70000
(1644567543.599398) can0 720#05BA010201560000
(1644567543.619715) can0 728#05FA0102042F0000
(1644567543.838340) can0 720#05BA010201580000
(1644567543.849633) can0 728#05FA010205060000
(1644567544.053513) can0 720#05BA0102015A0000
(1644567544.069798) can0 728#05FA010206B20000
(1644567544.282444) can0 720#05BA0102015C0000
(1644567544.299953) can0 728#05FA010207890000
(1644567544.492540) can0 720#05BA0102015E0000
(1644567544.510095) can0 728#05FA0102085F0000
(1644567544.722770) can0 720#05BA010201600000
(1644567544.740298) can0 728#05FA010208B80000
(1644567544.930418) can0 720#05BA010201620000
(1644567544.950481) can0 728#05FA010209C40000
(1644567545.179351) can0 720#05BA010201640000
(1644567545.190626) can0 728#05FA010227100000
(1644567545.385780) can0 720#05BA010201660000
(1644567545.400776) can0 728#05FA010209C40000
(1644567545.656519) can0 720#05BA010201680000
(1644567545.668664) can0 728#05FA010201F40000
(1644567545.866724) can0 720#05BA0102016A0000
(1644567545.880559) can0 728#05FA010217700000
(1644567546.116081) can0 720#05BA0102016C0000
(1644567546.136028) can0 728#05FA010211940000
(1644567546.346238) can0 720#05BA0102016E0000
(1644567546.366209) can0 728#05FA010208270000
(1644567546.571391) can0 720#05BA010201700000
(1644567546.586354) can0 728#05FA0102000C0000
(1644567546.791531) can0 720#05BA010201720000
(1644567546.806492) can0 728#05FA010200050000
(1644567547.064541) can0 720#05BA010201740000
(1644567547.076706) can0 728#05FA010203CF0000
(1644567547.318519) can0 720#05BA010201760000
(1644567547.336840) can0 728#05FA01020B0B0000
(1644567547.580839) can0 720#05BA010201780000
(1644567547.597014) can0 728#05FA01020B0B0000
(1644567547.809725) can0 720#05BA0102017A0000
(1644567547.827154) can0 728#05FA0102CCE40000
(1644567548.044874) can0 720#05BA0102017C0000
(1644567548.057360) can0 728#05FA010200320000
(1644567548.257524) can0 720#05BA0102017E0000
(1644567548.277500) can0 728#05FA010200640000
(1644567548.500186) can0 720#05BA010201800000
(1644567548.517600) can0 728#05FA0102000A0000
(1644567548.724085) can0 720#05BA010201820000
(1644567548.737757) can0 728#05FA010200000000
(1644567548.969259) can0 720#05BA010201840000
(1644567548.987879) can0 728#05FA0102042F0000
(1644567549.196898) can0 720#05BA010201860000
(1644567549.208291) can0 728#05FA0102085F0000
(1644567549.410876) can0 720#05BA010201880000
(1644567549.428189) can0 728#05FA010200000000
(1644567549.655190) can0 720#05BA0102018A0000
(1644567549.668323) can0 728#05FA010200700000
(1644567549.863092) can0 720#05BA0102018C0000
(1644567549.875754) can0 728#05FA010200E00000
(1644567550.089828) can0 720#05BA0102018E0000
(1644567550.102458) can0 728#05FA010205A00000
(1644567550.310672) can0 720#05BA010201900000
(1644567550.327101) can0 728#05FA010208C00000
(1644567550.522566) can0 720#05BA010201920000
(1644567550.541654) can0 728#05FA01020BE00000
(1644567550.765076) can0 720#05BA010201940000
(1644567550.776419) can0 728#05FA010200000000
(1644567551.016201) can0 720#05BA010201960000
(1644567551.031616) can0 728#05FA010203200000
(1644567551.264776) can0 720#05BA010201980000
(1644567551.276048) can0 728#05FA010206400000
(1644567551.511771) can0 720#05BA0102019A0000
(1644567551.530665) can0 728#05FA0102CCE80000
(1644567551.757475) can0 720#05BA0102019C0000
(1644567551.775118) can0 728#05FA010236140000
(1644567552.022291) can0 720#05BA0102019E0000
(1644567552.040197) can0 728#05FA0102805E0000
(1644567552.250168) can0 720#05BA010201A00000
(1644567552.263478) can0 728#05FA01026E260000
(1644567552.477107) can0 720#05BA010201A20000
(1644567552.497222) can0 728#05FA0102FFBA0000
(1644567552.712124) can0 720#05BA010201A40000
(1644567552.730942) can0 728#05FA0102A8800000
(1644567552.952205) can0 720#05BA010201A60000
(1644567552.965059) can0 728#05FA0102FFD60000
(1644567553.171693) can0 720#05BA010201A80000
(1644567553.188110) can0 728#05FA010208030000
(1644567553.427798) can0 720#05BA010201AA0000
(1644567553.441503) can0 728#05FA01021A120000
(1644567553.643313) can0 720#05BA010201AC0000
(1644567553.654458) can0 728#05FA0102A8800000
(1644567553.874118) can0 720#05BA010201AE0000
(1644567553.887804) can0 728#05FA0102FFD60000
(1644567554.104712) can0 720#05BA010201B00000
(1644567554.121567) can0 728#05FA010208000000
(1644567554.324934) can0 720#05BA010201B20000
(1644567554.343642) can0 728#05FA01021A120000
(1644567554.562900) can0 720#05BA010201B40000
(1644567554.576542) can0 728#05FA010296660000
(1644567554.805927) can0 720#05BA010201B60000
(1644567554.819602) can0 728#05FA0102FFCF0000
(1644567555.061523) can0 720#05BA010201B80000
(1644567555.082710) can0 728#05FA010296660000
(1644567555.299940) can0 720#05BA010201BA0000
(1644567555.315387) can0 728#05FA0102FFCF0000
(1644567555.541739) can0 720#05BA010201BC0000
(1644567555.557890) can0 728#05FA0102015E0000
(1644567555.766764) can0 720#05BA010201BE0000
(1644567555.780360) can0 728#05FA0102007F0000
(1644567556.000576) can0 720#05BA010201C00000
(1644567556.013760) can0 728#05FA010200390000
(1644567556.247968) can0 720#05BA010201C20000
(1644567556.265299) can0 728#05FA0102A7900000
(1644567556.492175) can0 720#05BA010201C40000
(1644567556.507691) can0 728#05FA0102C7C00000
(1644567556.725695) can0 720#05BA010201C60000
(1644567556.743661) can0 728#05FA0102C7C70000
(1644567556.952108) can0 720#05BA010201C80000
(1644567556.967195) can0 728#05FA0102C2C20000
(1644567557.193246) can0 720#05BA010201CA0000
(1644567557.209312) can0 728#05FA0102C2C20000
(1644567557.434075) can0 720#05BA010201CC0000
(1644567557.451360) can0 728#05FA010235D20000
(1644567557.657728) can0 720#05BA010201CE0000
(1644567557.673253) can0 728#05FA0102000F0000
(1644567557.902811) can0 720#05BA010201D00000
(1644567557.917520) can0 728#05FA010200030000
(1644567558.113712) can0 720#05BA010201D20000
(1644567558.129665) can0 728#05FA010200000000
(1644567558.361110) can0 720#05BA010201D40000
(1644567558.381596) can0 728#05FA010200000000
(1644567558.607387) can0 720#05BA010201D60000
(1644567558.623382) can0 728#05FA010200000000
(1644567558.844043) can0 720#05BA010201D80000
(1644567558.857158) can0 728#05FA010200000000
(1644567559.075581) can0 720#05BA010201DA0000
(1644567559.089011) can0 728#05FA010200000000
(1644567559.273128) can0 720#05BA010201DC0000
(1644567559.290372) can0 728#05FA010200000000
(1644567559.509683) can0 720#05BA010201DE0000
(1644567559.521875) can0 728#05FA010200000000
(1644567559.738013) can0 720#05BA010201E00000
(1644567559.753383) can0 728#05FA010200000000
(1644567559.977810) can0 720#05BA010201E20000
(1644567559.995007) can0 728#05FA010212210000
(1644567560.205476) can0 720#05BA010201E40000
(1644567560.226393) can0 728#05FA010201000000
(1644567560.449382) can0 720#05BA010201E60000
(1644567560.467791) can0 728#05FA0102978A0000
(1644567560.713436) can0 720#05BA010201E80000
(1644567560.729337) can0 728#05FA010212FF0000
(1644567560.936401) can0 720#05BA010201EA0000
(1644567560.953966) can0 728#05FA010203000000
(1644567561.155497) can0 720#05BA010201EC0000
(1644567561.174040) can0 728#05FA010200000000
(1644567561.374111) can0 720#05BA010201EE0000
(1644567561.395025) can0 728#05FA010232050000
(1644567561.594030) can0 720#05BA010201F00000
(1644567561.606097) can0 728#05FA010212290000
(1644567561.807659) can0 720#05BA010201F20000
(1644567561.822232) can0 728#05FA010206000000
(1644567562.066170) can0 720#05BA010201F40000
(1644567562.080742) can0 728#05FA010200000000
(1644567562.331155) can0 720#05BA010201F60000
(1644567562.351972) can0 728#05FA010264460000
(1644567562.591248) can0 720#05BA010201F80000
(1644567562.603151) can0 728#05FA010237C80000
(1644567562.830079) can0 720#05BA010201FA0000
(1644567562.844598) can0 728#05FA010246200000
(1644567563.059924) can0 720#05BA010201FC0000
(1644567563.075330) can0 728#05FA010200000000
(1644567563.285718) can0 720#05BA010201FE0000
(1644567563.306256) can0 728#05FA010200000000
(1644567563.449806) can0 720#0210810000000000
(1644567563.457001) can0 728#0250810000000000
