(1663372603.346977) can0 760#0322290500000000
(1663372603.371300) can0 768#0762290500000000
(1663372603.411256) can0 760#0322290400000000
(1663372603.436323) can0 768#0762290400000000
(1663372603.473176) can0 760#0322290600000000
(1663372603.498294) can0 768#0562290608000000
(1663372603.545693) can0 760#0322290A00000000
(1663372603.570278) can0 768#0462290ACC000000
(1663372603.609415) can0 760#0322D10000000000
(1663372603.634280) can0 768#0462D10081000000
(1663372603.669427) can0 760#0322290000000000
(1663372603.694286) can0 768#0562290000000000
(1663372603.733197) can0 760#0322293000000000
(1663372603.758283) can0 768#0562293000000000
(1663372603.794443) can0 760#0322020000000000
(1663372603.819286) can0 768#0462020001000000
(1663372603.854451) can0 760#0322292700000000
(1663372603.879276) can0 768#0462292700000000
(1663372603.918159) can0 760#0322D10B00000000
(1663372603.943273) can0 768#0462D10B91000000
(1663372603.978172) can0 760#03223A5100000000
(1663372604.004505) can0 768#05623A51FFFF0000
(1663372604.048834) can0 760#0322398800000000
(1663372604.073364) can0 768#0462398802000000
(1663372604.113237) can0 760#0322398A00000000
(1663372604.138346) can0 768#0462398A02000000
(1663372604.173251) can0 760#0322398900000000
(1663372604.198346) can0 768#0462398902000000
(1663372604.238260) can0 760#0322398B00000000
(1663372604.263339) can0 768#0462398B02000000
(1663372604.300112) can0 760#0322320100000000
(1663372604.325333) can0 768#0562320145200000
(1663372604.360768) can0 760#0322293100000000
(1663372604.385662) can0 768#0462293100000000
(1663372604.423255) can0 760#03223A5000000000
(1663372604.448340) can0 768#05623A5000000000
(1663372604.485746) can0 760#0322290500000000
(1663372604.510343) can0 768#0762290500000000
(1663372604.552008) can0 760#0322290400000000
(1663372604.577618) can0 768#0762290400000000
(1663372604.628266) can0 760#0322290600000000
(1663372604.653344) can0 768#0562290608000000
(1663372604.690760) can0 760#0322290A00000000
(1663372604.715335) can0 768#0462290ACC000000
(1663372604.757013) can0 760#0322D10000000000
(1663372604.781368) can0 768#0462D10081000000
(1663372604.819519) can0 760#0322290000000000
(1663372604.844336) can0 768#0562290000000000
(1663372604.880753) can0 760#0322293000000000
(1663372604.905335) can0 768#0562293000000000
(1663372604.943436) can0 760#0322020000000000
(1663372604.968337) can0 768#0462020001000000
(1663372605.003262) can0 760#0322292700000000
(1663372605.028328) can0 768#0462292700000000
(1663372605.067040) can0 760#0322D10B00000000
(1663372605.091362) can0 768#0462D10B92000000
(1663372605.127018) can0 760#03223A5100000000
(1663372605.151342) can0 768#05623A5100000000
(1663372605.188256) can0 760#0322398800000000
(1663372605.213315) can0 768#0462398802000000
(1663372605.252022) can0 760#0322398A00000000
(1663372605.276330) can0 768#0462398A02000000
(1663372605.329147) can0 760#0322398900000000
(1663372605.354328) can0 768#0462398902000000
(1663372605.393731) can0 760#0322398B00000000
(1663372605.418326) can0 768#0462398B02000000
(1663372605.453295) can0 760#0322320100000000
(1663372605.478321) can0 768#0562320145200000
(1663372605.514514) can0 760#0322293100000000
(1663372605.539321) can0 768#0462293100000000
(1663372605.577039) can0 760#03223A5000000000
(1663372605.601419) can0 768#05623A50FFFF0000
(1663372605.637026) can0 760#0322290500000000
(1663372605.661361) can0 768#0762290500000000
(1663372605.700788) can0 760#0322290400000000
(1663372605.725324) can0 768#0762290400000000
(1663372605.762014) can0 760#0322290600000000
(1663372605.786326) can0 768#0562290608000000
(1663372605.824516) can0 760#0322290A00000000
(1663372605.849316) can0 768#0462290ACC000000
(1663372605.892030) can0 760#0322D10000000000
(1663372605.916321) can0 768#0462D10081000000
(1663372605.968283) can0 760#0322290000000000
(1663372605.993332) can0 768#0562290000000000
(1663372606.034542) can0 760#0322293000000000
(1663372606.059318) can0 768#0562293000000000
(1663372606.094545) can0 760#0322020000000000
(1663372606.119320) can0 768#0462020001000000
(1663372606.157058) can0 760#0322292700000000
(1663372606.182496) can0 768#0462292700000000
(1663372606.219528) can0 760#0322D10B00000000
(1663372606.244307) can0 768#0462D10B92000000
(1663372606.283451) can0 760#03223A5100000000
(1663372606.308312) can0 768#05623A5100000000
(1663372606.344530) can0 760#0322398800000000
(1663372606.370277) can0 768#0462398802000000
(1663372606.407041) can0 760#0322398A00000000
(1663372606.431332) can0 768#0462398A02000000
(1663372606.467054) can0 760#0322398900000000
(1663372606.492312) can0 768#0462398902000000
(1663372606.528298) can0 760#0322398B00000000
(1663372606.553312) can0 768#0462398B02000000
(1663372606.615803) can0 760#0322320100000000
(1663372606.640307) can0 768#0562320145200000
(1663372606.678304) can0 760#0322293100000000
(1663372606.704255) can0 768#0462293100000000
(1663372606.739540) can0 760#03223A5000000000
(1663372606.764307) can0 768#05623A50FFFF0000
(1663372606.800806) can0 760#0322290500000000
(1663372606.825310) can0 768#0762290500000000
(1663372606.863310) can0 760#0322290400000000
(1663372606.888311) can0 768#0762290400000000
(1663372606.925812) can0 760#0322290600000000
(1663372606.950309) can0 768#0562290608000000
(1663372606.987062) can0 760#0322290A00000000
(1663372607.012303) can0 768#0462290ACC000000
(1663372607.050785) can0 760#0322D10000000000
(1663372607.076360) can0 768#0462D10081000000
(1663372607.112055) can0 760#0322290000000000
(1663372607.137306) can0 768#0562290000000000
(1663372607.188901) can0 760#0322293000000000
(1663372607.213312) can0 768#0562293000000000
(1663372607.252674) can0 760#0322020000000000
(1663372607.277313) can0 768#0462020001000000
(1663372607.315824) can0 760#0322292700000000
(1663372607.340296) can0 768#0462292700000000
(1663372607.379024) can0 760#0322D10B00000000
(1663372607.404270) can0 768#0462D10B92000000
(1663372607.438316) can0 760#03223A5100000000
(1663372607.463377) can0 768#05623A5100000000
(1663372607.500820) can0 760#0322398800000000
(1663372607.525294) can0 768#0462398802000000
(1663372607.562069) can0 760#0322398A00000000
(1663372607.587531) can0 768#0462398A02000000
(1663372607.624566) can0 760#0322398900000000
(1663372607.649292) can0 768#0462398902000000
(1663372607.687045) can0 760#0322398B00000000
(1663372607.712293) can0 768#0462398B02000000
(1663372607.748769) can0 760#0322320100000000
(1663372607.773294) can0 768#0562320145200000
(1663372607.811542) can0 760#0322293100000000
(1663372607.836291) can0 768#0462293100000000
(1663372607.888328) can0 760#03223A5000000000
(1663372607.913294) can0 768#05623A5000000000
(1663372607.952092) can0 760#0322290500000000
(1663372607.977296) can0 768#0762290500000000
(1663372608.014594) can0 760#0322290400000000
(1663372608.039293) can0 768#0762290400000000
(1663372608.075829) can0 760#0322290600000000
(1663372608.100289) can0 768#0562290608000000
(1663372608.138308) can0 760#0322290A00000000
(1663372608.164453) can0 768#0462290ACC000000
(1663372608.199586) can0 760#0322D10000000000
(1663372608.224283) can0 768#0462D10081000000
(1663372608.259933) can0 760#0322290000000000
(1663372608.284284) can0 768#0562290000000000
(1663372608.325832) can0 760#0322293000000000
(1663372608.350287) can0 768#0562293000000000
(1663372608.387063) can0 760#0322020000000000
(1663372608.412298) can0 768#0462020001000000
(1663372608.448326) can0 760#0322292700000000
(1663372608.473288) can0 768#0462292700000000
(1663372608.527079) can0 760#0322D10B00000000
(1663372608.552282) can0 768#0462D10B92000000
(1663372608.590824) can0 760#03223A5100000000
(1663372608.615276) can0 768#05623A5100000000
(1663372608.653345) can0 760#0322398800000000
(1663372608.678280) can0 768#0462398802000000
(1663372608.714575) can0 760#0322398A00000000
(1663372608.739280) can0 768#0462398A02000000
(1663372608.774579) can0 760#0322398900000000
(1663372608.799278) can0 768#0462398902000000
(1663372608.836507) can0 760#0322398B00000000
(1663372608.861291) can0 768#0462398B02000000
(1663372608.895850) can0 760#0322320100000000
(1663372608.920273) can0 768#0562320145200000
(1663372608.957072) can0 760#0322293100000000
(1663372608.982395) can0 768#0462293100000000
(1663372609.019588) can0 760#03223A5000000000
(1663372609.045165) can0 768#05623A5000000000
(1663372609.079604) can0 760#0322290500000000
(1663372609.104278) can0 768#0762290500000000
(1663372609.164588) can0 760#0322290400000000
(1663372609.190533) can0 768#0762290400000000
(1663372609.230848) can0 760#0322290600000000
(1663372609.255273) can0 768#0562290608000000
(1663372609.292704) can0 760#0322290A00000000
(1663372609.317269) can0 768#0462290ACC000000
(1663372609.357097) can0 760#0322D10000000000
(1663372609.382420) can0 768#0462D10081000000
(1663372609.419600) can0 760#0322290000000000
(1663372609.444269) can0 768#0562290000000000
(1663372609.480839) can0 760#0322293000000000
(1663372609.505273) can0 768#0562293000000000
(1663372609.542108) can0 760#0322020000000000
(1663372609.567275) can0 768#0462020001000000
(1663372609.605842) can0 760#0322292700000000
(1663372609.630266) can0 768#0462292700000000
(1663372609.668348) can0 760#0322D10B00000000
(1663372609.693267) can0 768#0462D10B92000000
(1663372609.729612) can0 760#03223A5100000000
(1663372609.754268) can0 768#05623A5100000000
(1663372609.808335) can0 760#0322398800000000
(1663372609.833268) can0 768#0462398802000000
(1663372609.873350) can0 760#0322398A00000000
(1663372609.898265) can0 768#0462398A02000000
(1663372609.934597) can0 760#0322398900000000
(1663372609.959318) can0 768#0462398902000000
(1663372609.994599) can0 760#0322398B00000000
(1663372610.019259) can0 768#0462398B02000000
(1663372610.057127) can0 760#0322320100000000
(1663372610.082408) can0 768#0562320145200000
(1663372610.117096) can0 760#0322293100000000
(1663372610.142407) can0 768#0462293100000000
(1663372610.179602) can0 760#03223A5000000000
(1663372610.204259) can0 768#05623A50FFFF0000
(1663372610.239615) can0 760#0322290500000000
(1663372610.264268) can0 768#0762290500000000
(1663372610.301461) can0 760#0322290400000000
(1663372610.326260) can0 768#0762290400000000
(1663372610.368363) can0 760#0322290600000000
(1663372610.393266) can0 768#0562290608000000
(1663372610.448934) can0 760#0322290A00000000
(1663372610.473254) can0 768#0462290ACC000000
(1663372610.513370) can0 760#0322D10000000000
(1663372610.538251) can0 768#0462D10081000000
(1663372610.575921) can0 760#0322290000000000
(1663372610.600257) can0 768#0562290000000000
(1663372610.637123) can0 760#0322293000000000
(1663372610.662794) can0 768#0562293000000000
(1663372610.704197) can0 760#0322020000000000
(1663372610.729258) can0 768#0462020001000000
(1663372610.763378) can0 760#0322292700000000
(1663372610.788251) can0 768#0462292700000000
(1663372610.825872) can0 760#0322D10B00000000
(1663372610.850247) can0 768#0462D10B91000000
(1663372610.888373) can0 760#03223A5100000000
(1663372610.913253) can0 768#05623A5100000000
(1663372610.948383) can0 760#0322398800000000
(1663372610.973249) can0 768#0462398802000000
(1663372611.010862) can0 760#0322398A00000000
(1663372611.035250) can0 768#0462398A02000000
(1663372611.092114) can0 760#0322398900000000
(1663372611.117242) can0 768#0462398902000000
(1663372611.152128) can0 760#0322398B00000000
(1663372611.177242) can0 768#0462398B02000000
(1663372611.213402) can0 760#0322320100000000
(1663372611.239155) can0 768#0562320145200000
(1663372611.273364) can0 760#0322293100000000
(1663372611.298244) can0 768#0462293100000000
(1663372611.335883) can0 760#03223A5000000000
(1663372611.360245) can0 768#05623A5000000000
(1663372611.402131) can0 760#0322290500000000
(1663372611.427244) can0 768#0762290500000000
(1663372611.463802) can0 760#0322290400000000
(1663372611.488246) can0 768#0762290400000000
(1663372611.525891) can0 760#0322290600000000
(1663372611.550249) can0 768#0562290608000000
(1663372611.587158) can0 760#0322290A00000000
(1663372611.612238) can0 768#0462290ACC000000
(1663372611.648381) can0 760#0322D10000000000
(1663372611.673240) can0 768#0462D10081000000
(1663372611.729637) can0 760#0322290000000000
(1663372611.754241) can0 768#0562290000000000
(1663372611.799660) can0 760#0322293000000000
(1663372611.824242) can0 768#0562293000000000
(1663372611.863796) can0 760#0322020000000000
(1663372611.888245) can0 768#0462020001000000
(1663372611.925922) can0 760#0322292700000000
(1663372611.950234) can0 768#0462292700000000
(1663372611.987142) can0 760#0322D10B00000000
(1663372612.012238) can0 768#0462D10B92000000
(1663372612.047153) can0 760#03223A5100000000
(1663372612.073376) can0 768#05623A5100000000
(1663372612.109665) can0 760#0322398800000000
(1663372612.134228) can0 768#0462398802000000
(1663372612.170882) can0 760#0322398A00000000
(1663372612.195236) can0 768#0462398A02000000
(1663372612.232137) can0 760#0322398900000000
(1663372612.257229) can0 768#0462398902000000
(1663372612.293398) can0 760#0322398B00000000
(1663372612.318231) can0 768#0462398B02000000
(1663372612.374665) can0 760#0322320100000000
(1663372612.399225) can0 768#0562320145200000
(1663372612.437167) can0 760#0322293100000000
(1663372612.462230) can0 768#0462293100000000
(1663372612.503054) can0 760#03223A5000000000
(1663372612.528229) can0 768#05623A50FFFF0000
(1663372612.562153) can0 760#0322290500000000
(1663372612.587230) can0 768#0762290500000000
(1663372612.624652) can0 760#0322290400000000
(1663372612.649759) can0 768#0762290400000000
(1663372612.687156) can0 760#0322290600000000
(1663372612.712668) can0 768#0562290608000000
(1663372612.750910) can0 760#0322290A00000000
(1663372612.775220) can0 768#0462290ACC000000
(1663372612.810899) can0 760#0322D10000000000
(1663372612.835224) can0 768#0462D10081000000
(1663372612.870905) can0 760#0322290000000000
(1663372612.895225) can0 768#0562290000000000
(1663372612.933410) can0 760#0322293000000000
(1663372612.958226) can0 768#0562293000000000
(1663372613.012166) can0 760#0322020000000000
(1663372613.037227) can0 768#0462020001000000
(1663372613.077166) can0 760#0322292700000000
(1663372613.102374) can0 768#0462292700000000
(1663372613.140913) can0 760#0322D10B00000000
(1663372613.165218) can0 768#0462D10B91000000
(1663372613.203109) can0 760#03223A5100000000
(1663372613.228219) can0 768#05623A5100000000
(1663372613.263091) can0 760#0322398800000000
(1663372613.288216) can0 768#0462398802000000
(1663372613.323636) can0 760#0322398A00000000
(1663372613.348217) can0 768#0462398A02000000
(1663372613.384001) can0 760#0322398900000000
(1663372613.409212) can0 768#0462398902000000
(1663372613.449666) can0 760#0322398B00000000
(1663372613.474215) can0 768#0462398B02000000
(1663372613.509667) can0 760#0322320100000000
(1663372613.534210) can0 768#0562320145200000
(1663372613.570936) can0 760#0322293100000000
(1663372613.595209) can0 768#0462293100000000
(1663372613.652171) can0 760#03223A5000000000
(1663372613.677213) can0 768#05623A5000000000
(1663372613.712192) can0 760#0322290500000000
(1663372613.737642) can0 768#0762290500000000
(1663372613.777189) can0 760#0322290400000000
(1663372613.803101) can0 768#0762290400000000
(1663372613.839693) can0 760#0322290600000000
(1663372613.864213) can0 768#0562290608000000
(1663372613.900908) can0 760#0322290A00000000
(1663372613.925202) can0 768#0462290ACC000000
(1663372613.963425) can0 760#0322D10000000000
(1663372613.988207) can0 768#0462D10081000000
(1663372614.023438) can0 760#0322290000000000
(1663372614.048210) can0 768#0562290000000000
(1663372614.085946) can0 760#0322293000000000
(1663372614.111204) can0 768#0562293000000000
(1663372614.147168) can0 760#0322020000000000
(1663372614.172218) can0 768#0462020001000000
(1663372614.207178) can0 760#0322292700000000
(1663372614.232345) can0 768#0462292700000000
(1663372614.288430) can0 760#0322D10B00000000
(1663372614.313203) can0 768#0462D10B91000000
(1663372614.353437) can0 760#03223A5100000000
(1663372614.379686) can0 768#05623A5100000000
(1663372614.418447) can0 760#0322398800000000
(1663372614.443259) can0 768#0462398802000000
(1663372614.485957) can0 760#0322398A00000000
(1663372614.511196) can0 768#0462398A02000000
(1663372614.545950) can0 760#0322398900000000
(1663372614.571711) can0 768#0462398902000000
(1663372614.609695) can0 760#0322398B00000000
(1663372614.634552) can0 768#0462398B02000000
(1663372614.670931) can0 760#0322320100000000
(1663372614.695192) can0 768#0562320145200000
(1663372614.730938) can0 760#0322293100000000
(1663372614.756198) can0 768#0462293100000000
(1663372614.793452) can0 760#03223A5000000000
(1663372614.818199) can0 768#05623A5000000000
(1663372614.853459) can0 760#0322290500000000
(1663372614.878199) can0 768#0762290500000000
(1663372614.929033) can0 760#0322290400000000
(1663372614.956499) can0 768#0762290400000000
(1663372614.999723) can0 760#0322290600000000
(1663372615.024194) can0 768#0562290608000000
(1663372615.060933) can0 760#0322290A00000000
(1663372615.086192) can0 768#0462290ACC000000
(1663372615.123080) can0 760#0322D10000000000
(1663372615.148259) can0 768#0462D10081000000
(1663372615.184703) can0 760#0322290000000000
(1663372615.209192) can0 768#0562290000000000
(1663372615.245957) can0 760#0322293000000000
(1663372615.271194) can0 768#0562293000000000
(1663372615.308466) can0 760#0322020000000000
(1663372615.333199) can0 768#0462020001000000
(1663372615.371306) can0 760#0322292700000000
(1663372615.396188) can0 768#0462292700000000
(1663372615.434036) can0 760#0322D10B00000000
(1663372615.459183) can0 768#0462D10B91000000
(1663372615.497186) can0 760#03223A5100000000
(1663372615.522310) can0 768#05623A5100000000
(1663372615.568463) can0 760#0322398800000000
(1663372615.593166) can0 768#0462398802000000
(1663372615.634656) can0 760#0322398A00000000
(1663372615.659527) can0 768#0462398A02000000
(1663372615.694637) can0 760#0322398900000000
(1663372615.719114) can0 768#0462398902000000
(1663372615.755884) can0 760#0322398B00000000
(1663372615.781112) can0 768#0462398B02000000
(1663372615.823102) can0 760#0322320100000000
(1663372615.848111) can0 768#0562320145200000
(1663372615.883974) can0 760#0322293100000000
(1663372615.909111) can0 768#0462293100000000
(1663372615.945911) can0 760#03223A5000000000
(1663372615.971115) can0 768#05623A5000000000
(1663372616.005893) can0 760#0322290500000000
(1663372616.031116) can0 768#0762290500000000
(1663372616.068400) can0 760#0322290400000000
(1663372616.093118) can0 768#0762290400000000
(1663372616.130904) can0 760#0322290600000000
(1663372616.156259) can0 768#0562290608000000
(1663372616.208401) can0 760#0322290A00000000
(1663372616.233105) can0 768#0462290ACC000000
(1663372616.262998) can0 760#0322D10000000000
(1663372616.288108) can0 768#0462D10081000000
(1663372616.323049) can0 760#0322290000000000
(1663372616.348716) can0 768#0562290000000000
(1663372616.383469) can0 760#0322293000000000
(1663372616.408182) can0 768#0562293000000000
(1663372616.446570) can0 760#0322020000000000
(1663372616.471187) can0 768#0462020001000000
(1663372616.509720) can0 760#0322292700000000
(1663372616.534176) can0 768#0462292700000000
(1663372616.584719) can0 760#0322D10B00000000
(1663372616.609165) can0 768#0462D10B91000000
(1663372616.663002) can0 760#03223A5100000000
(1663372616.688174) can0 768#05623A5100000000
(1663372616.725964) can0 760#0322398800000000
(1663372616.751169) can0 768#0462398802000000
(1663372616.788471) can0 760#0322398A00000000
(1663372616.813169) can0 768#0462398A02000000
(1663372616.851583) can0 760#0322398900000000
(1663372616.878199) can0 768#0462398902000000
(1663372616.913488) can0 760#0322398B00000000
(1663372616.938167) can0 768#0462398B02000000
(1663372616.974735) can0 760#0322320100000000
(1663372616.999163) can0 768#0562320145200000
(1663372617.034721) can0 760#0322293100000000
(1663372617.059162) can0 768#0462293100000000
(1663372617.097258) can0 760#03223A5000000000
(1663372617.122334) can0 768#05623A5000000000
(1663372617.159718) can0 760#0322290500000000
(1663372617.184153) can0 768#0762290500000000
(1663372617.220991) can0 760#0322290400000000
(1663372617.246167) can0 768#0762290400000000
(1663372617.283490) can0 760#0322290600000000
(1663372617.308166) can0 768#0562290608000000
(1663372617.345966) can0 760#0322290A00000000
(1663372617.371156) can0 768#0462290ACC000000
(1663372617.407244) can0 760#0322D10000000000
(1663372617.432168) can0 768#0462D10081000000
(1663372617.488497) can0 760#0322290000000000
(1663372617.513167) can0 768#0562290000000000
(1663372617.553498) can0 760#0322293000000000
(1663372617.578160) can0 768#0562293000000000
(1663372617.618490) can0 760#0322020000000000
(1663372617.643162) can0 768#0462020001000000
(1663372617.683291) can0 760#0322292700000000
(1663372617.708155) can0 768#0462292700000000
(1663372617.743778) can0 760#0322D10B00000000
(1663372617.768153) can0 768#0462D10B92000000
(1663372617.804759) can0 760#03223A5100000000
(1663372617.829153) can0 768#05623A5100000000
(1663372617.864740) can0 760#0322398800000000
(1663372617.889151) can0 768#0462398802000000
(1663372617.924757) can0 760#0322398A00000000
(1663372617.949660) can0 768#0462398A02000000
(1663372617.984761) can0 760#0322398900000000
(1663372618.009148) can0 768#0462398902000000
(1663372618.045983) can0 760#0322398B00000000
(1663372618.071148) can0 768#0462398B02000000
(1663372618.127475) can0 760#0322320100000000
(1663372618.152128) can0 768#0562320145200000
(1663372618.195994) can0 760#0322293100000000
(1663372618.221149) can0 768#0462293100000000
(1663372618.258489) can0 760#03223A5000000000
(1663372618.283242) can0 768#05623A50FFFF0000
(1663372618.319458) can0 760#0322290500000000
(1663372618.344152) can0 768#0762290500000000
(1663372618.383768) can0 760#0322290400000000
(1663372618.408151) can0 768#0762290400000000
(1663372618.446184) can0 760#0322290600000000
(1663372618.471149) can0 768#0562290608000000
(1663372618.508506) can0 760#0322290A00000000
(1663372618.533146) can0 768#0462290ACC000000
(1663372618.573512) can0 760#0322D10000000000
(1663372618.598155) can0 768#0462D10081000000
(1663372618.634764) can0 760#0322290000000000
(1663372618.659146) can0 768#0562290000000000
(1663372618.696013) can0 760#0322293000000000
(1663372618.721154) can0 768#0562293000000000
(1663372618.767274) can0 760#0322020000000000
(1663372618.792151) can0 768#0462020001000000
(1663372618.851020) can0 760#0322292700000000
(1663372618.876137) can0 768#0462292700000000
(1663372618.924787) can0 760#0322D10B00000000
(1663372618.949134) can0 768#0462D10B91000000
(1663372618.986010) can0 760#03223A5100000000
(1663372619.011141) can0 768#05623A5100000000
(1663372619.047279) can0 760#0322398800000000
(1663372619.072137) can0 768#0462398802000000
(1663372619.107258) can0 760#0322398A00000000
(1663372619.132139) can0 768#0462398A02000000
(1663372619.168505) can0 760#0322398900000000
(1663372619.193134) can0 768#0462398902000000
(1663372619.231615) can0 760#0322398B00000000
(1663372619.256133) can0 768#0462398B02000000
(1663372619.292286) can0 760#0322320100000000
(1663372619.317132) can0 768#0562320145200000
(1663372619.352266) can0 760#0322293100000000
(1663372619.377251) can0 768#0462293100000000
(1663372619.411033) can0 760#03223A5000000000
(1663372619.436133) can0 768#05623A5000000000
(1663372619.473538) can0 760#0322290500000000
(1663372619.498136) can0 768#0762290500000000
(1663372619.535361) can0 760#0322290400000000
(1663372619.560135) can0 768#0762290400000000
(1663372619.601610) can0 760#0322290600000000
(1663372619.626130) can0 768#0562290608000000
(1663372619.665177) can0 760#0322290A00000000
(1663372619.690128) can0 768#0462290ACC000000
(1663372619.724790) can0 760#0322D10000000000
(1663372619.749127) can0 768#0462D10081000000
(1663372619.784789) can0 760#0322290000000000
(1663372619.809129) can0 768#0562290000000000
(1663372619.848547) can0 760#0322293000000000
(1663372619.873130) can0 768#0562293000000000
(1663372619.909116) can0 760#0322020000000000
(1663372619.934134) can0 768#0462020001000000
(1663372619.969779) can0 760#0322292700000000
(1663372619.994156) can0 768#0462292700000000
(1663372620.049198) can0 760#0322D10B00000000
(1663372620.074140) can0 768#0462D10B91000000
(1663372620.133533) can0 760#03223A5100000000
(1663372620.158157) can0 768#05623A5100000000
(1663372620.197283) can0 760#0322398800000000
(1663372620.222260) can0 768#0462398802000000
(1663372620.259784) can0 760#0322398A00000000
(1663372620.284119) can0 768#0462398A02000000
(1663372620.323239) can0 760#0322398900000000
(1663372620.348119) can0 768#0462398902000000
(1663372620.382989) can0 760#0322398B00000000
(1663372620.408117) can0 768#0462398B02000000
(1663372620.444810) can0 760#0322320100000000
(1663372620.469113) can0 768#0562320145200000
(1663372620.504796) can0 760#0322293100000000
(1663372620.529903) can0 768#0462293100000000
(1663372620.567299) can0 760#03223A5000000000
(1663372620.592750) can0 768#05623A5000000000
(1663372620.631055) can0 760#0322290500000000
(1663372620.656805) can0 768#0762290500000000
(1663372620.691069) can0 760#0322290400000000
