(1639737873.798442) can0 720#023E010000000000
(1639737873.799667) can0 720#0210870000000000
(1639737873.809363) can0 728#017E000000000000
(1639737874.319257) can0 720#0227010000000000
(1639737874.320990) can0 728#037F272200000000
(1639737874.331356) can0 720#0727020000000000
(1639737874.338030) can0 728#037F272200000000
(1639737874.344896) can0 720#0227010000000000
(1639737874.346532) can0 728#037F272200000000
(1639737874.359088) can0 720#072702AA775C45B7
(1639737874.363666) can0 728#037F272200000000
(1639737874.373475) can0 720#0227010000000000
(1639737874.380795) can0 728#037F272200000000
(1639737874.389076) can0 720#07270279699656B6
(1639737874.397750) can0 728#037F272200000000
(1639737874.404229) can0 720#0227010000000000
(1639737874.406203) can0 728#037F272200000000
(1639737874.423046) can0 720#0727021A12D39849
(1639737874.431757) can0 728#037F272200000000
(1639737874.438206) can0 720#0227010000000000
(1639737874.440247) can0 728#037F272200000000
(1639737874.452276) can0 720#072702766684578C
(1639737874.457296) can0 728#037F272200000000
(1639737874.463276) can0 720#0227010000000000
(1639737874.466454) can0 728#037F272200000000
(1639737874.467341) can0 720#072702766684578C
(1639737874.473631) can0 720#0227010000000000
(1639737874.476478) can0 728#037F272200000000
(1639737874.481797) can0 720#0727028899966A5C
(1639737874.486257) can0 720#0227010000000000
(1639737874.487224) can0 728#037F272200000000
(1639737874.489548) can0 720#07270298976877AA
(1639737874.493169) can0 720#0227010000000000
(1639737874.496386) can0 728#037F272200000000
(1639737874.497277) can0 720#07270293469848B9
(1639737874.500758) can0 720#0227010000000000
(1639737874.504166) can0 720#0727029699569485
(1639737874.506365) can0 728#037F272200000000
(1639737874.508015) can0 720#0227010000000000
(1639737874.513220) can0 720#0727029CCA8A7A37
(1639737874.516413) can0 728#037F272200000000
(1639737874.521454) can0 720#0227010000000000
(1639737874.525148) can0 720#07270279B68CA464
(1639737874.526329) can0 728#037F272200000000
(1639737874.528213) can0 720#0227010000000000
(1639737874.532143) can0 720#07270279699656B6
(1639737874.535176) can0 720#0227010000000000
(1639737874.536342) can0 728#037F272200000000
(1639737874.538538) can0 720#072702177B6A9674
(1639737874.543689) can0 720#0227010000000000
(1639737874.546657) can0 728#037F272200000000
(1639737874.553881) can0 720#0727027B73776AA5
(1639737874.556348) can0 728#037F272200000000
(1639737874.557911) can0 720#0227010000000000
(1639737874.560872) can0 720#072702A86B9C8768
(1639737874.564643) can0 720#0227010000000000
(1639737874.566076) can0 728#037F272200000000
(1639737874.579544) can0 720#07270298859877A9
(1639737874.582990) can0 728#037F272200000000
(1639737874.597371) can0 720#0227010000000000
(1639737874.600037) can0 728#037F272200000000
(1639737874.617579) can0 720#07270227767659C6
(1639737874.625764) can0 728#037F272200000000
(1639737874.631935) can0 720#0227010000000000
(1639737874.634124) can0 728#037F272200000000
(1639737874.645012) can0 720#0727027537BBD889
(1639737874.651239) can0 728#037F272200000000
(1639737874.660380) can0 720#0227010000000000
(1639737874.668177) can0 728#037F272200000000
(1639737874.673963) can0 720#07270287C88B77A6
(1639737874.676786) can0 728#037F272200000000
(1639737874.686750) can0 720#0227010000000000
(1639737874.693803) can0 728#037F272200000000
(1639737874.700276) can0 720#07270234D952C942
(1639737874.702811) can0 728#037F272200000000
(1639737874.714500) can0 720#0227010000000000
(1639737874.719359) can0 728#037F272200000000
(1639737874.728112) can0 720#0727027DD0C47662
(1639737874.736463) can0 728#037F272200000000
(1639737874.741398) can0 720#0227010000000000
(1639737874.744895) can0 728#037F272200000000
(1639737874.754316) can0 720#0727026AA568565E
(1639737874.761923) can0 728#037F272200000000
(1639737874.771727) can0 720#0227010000000000
(1639737874.778997) can0 728#037F272200000000
(1639737874.785588) can0 720#07270249BE982A14
(1639737874.787465) can0 728#037F272200000000
(1639737874.801489) can0 720#0227010000000000
(1639737874.804490) can0 728#037F272200000000
(1639737874.814897) can0 720#07270208306155AA
(1639737874.821630) can0 728#037F272200000000
(1639737874.827799) can0 720#0227010000000000
(1639737874.829701) can0 720#07270208306155AA
(1639737874.830909) can0 728#037F272200000000
(1639737874.838204) can0 720#0227010000000000
(1639737874.841094) can0 728#037F272200000000
(1639737874.847596) can0 720#072702536798B3A4
(1639737874.850166) can0 720#0227010000000000
(1639737874.851122) can0 728#037F272200000000
(1639737874.853595) can0 720#072702B397C86A37
(1639737874.858579) can0 720#0227010000000000
(1639737874.860863) can0 728#037F272200000000
(1639737874.861830) can0 720#07270206F9049E65
(1639737874.865117) can0 720#0227010000000000
(1639737874.868552) can0 720#072702B6E3D77C3D
(1639737874.870886) can0 728#037F272200000000
(1639737874.873155) can0 720#0227010000000000
(1639737874.875839) can0 720#07270292776B8877
(1639737874.878955) can0 720#0227010000000000
(1639737874.880867) can0 728#037F272200000000
(1639737874.881778) can0 720#0727027B87899B57
(1639737874.884860) can0 720#0227010000000000
(1639737874.888731) can0 720#072702388985873A
(1639737874.890985) can0 728#037F272200000000
(1639737874.893716) can0 720#0227010000000000
(1639737874.898526) can0 720#0727029AB6996C9A
(1639737874.900912) can0 728#037F272200000000
(1639737874.905298) can0 720#0227010000000000
(1639737874.908698) can0 720#0727027877686B53
(1639737874.910900) can0 728#037F272200000000
(1639737874.913092) can0 720#0227010000000000
(1639737874.915949) can0 720#0727027787A586A3
(1639737874.919563) can0 720#0227010000000000
(1639737874.921019) can0 728#037F272200000000
(1639737874.923460) can0 720#0727025C55289B6D
(1639737874.928479) can0 720#0227010000000000
(1639737874.930247) can0 728#037F272200000000
(1639737874.944571) can0 720#072702D1F32D914B
(1639737874.947259) can0 728#037F272200000000
(1639737874.959896) can0 720#0227010000000000
(1639737874.964303) can0 728#037F272200000000
(1639737874.977721) can0 720#0727022311D2A267
(1639737874.981370) can0 728#037F272200000000
(1639737874.991643) can0 720#0227010000000000
(1639737874.993251) can0 720#023E010000000000
(1639737874.998508) can0 728#037F272200000000
(1639737875.006733) can0 720#0727029977888877
(1639737875.015494) can0 728#037F272200000000
(1639737875.021351) can0 720#0227010000000000
(1639737875.023922) can0 728#037F272200000000
(1639737875.034118) can0 720#072702A76CB279AA
(1639737875.040999) can0 728#037F272200000000
(1639737875.048912) can0 720#0227010000000000
(1639737875.058015) can0 728#037F272200000000
(1639737875.063726) can0 720#0727029487A9A67A
(1639737875.066510) can0 728#037F272200000000
(1639737875.081477) can0 720#0227010000000000
(1639737875.083569) can0 728#037F272200000000
(1639737875.095611) can0 720#072702AA76886BA7
(1639737875.101042) can0 728#037F272200000000
(1639737875.111299) can0 720#0227010000000000
(1639737875.117657) can0 728#037F272200000000
(1639737875.130084) can0 720#072702B3B32303A6
(1639737875.134709) can0 728#037F272200000000
(1639737875.143998) can0 720#0227010000000000
(1639737875.151686) can0 728#037F272200000000
(1639737875.160148) can0 720#0727026D82307101
(1639737875.168763) can0 728#037F272200000000
(1639737875.173482) can0 720#0227010000000000
(1639737875.177386) can0 728#037F272200000000
(1639737875.187311) can0 720#07270296878894A8
(1639737875.191093) can0 720#0227010000000000
(1639737875.194818) can0 720#072702977AD93C82
(1639737875.195993) can0 728#037F272200000000
(1639737875.206321) can0 720#0227010000000000
(1639737875.211259) can0 720#07270206F9049E65
(1639737875.214353) can0 720#0227010000000000
(1639737875.215447) can0 728#037F272200000000
(1639737875.217804) can0 720#072702B6E3D77C3D
(1639737875.224533) can0 720#0227010000000000
(1639737875.225379) can0 728#037F272200000000
(1639737875.236651) can0 720#0727023004AA9A7A
(1639737875.241796) can0 728#037F272200000000
(1639737875.251169) can0 720#0227010000000000
(1639737875.258840) can0 728#037F272200000000
(1639737875.264095) can0 720#072702511B537474
(1639737875.267532) can0 728#037F272200000000
(1639737875.276374) can0 720#0227010000000000
(1639737875.284441) can0 728#037F272200000000
(1639737875.290011) can0 720#072702B50AB4962C
(1639737875.292982) can0 728#037F272200000000
(1639737875.302942) can0 720#0227010000000000
(1639737875.309923) can0 728#037F272200000000
(1639737875.315125) can0 720#072702A2A3ACCA50
(1639737875.318572) can0 728#037F272200000000
(1639737875.328416) can0 720#0227010000000000
(1639737875.335486) can0 728#037F272200000000
(1639737875.341408) can0 720#0727028577C86536
(1639737875.344029) can0 728#037F272200000000
(1639737875.353467) can0 720#0227010000000000
(1639737875.360998) can0 728#037F272200000000
(1639737875.367655) can0 720#072702595B587252
(1639737875.369580) can0 728#037F272200000000
(1639737875.380888) can0 720#0227010000000000
(1639737875.386588) can0 728#037F272200000000
(1639737875.393151) can0 720#07270220AC715FF7
(1639737875.395104) can0 728#037F272200000000
(1639737875.405919) can0 720#0227010000000000
(1639737875.412144) can0 728#037F272200000000
(1639737875.418661) can0 720#0727023CE2DB419A
(1639737875.420640) can0 728#037F272200000000
(1639737875.433862) can0 720#0227010000000000
(1639737875.435411) can0 720#023E010000000000
(1639737875.437852) can0 728#037F272200000000
(1639737875.448684) can0 720#072702835507519A
(1639737875.454762) can0 728#037F272200000000
(1639737875.463191) can0 720#0227010000000000
(1639737875.471788) can0 728#037F272200000000
(1639737875.478612) can0 720#07270242434D5932
(1639737875.480308) can0 728#037F272200000000
(1639737875.492227) can0 720#0227010000000000
(1639737875.497415) can0 728#037F272200000000
(1639737875.505471) can0 720#07270244494F4445
(1639737875.514390) can0 728#037F272200000000
(1639737875.522304) can0 720#0227010000000000
(1639737875.531420) can0 728#037F272200000000
(1639737875.536158) can0 720#072702583582C81D
(1639737875.540670) can0 728#037F272200000000
(1639737875.549747) can0 720#0227010000000000
(1639737875.557067) can0 728#037F272200000000
(1639737875.568099) can0 720#0727023F43EF74BE
(1639737875.574723) can0 728#037F272200000000
(1639737875.582745) can0 720#0227010000000000
(1639737875.591008) can0 728#037F272200000000
(1639737875.599216) can0 720#072702E8D2066DDC
(1639737875.608220) can0 728#037F272200000000
(1639737875.613967) can0 720#0227010000000000
(1639737875.616687) can0 728#037F272200000000
(1639737875.619019) can0 720#072702714877B24B
(1639737875.623732) can0 720#0227010000000000
(1639737875.626676) can0 728#037F272200000000
(1639737875.627566) can0 720#0727021D61E5C70D
(1639737875.633437) can0 720#0227010000000000
(1639737875.635568) can0 728#037F272200000000
(1639737875.647773) can0 720#072702064E9AE1DE
(1639737875.652681) can0 728#037F272200000000
(1639737875.661252) can0 720#0227010000000000
(1639737875.669664) can0 728#037F272200000000
(1639737875.676120) can0 720#0727026C2EA071E6
(1639737875.678145) can0 728#037F272200000000
(1639737875.689737) can0 720#0227010000000000
(1639737875.695321) can0 728#037F272200000000
(1639737875.703230) can0 720#07270289D57FB3A7
(1639737875.712225) can0 728#037F272200000000
(1639737875.718365) can0 720#0227010000000000
(1639737875.720353) can0 720#072702AACCCC3355
(1639737875.721481) can0 728#037F272200000000
(1639737875.724194) can0 720#0227010000000000
(1639737875.729300) can0 720#072702AACCCC3355
(1639737875.731489) can0 728#037F272200000000
(1639737875.738825) can0 720#0227010000000000
(1639737875.741441) can0 728#037F272200000000
(1639737875.743443) can0 720#07270276C47FE500
(1639737875.746333) can0 720#0227010000000000
(1639737875.749916) can0 720#07270276C47FE500
(1639737875.751486) can0 728#037F272200000000
(1639737875.753134) can0 720#0227010000000000
(1639737875.757247) can0 720#07270247A73B8362
(1639737875.760987) can0 720#0227010000000000
(1639737875.761940) can0 728#037F272200000000
(1639737875.765182) can0 720#07270247A73B8362
(1639737875.769132) can0 720#0227010000000000
(1639737875.770725) can0 720#072702B314F11A05
(1639737875.771648) can0 728#037F272200000000
(1639737875.774272) can0 720#0227010000000000
(1639737875.781579) can0 720#072702081A78BBE7
(1639737875.782378) can0 728#037F272200000000
(1639737875.788039) can0 720#0227010000000000
(1639737875.791185) can0 720#072702B314F11A05
(1639737875.792143) can0 728#037F272200000000
(1639737875.794839) can0 720#0227010000000000
(1639737875.799363) can0 720#023E010000000000
(1639737875.801279) can0 720#072702081A78BBE7
(1639737875.802247) can0 728#037F272200000000
(1639737875.803244) can0 720#0227010000000000
(1639737875.806266) can0 720#0727020853ACDE3D
(1639737875.809561) can0 720#0227010000000000
(1639737875.811435) can0 728#037F272200000000
(1639737875.812617) can0 720#072702519A72131C
(1639737875.817396) can0 720#0227010000000000
(1639737875.821369) can0 728#037F272200000000
(1639737875.829329) can0 720#072702E729D14B41
(1639737875.838443) can0 728#037F272200000000
(1639737875.844106) can0 720#0227010000000000
(1639737875.846925) can0 728#037F272200000000
(1639737875.858902) can0 720#072702F6920244E0
(1639737875.863996) can0 728#037F272200000000
(1639737875.873532) can0 720#0227010000000000
(1639737875.881108) can0 728#037F272200000000
(1639737875.887509) can0 720#072702766684578C
(1639737875.889505) can0 728#037F272200000000
(1639737875.901523) can0 720#0227010000000000
(1639737875.906548) can0 728#037F272200000000
(1639737875.917290) can0 720#072702766684578C
(1639737875.923597) can0 728#037F272200000000
(1639737875.933486) can0 720#0227010000000000
(1639737875.940585) can0 728#037F272200000000
(1639737875.948517) can0 720#0727024F534E4544
(1639737875.957649) can0 728#037F272200000000
(1639737875.962998) can0 720#0227010000000000
(1639737875.966258) can0 728#037F272200000000
(1639737875.976505) can0 720#0727024F534E4544
(1639737875.983166) can0 728#037F272200000000
(1639737875.989605) can0 720#0227010000000000
(1639737875.991698) can0 728#037F272200000000
(1639737876.003376) can0 720#072702E729D14B41
(1639737876.008757) can0 728#037F272200000000
(1639737876.017981) can0 720#0227010000000000
(1639737876.025797) can0 728#037F272200000000
(1639737876.030716) can0 720#072702F6920244E0
(1639737876.034358) can0 728#037F272200000000
(1639737876.047785) can0 720#0227010000000000
(1639737876.051516) can0 728#037F272200000000
(1639737876.063012) can0 720#072702AA7C3ABDD9
(1639737876.068485) can0 728#037F272200000000
(1639737876.075230) can0 720#0227010000000000
(1639737876.076881) can0 728#037F272200000000
(1639737876.088782) can0 720#072702DC0DE5B1AB
(1639737876.093958) can0 728#037F272200000000
(1639737876.101631) can0 720#0227010000000000
(1639737876.110975) can0 728#037F272200000000
(1639737876.118152) can0 720#0727026C5AB3C78B
(1639737876.119473) can0 728#037F272200000000
(1639737876.130650) can0 720#0227010000000000
(1639737876.136673) can0 728#037F272200000000
(1639737876.144356) can0 720#072702B26D749A57
(1639737876.153566) can0 728#037F272200000000
(1639737876.157119) can0 720#0227010000000000
(1639737876.162144) can0 728#037F272200000000
(1639737876.170464) can0 720#0727025F7DF5F793
(1639737876.179275) can0 728#037F272200000000
(1639737876.182262) can0 720#0227010000000000
(1639737876.187613) can0 728#037F272200000000
(1639737876.195432) can0 720#0727029D6CC312BB
(1639737876.204705) can0 728#037F272200000000
(1639737876.208619) can0 720#0227010000000000
(1639737876.213206) can0 728#037F272200000000
(1639737876.222803) can0 720#072702E6A402D16A
(1639737876.230222) can0 728#037F272200000000
(1639737876.235526) can0 720#0227010000000000
(1639737876.238750) can0 728#037F272200000000
(1639737876.252757) can0 720#0727023132333435
(1639737876.255777) can0 728#037F272200000000
(1639737876.263407) can0 720#0227010000000000
(1639737876.264810) can0 728#037F272200000000
(1639737876.267069) can0 720#0727023132333435
(1639737876.271003) can0 720#0227010000000000
(1639737876.273836) can0 720#072702ABDC7445C6
(1639737876.274850) can0 728#037F272200000000
(1639737876.277706) can0 720#0227010000000000
(1639737876.284879) can0 728#037F272200000000
(1639737876.288628) can0 720#07270206C3036B0B
(1639737876.294787) can0 720#0227010000000000
(1639737876.295751) can0 728#037F272200000000
(1639737876.297939) can0 720#07270285EFF9F5DC
(1639737876.301157) can0 720#0227010000000000
(1639737876.304491) can0 720#072702335900298A
(1639737876.305449) can0 728#037F272200000000
(1639737876.307745) can0 720#0227010000000000
(1639737876.310339) can0 720#072702A5B3EFDA76
(1639737876.313825) can0 720#0227010000000000
(1639737876.315039) can0 728#037F272200000000
(1639737876.317207) can0 720#07270207F56AF947
(1639737876.324935) can0 728#037F272200000000
(1639737876.328015) can0 720#0227010000000000
(1639737876.333388) can0 720#07270206F9049E65
(1639737876.334854) can0 728#037F272200000000
(1639737876.336411) can0 720#0227010000000000
(1639737876.339440) can0 720#072702B6E3D77C3D
(1639737876.342900) can0 720#0227010000000000
(1639737876.344874) can0 728#037F272200000000
(1639737876.346266) can0 720#07270296878894A8
(1639737876.349578) can0 720#0227010000000000
(1639737876.353741) can0 720#072702977AD93C82
(1639737876.355788) can0 728#037F272200000000
(1639737876.366255) can0 720#0227010000000000
(1639737876.373264) can0 728#037F272200000000
(1639737876.379117) can0 720#072702AEC7B44BAC
(1639737876.381766) can0 728#037F272200000000
(1639737876.393323) can0 720#0227010000000000
(1639737876.398848) can0 728#037F272200000000
(1639737876.407436) can0 720#0727026406D6A6C0
(1639737876.415851) can0 728#037F272200000000
(1639737876.421838) can0 720#0227010000000000
(1639737876.424364) can0 728#037F272200000000
(1639737876.439657) can0 720#0727023D804983B3
(1639737876.441411) can0 728#037F272200000000
(1639737876.455140) can0 720#0227010000000000
(1639737876.458591) can0 728#037F272200000000
(1639737876.470165) can0 720#072702A5FD4C45DA
(1639737876.475497) can0 728#037F272200000000
(1639737876.486271) can0 720#0227010000000000
(1639737876.492641) can0 728#037F272200000000
(1639737876.500807) can0 720#072702FDB3F43588
(1639737876.509535) can0 728#037F272200000000
(1639737876.518508) can0 720#0227010000000000
(1639737876.527257) can0 728#037F272200000000
(1639737876.532026) can0 720#0727028A81A88882
(1639737876.535164) can0 728#037F272200000000
(1639737876.541286) can0 720#0227010000000000
(1639737876.543870) can0 720#0727026577780412
(1639737876.544821) can0 728#037F272200000000
(1639737876.548943) can0 720#0227010000000000
(1639737876.554523) can0 728#037F272200000000
(1639737876.561428) can0 720#0727026577780412
(1639737876.564469) can0 728#037F272200000000
(1639737876.565465) can0 720#0227010000000000
(1639737876.568401) can0 720#0727020000000000
(1639737876.572009) can0 720#0227010000000000
(1639737876.574527) can0 728#037F272200000000
(1639737876.576460) can0 720#0727024D617A6441
(1639737876.579586) can0 720#0227010000000000
(1639737876.582881) can0 720#0727020101010101
(1639737876.584601) can0 728#037F272200000000
(1639737876.587090) can0 720#0227010000000000
(1639737876.592257) can0 720#072702121701E394
(1639737876.594528) can0 728#037F272200000000
(1639737876.601089) can0 720#0227010000000000
(1639737876.604507) can0 728#037F272200000000
(1639737876.606171) can0 720#0727024182F678EE
(1639737876.610294) can0 720#0227010000000000
(1639737876.613859) can0 728#037F272200000000
(1639737876.624422) can0 720#072702C3A1097714
(1639737876.630913) can0 728#037F272200000000
(1639737876.637804) can0 720#0227010000000000
(1639737876.639793) can0 728#037F272200000000
(1639737876.644026) can0 720#0727022E67CB8A03
(1639737876.649679) can0 728#037F272200000000
(1639737876.650651) can0 720#0227010000000000
(1639737876.653474) can0 720#072702CA5B1B48AF
(1639737876.657430) can0 720#0227010000000000
(1639737876.659656) can0 728#037F272200000000
(1639737876.660630) can0 720#072702DEB4772704
(1639737876.664676) can0 720#0227010000000000
(1639737876.668126) can0 720#0727027B03C922F1
(1639737876.669717) can0 728#037F272200000000
(1639737876.671688) can0 720#0227010000000000
(1639737876.674625) can0 720#072702415249414E
(1639737876.677332) can0 720#0227010000000000
(1639737876.679775) can0 728#037F272200000000
(1639737876.680721) can0 720#072702083061A4C5
(1639737876.683016) can0 720#0227010000000000
(1639737876.688487) can0 720#0727024A65737573
(1639737876.690447) can0 728#037F272200000000
(1639737876.692446) can0 720#0227010000000000
(1639737876.697868) can0 720#072702134B7CF35C
(1639737876.699674) can0 728#037F272200000000
(1639737876.703222) can0 720#0227010000000000
(1639737876.706909) can0 720#07270252454D4154
(1639737876.709705) can0 728#037F272200000000
(1639737876.710911) can0 720#0227010000000000
(1639737876.714145) can0 720#07270254414D4552
(1639737876.718086) can0 720#0227010000000000
(1639737876.720077) can0 728#037F272200000000
(1639737876.723379) can0 720#07270297627984EC
(1639737876.728474) can0 728#037F272200000000
(1639737876.737494) can0 720#0227010000000000
(1639737876.745388) can0 728#037F272200000000
(1639737876.753301) can0 720#0727024157544355
(1639737876.762447) can0 728#037F272200000000
(1639737876.770699) can0 720#0227010000000000
(1639737876.779448) can0 728#037F272200000000
(1639737876.785728) can0 720#07270208306155AA
(1639737876.787975) can0 728#037F272200000000
(1639737876.798960) can0 720#0227010000000000
(1639737876.805075) can0 728#037F272200000000
(1639737876.813140) can0 720#0727020824760111
(1639737876.822042) can0 728#037F272200000000
(1639737876.824579) can0 720#0227010000000000
(1639737876.828367) can0 720#07270241AA42BB43
(1639737876.831707) can0 728#037F272200000000
(1639737876.832672) can0 720#0227010000000000
(1639737876.835520) can0 720#0727023A6293D6F7
(1639737876.841424) can0 720#0227010000000000
(1639737876.842156) can0 728#037F272200000000
(1639737876.851247) can0 720#0727022E67CB8A30
(1639737876.854913) can0 720#0227010000000000
(1639737876.857701) can0 720#0727021223344556
(1639737876.861192) can0 720#0227010000000000
(1639737876.862154) can0 728#037F272200000000
(1639737876.864090) can0 720#072702ADD9A26775
(1639737876.868825) can0 720#0227010000000000
(1639737876.871684) can0 728#037F272200000000
(1639737876.872598) can0 720#072702AABBCCDDEE
(1639737876.875846) can0 720#0227010000000000
(1639737876.879120) can0 720#07270205B7062503
(1639737876.881663) can0 728#037F272200000000
(1639737876.882641) can0 720#0227010000000000
(1639737876.887506) can0 720#07270211410298E3
(1639737876.891956) can0 728#037F272200000000
(1639737876.895234) can0 720#0227010000000000
(1639737876.900244) can0 720#0727022D86C557A1
(1639737876.902237) can0 728#037F272200000000
(1639737876.904134) can0 720#0227010000000000
(1639737876.907525) can0 720#072702414953494E
(1639737876.911401) can0 720#0227010000000000
(1639737876.912352) can0 728#037F272200000000
(1639737876.915439) can0 720#07270261EBADC624
(1639737876.920390) can0 720#0227010000000000
(1639737876.922350) can0 728#037F272200000000
(1639737876.924417) can0 720#0727023F43EF74BE
(1639737876.930771) can0 728#037F272200000000
(1639737876.931585) can0 720#0227010000000000
(1639737876.939296) can0 728#037F272200000000
(1639737876.945810) can0 720#072702466E74634D
(1639737876.947854) can0 728#037F272200000000
(1639737876.963004) can0 720#0227010000000000
(1639737876.964925) can0 728#037F272200000000
(1639737876.978504) can0 720#0727024467AAF207
(1639737876.981984) can0 728#037F272200000000
(1639737876.993071) can0 720#0227010000000000
(1639737876.994566) can0 720#023E010000000000
(1639737876.998973) can0 728#037F272200000000
(1639737877.007540) can0 720#072702227B3F2377
(1639737877.016087) can0 728#037F272200000000
(1639737877.025204) can0 720#0227010000000000
(1639737877.033038) can0 728#037F272200000000
(1639737877.037969) can0 720#072702FE4228D3AD
(1639737877.041637) can0 728#037F272200000000
(1639737877.051342) can0 720#0227010000000000
(1639737877.058587) can0 728#037F272200000000
(1639737877.065932) can0 720#072702454D453153
(1639737877.067066) can0 728#037F272200000000
(1639737877.079776) can0 720#0227010000000000
(1639737877.084081) can0 728#037F272200000000
(1639737877.093679) can0 720#07270254524F4853
(1639737877.101126) can0 728#037F272200000000
(1639737877.108630) can0 720#0227010000000000
(1639737877.109644) can0 728#037F272200000000
(1639737877.119923) can0 720#072702CE0891A643
(1639737877.123592) can0 720#0227010000000000
(1639737877.126779) can0 720#072702341F3CFBC5
(1639737877.128239) can0 728#037F272200000000
(1639737877.131426) can0 720#0227010000000000
(1639737877.134920) can0 720#0727023149216327
(1639737877.139627) can0 728#037F272200000000
(1639737877.145289) can0 720#0227010000000000
(1639737877.148212) can0 728#037F272200000000
(1639737877.151778) can0 720#072702526F77616E
(1639737877.154844) can0 720#0227010000000000
(1639737877.158097) can0 728#037F272200000000
(1639737877.158992) can0 720#0727022468864204
(1639737877.162527) can0 720#0227010000000000
(1639737877.165971) can0 720#072702F732D73A12
(1639737877.168087) can0 728#037F272200000000
(1639737877.170045) can0 720#0227010000000000
(1639737877.175312) can0 720#072702F4791A60CB
(1639737877.178111) can0 728#037F272200000000
(1639737877.181147) can0 720#0227010000000000
(1639737877.185293) can0 720#0727025A3B514A35
(1639737877.188070) can0 728#037F272200000000
(1639737877.189061) can0 720#0227010000000000
(1639737877.193934) can0 720#0727022CD873A914
(1639737877.197211) can0 720#0227010000000000
(1639737877.198147) can0 728#037F272200000000
(1639737877.201920) can0 720#0727021617010815
(1639737877.204919) can0 720#0227010000000000
(1639737877.207691) can0 720#0727024452494654
(1639737877.208633) can0 728#037F272200000000
(1639737877.211099) can0 720#0227010000000000
(1639737877.214355) can0 720#072702C5A461A4A7
(1639737877.218110) can0 728#037F272200000000
(1639737877.219093) can0 720#0227010000000000
(1639737877.223747) can0 720#072702835507519A
(1639737877.228308) can0 728#037F272200000000
(1639737877.229257) can0 720#0227010000000000
(1639737877.237012) can0 728#037F272200000000
(1639737877.240721) can0 720#07270208305561AA
(1639737877.245605) can0 728#037F272200000000
(1639737877.255923) can0 720#0227010000000000
(1639737877.263179) can0 728#037F272200000000
(1639737877.273187) can0 720#07270248415A454C
(1639737877.279619) can0 728#037F272200000000
(1639737877.290335) can0 720#0227010000000000
(1639737877.296618) can0 728#037F272200000000
(1639737877.305210) can0 720#0727027D2D200578
(1639737877.313747) can0 728#037F272200000000
(1639737877.320324) can0 720#0227010000000000
(1639737877.322167) can0 728#037F272200000000
(1639737877.339734) can0 720#0727022431DEF946
(1639737877.347742) can0 728#037F272200000000
(1639737877.353810) can0 720#0227010000000000
(1639737877.356237) can0 728#037F272200000000
(1639737877.368064) can0 720#0727020123456789
(1639737877.373295) can0 728#037F272200000000
(1639737877.383647) can0 720#0227010000000000
(1639737877.390300) can0 728#037F272200000000
(1639737877.398636) can0 720#072702A3B2C01492
(1639737877.407398) can0 728#037F272200000000
(1639737877.415173) can0 720#0227010000000000
(1639737877.424454) can0 728#037F272200000000
(1639737877.431717) can0 720#072702CB41122871
(1639737877.433362) can0 728#037F272200000000
(1639737877.435056) can0 720#023E010000000000
(1639737877.441450) can0 728#017E000000000000
(1639737877.449530) can0 720#0227010000000000
(1639737877.458543) can0 728#037F272200000000
(1639737877.465213) can0 720#072702C414021105
(1639737877.466985) can0 728#037F272200000000
(1639737877.472061) can0 720#0227010000000000
(1639737877.475648) can0 720#0727021E08171B72
(1639737877.476792) can0 728#037F272200000000
(1639737877.479195) can0 720#0227010000000000
(1639737877.483120) can0 720#0727020109FF1964
(1639737877.487138) can0 728#037F272200000000
(1639737877.488564) can0 720#0227010000000000
(1639737877.496857) can0 728#037F272200000000
(1639737877.498148) can0 720#072702151F521F7F
(1639737877.502255) can0 720#0227010000000000
(1639737877.505613) can0 720#0727020C04491562
(1639737877.506778) can0 728#037F272200000000
(1639737877.509012) can0 720#0227010000000000
(1639737877.512852) can0 720#0727021C27507677
(1639737877.516778) can0 728#037F272200000000
(1639737877.517739) can0 720#0227010000000000
(1639737877.520518) can0 720#0727020168A478A1
(1639737877.524187) can0 720#0227010000000000
(1639737877.527140) can0 728#037F272200000000
(1639737877.529108) can0 720#07270257A2F7C349
(1639737877.532441) can0 720#0227010000000000
(1639737877.536919) can0 728#037F272200000000
(1639737877.540541) can0 720#072702167E04CFF5
(1639737877.544955) can0 720#0227010000000000
(1639737877.546732) can0 728#037F272200000000
(1639737877.548894) can0 720#0727020000000000
(1639737877.554626) can0 720#0227010000000000
(1639737877.556382) can0 720#0727020000000000
(1639737877.557344) can0 728#037F272200000000
(1639737877.563643) can0 720#0227010000000000
(1639737877.566957) can0 728#037F272200000000
(1639737877.567901) can0 720#0727020000000000
(1639737877.576050) can0 728#037F272200000000
(1639737877.583634) can0 720#0227010000000000
(1639737877.584674) can0 728#037F272200000000
(1639737877.596375) can0 720#0727020000000000
(1639737877.601606) can0 728#037F272200000000
(1639737877.618624) can0 720#0227010000000000
(1639737877.624799) can0 720#0727020000000000
(1639737877.627769) can0 720#0227010000000000
(1639737877.628801) can0 728#037F272200000000
(1639737877.631870) can0 720#0727020000000000
(1639737877.635709) can0 720#0227010000000000
(1639737877.638711) can0 728#037F272200000000
(1639737877.639735) can0 720#0727020000000000
(1639737877.644610) can0 720#0227010000000000
(1639737877.646734) can0 720#0727020000000000
(1639737877.648745) can0 728#037F272200000000
(1639737877.650929) can0 720#0227010000000000
(1639737877.654578) can0 720#0727020000000000
(1639737877.658846) can0 728#037F272200000000
(1639737877.661130) can0 720#0227010000000000
(1639737877.667283) can0 720#0727020000000000
(1639737877.668228) can0 728#037F272200000000
(1639737877.681464) can0 720#0227010000000000
(1639737877.685312) can0 728#037F272200000000
(1639737877.699790) can0 720#0727020000000000
(1639737877.702339) can0 728#037F272200000000
(1639737877.711598) can0 720#0227010000000000
(1639737877.719339) can0 728#037F272200000000
(1639737877.727443) can0 720#0727020000000000
(1639737877.736402) can0 728#037F272200000000
(1639737877.741439) can0 720#0227010000000000
(1639737877.744942) can0 728#037F272200000000
(1639737877.754496) can0 720#0727020000000000
(1639737877.762058) can0 728#037F272200000000
(1639737877.770264) can0 720#0227010000000000
(1639737877.778973) can0 728#037F272200000000
(1639737877.785545) can0 720#0727020000000000
(1639737877.787500) can0 728#037F272200000000
(1639737877.800012) can0 720#023E010000000000
(1639737877.801673) can0 720#0227010000000000
(1639737877.804568) can0 728#017E000000000000
(1639737877.816001) can0 720#07270219AC3A1CC2
(1639737877.821598) can0 728#037F272200000000
(1639737877.830820) can0 720#0227010000000000
(1639737877.838657) can0 728#037F272200000000
(1639737877.846859) can0 720#0727023A8ECF9CCE
(1639737877.848554) can0 728#037F272200000000
(1639737877.854475) can0 720#0227010000000000
(1639737877.857728) can0 720#0727026577780412
(1639737877.858655) can0 728#037F272200000000
(1639737877.860850) can0 720#0227010000000000
(1639737877.864636) can0 720#0727023F3A2F2101
(1639737877.868350) can0 728#037F272200000000
(1639737877.869368) can0 720#0227010000000000
(1639737877.872744) can0 720#072702F8A95F1D01
(1639737877.876651) can0 720#0227010000000000
(1639737877.878395) can0 728#037F272200000000
(1639737877.882062) can0 720#07270235E7FA6DD1
(1639737877.888041) can0 720#0227010000000000
(1639737877.888984) can0 728#037F272200000000
(1639737877.896120) can0 720#0727020A6DC13B20
(1639737877.898380) can0 728#037F272200000000
(1639737877.900224) can0 720#0227010000000000
(1639737877.903010) can0 720#07270222A16051A9
(1639737877.906559) can0 720#0227010000000000
(1639737877.908423) can0 728#037F272200000000
(1639737877.911003) can0 720#0727020D5ADBDFCA
(1639737877.914754) can0 720#0227010000000000
(1639737877.918431) can0 728#037F272200000000
(1639737877.920898) can0 720#0727029F754B3B87
(1639737877.926750) can0 720#0227010000000000
(1639737877.928645) can0 728#037F272200000000
(1639737877.932549) can0 720#072702225FB4AC54
(1639737877.936260) can0 720#0227010000000000
(1639737877.938466) can0 728#037F272200000000
(1639737877.939818) can0 720#072702F4310FB252
(1639737877.943361) can0 720#0227010000000000
(1639737877.947867) can0 728#037F272200000000
(1639737877.953089) can0 720#0727022964B272C2
(1639737877.956341) can0 728#037F272200000000
(1639737877.968577) can0 720#0227010000000000
(1639737877.973437) can0 728#037F272200000000
(1639737877.983423) can0 720#072702F83912960E
(1639737877.991111) can0 728#037F272200000000
(1639737878.002811) can0 720#0227010000000000
(1639737878.007418) can0 728#037F272200000000
(1639737878.016684) can0 720#07270241AA42BB43
(1639737878.024490) can0 728#037F272200000000
(1639737878.031572) can0 720#0227010000000000
(1639737878.033256) can0 728#037F272200000000
(1639737878.039970) can0 720#07270241AA42BB43
(1639737878.043098) can0 728#037F272200000000
(1639737878.046779) can0 720#0227010000000000
(1639737878.050088) can0 720#072702AA5A35BED4
(1639737878.053100) can0 728#037F272200000000
(1639737878.054088) can0 720#0227010000000000
(1639737878.056162) can0 720#07270296A23B839B
(1639737878.061074) can0 720#0227010000000000
(1639737878.063133) can0 728#037F272200000000
(1639737878.064880) can0 720#072702C89B10488D
(1639737878.068948) can0 720#0227010000000000
(1639737878.071476) can0 720#07270275B156834A
(1639737878.073119) can0 728#037F272200000000
(1639737878.074642) can0 720#0227010000000000
(1639737878.080215) can0 720#0727029F754B3B87
(1639737878.083223) can0 728#037F272200000000
(1639737878.087505) can0 720#0227010000000000
(1639737878.091738) can0 720#072702488729889D
(1639737878.093098) can0 728#037F272200000000
(1639737878.095618) can0 720#0227010000000000
(1639737878.099933) can0 720#0727025E18BF9B75
(1639737878.103107) can0 728#037F272200000000
(1639737878.104094) can0 720#0227010000000000
(1639737878.107934) can0 720#072702A6379E8434
(1639737878.111881) can0 720#0227010000000000
(1639737878.113048) can0 728#037F272200000000
(1639737878.124649) can0 720#072702114D8775AF
(1639737878.130289) can0 728#037F272200000000
(1639737878.141179) can0 720#0227010000000000
(1639737878.147134) can0 728#037F272200000000
(1639737878.156405) can0 720#0727020EAA0BA016
(1639737878.164392) can0 728#037F272200000000
(1639737878.171914) can0 720#0227010000000000
(1639737878.181197) can0 728#037F272200000000
(1639737878.186170) can0 720#072702F51E1487C0
(1639737878.189755) can0 728#037F272200000000
(1639737878.204012) can0 720#0227010000000000
(1639737878.206765) can0 728#037F272200000000
(1639737878.218817) can0 720#0727021CF000C10A
(1639737878.223862) can0 728#037F272200000000
(1639737878.232585) can0 720#0227010000000000
(1639737878.240881) can0 728#037F272200000000
(1639737878.250560) can0 720#07270258053E459C
(1639737878.257850) can0 728#037F272200000000
(1639737878.266363) can0 720#0227010000000000
(1639737878.274947) can0 728#037F272200000000
(1639737878.283383) can0 720#0727026AA568565E
(1639737878.292489) can0 728#037F272200000000
(1639737878.296950) can0 720#0227010000000000
(1639737878.300588) can0 728#037F272200000000
(1639737878.310915) can0 720#07270242434D5932
(1639737878.317557) can0 728#037F272200000000
(1639737878.326847) can0 720#0227010000000000
(1639737878.334636) can0 728#037F272200000000
(1639737878.341092) can0 720#0727024555434431
(1639737878.343052) can0 728#037F272200000000
(1639737878.358513) can0 720#0227010000000000
(1639737878.360089) can0 728#037F272200000000
(1639737878.372177) can0 720#0727024555434431
(1639737878.377164) can0 728#037F272200000000
(1639737878.385568) can0 720#0227010000000000
(1639737878.394236) can0 728#037F272200000000
(1639737878.398954) can0 720#0727028899966A5C
(1639737878.402739) can0 728#037F272200000000
(1639737878.413980) can0 720#0227010000000000
(1639737878.419814) can0 728#037F272200000000
(1639737878.426955) can0 720#07270298976877AA
(1639737878.428244) can0 728#037F272200000000
(1639737878.443397) can0 720#0227010000000000
(1639737878.445282) can0 728#037F272200000000
(1639737878.458936) can0 720#07270296A23B839B
(1639737878.462366) can0 728#037F272200000000
(1639737878.474634) can0 720#0227010000000000
(1639737878.479376) can0 728#037F272200000000
(1639737878.489787) can0 720#072702DCD5447AE6
(1639737878.496505) can0 728#037F272200000000
(1639737878.503043) can0 720#0227010000000000
(1639737878.504915) can0 728#037F272200000000
(1639737878.519516) can0 720#072702DCD5447AE6
(1639737878.521940) can0 728#037F272200000000
(1639737878.532889) can0 720#0227010000000000
(1639737878.538968) can0 728#037F272200000000
(1639737878.548047) can0 720#07270208306155AA
(1639737878.556152) can0 728#037F272200000000
(1639737878.561602) can0 720#0227010000000000
(1639737878.564584) can0 728#037F272200000000
(1639737878.574692) can0 720#07270208306155AA
(1639737878.581570) can0 728#037F272200000000
(1639737878.588726) can0 720#0227010000000000
(1639737878.590088) can0 728#037F272200000000
(1639737878.603894) can0 720#072702544F424245
(1639737878.607181) can0 728#037F272200000000
(1639737878.617838) can0 720#0227010000000000
(1639737878.626007) can0 728#037F272200000000
(1639737878.631215) can0 720#072702544F424245
(1639737878.634832) can0 728#037F272200000000
(1639737878.639066) can0 720#0227010000000000
(1639737878.642326) can0 720#072702485354434D
(1639737878.644564) can0 728#037F272200000000
(1639737878.645627) can0 720#0227010000000000
(1639737878.649627) can0 720#072702485354434D
(1639737878.653618) can0 720#0227010000000000
(1639737878.654581) can0 728#037F272200000000
(1639737878.656908) can0 720#0727021F1A4F3EE6
(1639737878.660517) can0 720#0227010000000000
(1639737878.663963) can0 728#037F272200000000
(1639737878.675377) can0 720#0727021F1A4F3EE6
(1639737878.681042) can0 728#037F272200000000
(1639737878.688918) can0 720#0227010000000000
(1639737878.698922) can0 728#037F272200000000
(1639737878.703085) can0 720#07270241AA42BB43
(1639737878.706661) can0 728#037F272200000000
(1639737878.717431) can0 720#0227010000000000
(1639737878.723627) can0 728#037F272200000000
(1639737878.733036) can0 720#07270241AA42BB43
(1639737878.740666) can0 728#037F272200000000
(1639737878.746252) can0 720#0227010000000000
(1639737878.749182) can0 728#037F272200000000
(1639737878.760724) can0 720#0727021524334251
(1639737878.766220) can0 728#037F272200000000
(1639737878.774159) can0 720#0227010000000000
(1639737878.783234) can0 728#037F272200000000
(1639737878.788142) can0 720#0727021524334251
(1639737878.791892) can0 728#037F272200000000
(1639737878.803399) can0 720#0227010000000000
(1639737878.808832) can0 728#037F272200000000
(1639737878.817327) can0 720#0727020123456789
(1639737878.825864) can0 728#037F272200000000
(1639737878.833607) can0 720#0227010000000000
(1639737878.843757) can0 728#037F272200000000
(1639737878.844630) can0 720#07270218AE784AD2
(1639737878.849801) can0 720#0227010000000000
(1639737878.852981) can0 720#0727024555434431
(1639737878.853975) can0 728#037F272200000000
(1639737878.857098) can0 720#0227010000000000
(1639737878.860998) can0 720#0727024555434431
(1639737878.863947) can0 728#037F272200000000
(1639737878.865855) can0 720#0227010000000000
(1639737878.871692) can0 720#072702C9EA84CB10
(1639737878.873681) can0 728#037F272200000000
(1639737878.877956) can0 720#0227010000000000
(1639737878.883679) can0 728#037F272200000000
(1639737878.884603) can0 720#0727022592CA3429
(1639737878.887688) can0 720#0227010000000000
(1639737878.890544) can0 720#072702536798B3A4
(1639737878.893723) can0 728#037F272200000000
(1639737878.894703) can0 720#0227010000000000
(1639737878.897713) can0 720#07270208306155AA
(1639737878.901326) can0 720#0227010000000000
(1639737878.903720) can0 728#037F272200000000
(1639737878.905532) can0 720#07270208306155AA
(1639737878.911027) can0 720#0227010000000000
(1639737878.914190) can0 728#037F272200000000
(1639737878.921672) can0 720#072702FA6B5A7047
(1639737878.923715) can0 728#037F272200000000
(1639737878.924684) can0 720#0227010000000000
(1639737878.927248) can0 720#07270208306155AA
(1639737878.930784) can0 720#0227010000000000
(1639737878.933685) can0 728#037F272200000000
(1639737878.934689) can0 720#0727020000000000
(1639737878.938449) can0 720#0227010000000000
(1639737878.943027) can0 728#037F272200000000
(1639737878.948890) can0 720#072702FFFFFFFFFF
(1639737878.951588) can0 728#037F272200000000
(1639737878.963063) can0 720#0227010000000000
(1639737878.968683) can0 728#037F272200000000
(1639737878.977515) can0 720#072702AC031489E3
(1639737878.985629) can0 728#037F272200000000
(1639737878.993715) can0 720#023E010000000000
(1639737878.995218) can0 720#0227010000000000
(1639737879.002841) can0 728#017E000000000000
(1639737879.008186) can0 720#072702ACF72992E1
(1639737879.011235) can0 728#037F272200000000
(1639737879.023572) can0 720#0227010000000000
(1639737879.028448) can0 728#037F272200000000
(1639737879.038432) can0 720#07270208306155AA
(1639737879.045503) can0 728#037F272200000000
(1639737879.053033) can0 720#0227010000000000
(1639737879.062306) can0 728#037F272200000000
(1639737879.066364) can0 720#072702DD161A48AF
(1639737879.070857) can0 728#037F272200000000
(1639737879.080933) can0 720#0227010000000000
(1639737879.087983) can0 728#037F272200000000
(1639737879.093966) can0 720#0727024976666552
(1639737879.096411) can0 728#037F272200000000
(1639737879.120473) can0 720#0227010000000000
(1639737879.121895) can0 728#037F272200000000
(1639737879.136341) can0 720#0727020828211663
(1639737879.139753) can0 728#037F272200000000
(1639737879.152540) can0 720#0227010000000000
(1639737879.156044) can0 728#037F272200000000
(1639737879.166182) can0 720#0727020A160407B6
(1639737879.173145) can0 728#037F272200000000
(1639737879.180242) can0 720#0227010000000000
(1639737879.181563) can0 728#037F272200000000
(1639737879.195829) can0 720#0727021B44144D24
(1639737879.198616) can0 728#037F272200000000
(1639737879.209132) can0 720#0227010000000000
(1639737879.215582) can0 728#037F272200000000
(1639737879.226240) can0 720#0727022205120906
(1639737879.232670) can0 728#037F272200000000
(1639737879.242186) can0 720#0227010000000000
(1639737879.249687) can0 728#037F272200000000
(1639737879.256309) can0 720#0727024151268411
(1639737879.258368) can0 728#037F272200000000
(1639737879.271788) can0 720#0227010000000000
(1639737879.275295) can0 728#037F272200000000
(1639737879.285713) can0 720#0727024812A6D57B
(1639737879.290611) can0 720#0227010000000000
(1639737879.293161) can0 728#037F272200000000
(1639737879.294072) can0 720#0727024A36314346
(1639737879.301062) can0 720#0227010000000000
(1639737879.303206) can0 728#037F272200000000
(1639737879.309574) can0 720#0727024E53594E53
(1639737879.313101) can0 728#037F272200000000
(1639737879.315175) can0 720#0227010000000000
(1639737879.318932) can0 720#0727025061446D41
(1639737879.321624) can0 720#0227010000000000
(1639737879.323153) can0 728#037F272200000000
(1639737879.325757) can0 720#0727025F9C99A350
(1639737879.331576) can0 720#0227010000000000
(1639737879.332717) can0 720#0727026A5568515E
(1639737879.333691) can0 728#037F272200000000
(1639737879.337141) can0 720#0227010000000000
(1639737879.340696) can0 720#0727026E6F776152
(1639737879.343094) can0 728#037F272200000000
(1639737879.344102) can0 720#0227010000000000
(1639737879.347194) can0 720#072702886D91757D
(1639737879.352491) can0 720#0227010000000000
(1639737879.353502) can0 728#037F272200000000
(1639737879.357723) can0 720#072702D8415D77A5
(1639737879.362797) can0 720#0227010000000000
(1639737879.363749) can0 728#037F272200000000
(1639737879.366591) can0 720#0727024C7570696E
(1639737879.370444) can0 720#0227010000000000
(1639737879.373888) can0 728#037F272200000000
(1639737879.381926) can0 720#0727028C00000000
(1639737879.383154) can0 728#037F272200000000
(1639737879.386904) can0 720#0227010000000000
(1639737879.391938) can0 720#0727028C54F80BD7
(1639737879.392756) can0 728#037F272200000000
(1639737879.404568) can0 720#0227010000000000
(1639737879.409623) can0 728#037F272200000000
(1639737879.421531) can0 720#07270253484F5741
(1639737879.426704) can0 728#037F272200000000
(1639737879.435158) can0 720#023E010000000000
(1639737879.436628) can0 720#0227010000000000
(1639737879.443859) can0 728#017E000000000000
(1639737879.451830) can0 720#0727024776666552
(1639737879.460808) can0 728#037F272200000000
(1639737879.467383) can0 720#0227010000000000
(1639737879.469249) can0 728#037F272200000000
(1639737879.481410) can0 720#072702268CB471EE
(1639737879.486305) can0 728#037F272200000000
(1639737879.496591) can0 720#0227010000000000
(1639737879.503344) can0 728#037F272200000000
(1639737879.510988) can0 720#072702AB7DD1D271
(1639737879.520361) can0 728#037F272200000000
(1639737879.523676) can0 720#0227010000000000
(1639737879.529024) can0 728#037F272200000000
(1639737879.540009) can0 720#0727028CF5A519EE
(1639737879.545921) can0 728#037F272200000000
(1639737879.554502) can0 720#0227010000000000
(1639737879.562981) can0 728#037F272200000000
(1639737879.567089) can0 720#0727026969B653A1
(1639737879.572093) can0 728#037F272200000000
(1639737879.585509) can0 720#0227010000000000
(1639737879.588726) can0 728#037F272200000000
(1639737879.598388) can0 720#0727024C4341424C
(1639737879.605564) can0 728#037F272200000000
(1639737879.621394) can0 720#0227010000000000
(1639737879.622618) can0 728#037F272200000000
(1639737879.628782) can0 720#072702268145297D
(1639737879.632363) can0 720#0227010000000000
(1639737879.633382) can0 728#037F272200000000
(1639737879.636544) can0 720#072702288145297D
(1639737879.641057) can0 720#0227010000000000
(1639737879.642500) can0 728#037F272200000000
(1639737879.643665) can0 720#072702DACCCB6EB3
(1639737879.647133) can0 720#0227010000000000
(1639737879.650733) can0 720#072702434F4C494E
(1639737879.652513) can0 728#037F272200000000
(1639737879.655130) can0 720#0227010000000000
(1639737879.661520) can0 728#037F272200000000
(1639737879.670066) can0 720#07270216B9137770
(1639737879.678589) can0 728#037F272200000000
(1639737879.686340) can0 720#0227010000000000
(1639737879.695588) can0 728#037F272200000000
(1639737879.700951) can0 720#0727024D48657179
(1639737879.704151) can0 728#037F272200000000
(1639737879.716437) can0 720#0227010000000000
(1639737879.721078) can0 728#037F272200000000
(1639737879.730122) can0 720#0727026248C5A25F
(1639737879.738111) can0 728#037F272200000000
(1639737879.744115) can0 720#0227010000000000
(1639737879.747988) can0 728#037F272200000000
(1639737879.749903) can0 720#0727025A89E44172
(1639737879.756650) can0 720#0227010000000000
(1639737879.758565) can0 720#0727024272616457
(1639737879.760426) can0 728#037F272200000000
(1639737879.766287) can0 720#0227010000000000
(1639737879.767404) can0 720#0727024A616E6973
(1639737879.768604) can0 720#0227010000000000
(1639737879.771210) can0 720#0727028A789034F7
(1639737879.774188) can0 720#0227010000000000
(1639737879.777259) can0 728#037F272200000000
(1639737879.778166) can0 720#07270250C86A49F1
(1639737879.780580) can0 720#0227010000000000
(1639737879.783262) can0 720#0727020225197707
(1639737879.787258) can0 728#037F272200000000
(1639737879.788243) can0 720#0227010000000000
(1639737879.794745) can0 720#0727020102030405
(1639737879.797373) can0 728#037F272200000000
(1639737879.799575) can0 720#0227010000000000
(1639737879.800776) can0 720#023E010000000000
(1639737879.803586) can0 720#0727022487647032
(1639737879.806768) can0 720#0227010000000000
(1639737879.807751) can0 728#037F272200000000
(1639737879.810493) can0 720#0727022487646585
(1639737879.813314) can0 720#0227010000000000
(1639737879.816975) can0 720#07270261422B5464
(1639737879.817923) can0 728#037F272200000000
(1639737879.821775) can0 720#0227010000000000
(1639737879.825186) can0 720#07270216652CEABE
(1639737879.827281) can0 728#037F272200000000
(1639737879.832046) can0 720#0227010000000000
(1639737879.837242) can0 728#037F272200000000
(1639737879.838152) can0 720#0727028C4AD21F2E
(1639737879.841858) can0 720#0227010000000000
(1639737879.846778) can0 728#037F272200000000
(1639737879.850616) can0 720#072702DC400A5923
(1639737879.855352) can0 728#037F272200000000
(1639737879.865127) can0 720#0227010000000000
(1639737879.872374) can0 728#037F272200000000
(1639737879.878816) can0 720#072702839EE212E0
(1639737879.880910) can0 728#037F272200000000
(1639737879.895075) can0 720#0227010000000000
(1639737879.897946) can0 728#037F272200000000
(1639737879.912682) can0 720#072702464D433031
(1639737879.914919) can0 728#037F272200000000
(1639737879.927562) can0 720#0227010000000000
(1639737879.931973) can0 728#037F272200000000
(1639737879.935019) can0 720#072702C1B0CAD01A
(1639737879.938948) can0 720#0227010000000000
(1639737879.942186) can0 728#037F272200000000
(1639737879.949799) can0 720#07270238078A63C1
(1639737879.951923) can0 728#037F272200000000
(1639737879.954827) can0 720#0227010000000000
(1639737879.957800) can0 720#072702B83F247FFF
(1639737879.960890) can0 720#0227010000000000
(1639737879.961974) can0 728#037F272200000000
(1639737879.963947) can0 720#072702534B6521AD
(1639737879.968405) can0 720#0227010000000000
(1639737879.971868) can0 720#07270227A12B1983
(1639737879.972819) can0 728#037F272200000000
(1639737879.975468) can0 720#0227010000000000
(1639737879.978679) can0 720#07270284660862AB
(1639737879.981258) can0 720#0227010000000000
(1639737879.982224) can0 728#037F272200000000
(1639737879.984475) can0 720#072702A31307047D
(1639737879.991677) can0 720#0227010000000000
(1639737879.992884) can0 728#037F272200000000
(1639737879.999123) can0 720#0727026456364CA7
(1639737880.001929) can0 728#037F272200000000
(1639737880.002917) can0 720#0227010000000000
(1639737880.005893) can0 720#0727021122334455
(1639737880.009995) can0 720#0227010000000000
(1639737880.011962) can0 728#037F272200000000
(1639737880.013396) can0 720#0727020000000000
(1639737880.017725) can0 720#0227010000000000
(1639737880.020523) can0 720#072702836ACF361B
(1639737880.021930) can0 728#037F272200000000
(1639737880.023733) can0 720#0227010000000000
(1639737880.029488) can0 720#07270203D6B5D76F
(1639737880.032101) can0 728#037F272200000000
(1639737880.041833) can0 720#0227010000000000
(1639737880.049170) can0 728#037F272200000000
(1639737880.056653) can0 720#0727028C020D045F
(1639737880.057678) can0 728#037F272200000000
(1639737880.073500) can0 720#0227010000000000
(1639737880.074857) can0 728#037F272200000000
(1639737880.087907) can0 720#072702984B9408E7
(1639737880.091828) can0 728#037F272200000000
(1639737880.103163) can0 720#0227010000000000
(1639737880.108847) can0 728#037F272200000000
(1639737880.119902) can0 720#07270208036155AA
(1639737880.125862) can0 728#037F272200000000
(1639737880.135602) can0 720#0227010000000000
(1639737880.142862) can0 728#037F272200000000
(1639737880.152308) can0 720#072702624B9408E7
(1639737880.160039) can0 728#037F272200000000
(1639737880.167081) can0 720#0227010000000000
(1639737880.168544) can0 728#037F272200000000
(1639737880.181857) can0 720#072702882A7B9336
(1639737880.185513) can0 728#037F272200000000
(1639737880.196420) can0 720#0227010000000000
(1639737880.202654) can0 728#037F272200000000
(1639737880.209742) can0 720#072702DF3A1469C2
(1639737880.211009) can0 728#037F272200000000
(1639737880.221945) can0 720#0227010000000000
(1639737880.228070) can0 728#037F272200000000
(1639737880.235494) can0 720#0727020406070409
(1639737880.236577) can0 728#037F272200000000
(1639737880.247869) can0 720#0227010000000000
(1639737880.253601) can0 728#037F272200000000
(1639737880.260367) can0 720#072702053C703A75
(1639737880.262158) can0 728#037F272200000000
(1639737880.273938) can0 720#0227010000000000
(1639737880.279161) can0 728#037F272200000000
(1639737880.286922) can0 720#072702E184BE2329
(1639737880.296243) can0 728#037F272200000000
(1639737880.299959) can0 720#0227010000000000
(1639737880.304736) can0 728#037F272200000000
(1639737880.314357) can0 720#072702A3C1E41989
(1639737880.321769) can0 728#037F272200000000
(1639737880.326766) can0 720#0227010000000000
(1639737880.330420) can0 728#037F272200000000
(1639737880.340340) can0 720#072702715521A55E
(1639737880.347405) can0 728#037F272200000000
(1639737880.352880) can0 720#0227010000000000
(1639737880.355928) can0 728#037F272200000000
(1639737880.364962) can0 720#072702869A784D90
(1639737880.372878) can0 728#037F272200000000
(1639737880.378417) can0 720#0227010000000000
(1639737880.381453) can0 728#037F272200000000
(1639737880.392447) can0 720#0727027155215EA5
(1639737880.398520) can0 728#037F272200000000
(1639737880.405559) can0 720#0227010000000000
(1639737880.406941) can0 728#037F272200000000
(1639737880.419412) can0 720#07270271552141C2
(1639737880.424030) can0 728#037F272200000000
(1639737880.433412) can0 720#0227010000000000
(1639737880.441018) can0 728#037F272200000000
(1639737880.448194) can0 720#07270242D36E34CE
(1639737880.449532) can0 728#037F272200000000
(1639737880.463515) can0 720#0227010000000000
(1639737880.466930) can0 728#037F272200000000
(1639737880.478506) can0 720#07270242DD6E34CE
(1639737880.483652) can0 728#037F272200000000
(1639737880.493313) can0 720#0227010000000000
(1639737880.500758) can0 728#037F272200000000
(1639737880.508496) can0 720#072702835707339A
(1639737880.517672) can0 728#037F272200000000
(1639737880.523511) can0 720#0227010000000000
(1639737880.526276) can0 728#037F272200000000
(1639737880.537872) can0 720#072702882A7B9354
(1639737880.543290) can0 728#037F272200000000
(1639737880.551647) can0 720#0227010000000000
(1639737880.560291) can0 728#037F272200000000
(1639737880.565260) can0 720#07270213F129B301
(1639737880.568868) can0 728#037F272200000000
(1639737880.580373) can0 720#0227010000000000
(1639737880.585948) can0 728#037F272200000000
(1639737880.593357) can0 720#0727025B4174657D
(1639737880.594437) can0 728#037F272200000000
(1639737880.608632) can0 720#0227010000000000
(1639737880.611432) can0 728#037F272200000000
(1639737880.623551) can0 720#07270250C86A49F2
(1639737880.629752) can0 728#037F272200000000
(1639737880.631701) can0 720#0227010000000000
(1639737880.636591) can0 720#072702A7C2E91992
(1639737880.639521) can0 720#0227010000000000
(1639737880.641470) can0 728#037F272200000000
(1639737880.643328) can0 720#072702A7C2E92C7A
(1639737880.648183) can0 720#0227010000000000
(1639737880.649284) can0 728#037F272200000000
(1639737880.657500) can0 720#07270244DD45EE46
(1639737880.666223) can0 728#037F272200000000
(1639737880.671220) can0 720#0227010000000000
(1639737880.674817) can0 728#037F272200000000
(1639737880.685403) can0 720#072702204AFE9C2D
(1639737880.691765) can0 728#037F272200000000
(1639737880.698993) can0 720#0227010000000000
(1639737880.700236) can0 728#037F272200000000
(1639737880.714207) can0 720#0727023163466648
(1639737880.717316) can0 728#037F272200000000
(1639737880.728319) can0 720#0227010000000000
(1639737880.734391) can0 728#037F272200000000
(1639737880.740094) can0 720#072702E9D4A11201
(1639737880.744065) can0 728#037F272200000000
(1639737880.749092) can0 720#0227010000000000
(1639737880.753470) can0 720#072702426F736368
(1639737880.754382) can0 728#037F272200000000
(1639737880.757241) can0 720#0227010000000000
(1639737880.760706) can0 720#07270237E1A215C8
(1639737880.763976) can0 728#037F272200000000
(1639737880.764962) can0 720#0227010000000000
(1639737880.768399) can0 720#0727026BA7430A71
(1639737880.772295) can0 720#0227010000000000
(1639737880.773827) can0 728#037F272200000000
(1639737880.778169) can0 720#072702162738495A
(1639737880.784029) can0 728#037F272200000000
(1639737880.784827) can0 720#0227010000000000
(1639737880.792190) can0 720#0727026F6E696268
(1639737880.793816) can0 728#037F272200000000
(1639737880.795123) can0 720#0227010000000000
(1639737880.798666) can0 720#072702626861776E
(1639737880.802896) can0 720#0227010000000000
(1639737880.803878) can0 728#037F272200000000
(1639737880.807041) can0 720#072702615F626164
(1639737880.812028) can0 720#0227010000000000
(1639737880.813835) can0 728#037F272200000000
(1639737880.817730) can0 720#0727025CEB117B30
(1639737880.823328) can0 720#0227010000000000
(1639737880.824224) can0 728#037F272200000000
(1639737880.828542) can0 720#072702001D460F63
(1639737880.832189) can0 720#0227010000000000
(1639737880.833817) can0 728#037F272200000000
(1639737880.836086) can0 720#0727027118A56868
(1639737880.839744) can0 720#0227010000000000
(1639737880.843307) can0 728#037F272200000000
(1639737880.852663) can0 720#072702C8B2E39E76
(1639737880.860375) can0 728#037F272200000000
(1639737880.868039) can0 720#0227010000000000
(1639737880.877314) can0 728#037F272200000000
(1639737880.884838) can0 720#072702FD4C9281ED
(1639737880.885887) can0 728#037F272200000000
(1639737880.897753) can0 720#0227010000000000
(1639737880.902949) can0 728#037F272200000000
(1639737880.912844) can0 720#0727027118416968
(1639737880.919928) can0 728#037F272200000000
(1639737880.927451) can0 720#0227010000000000
(1639737880.928630) can0 728#037F272200000000
(1639737880.943229) can0 720#0727023F375F2259
(1639737880.945591) can0 728#037F272200000000
(1639737880.956309) can0 720#0227010000000000
(1639737880.962506) can0 728#037F272200000000
(1639737880.972085) can0 720#0727024E8AE2CAD8
(1639737880.979574) can0 728#037F272200000000
(1639737880.987632) can0 720#0227010000000000
(1639737880.994316) can0 720#023E010000000000
(1639737880.996833) can0 728#037F272200000000
(1639737881.005513) can0 720#0727026538743631
(1639737881.014118) can0 728#037F272200000000
(1639737881.021379) can0 720#0227010000000000
(1639737881.030774) can0 728#037F272200000000
(1639737881.034909) can0 720#072702B6451777D3
(1639737881.039239) can0 728#037F272200000000
(1639737881.048934) can0 720#0227010000000000
(1639737881.056213) can0 728#037F272200000000
(1639737881.064131) can0 720#07270221A4396C04
(1639737881.073604) can0 728#037F272200000000
(1639737881.080069) can0 720#0227010000000000
(1639737881.081766) can0 728#037F272200000000
(1639737881.098109) can0 720#0727020A1E0514C2
(1639737881.105263) can0 720#0227010000000000
(1639737881.108398) can0 728#037F272200000000
(1639737881.109256) can0 720#0727027C70D030C1
(1639737881.112271) can0 720#0227010000000000
(1639737881.116256) can0 720#072702636F6E7469
(1639737881.118469) can0 728#037F272200000000
(1639737881.120596) can0 720#0227010000000000
(1639737881.128579) can0 728#037F272200000000
(1639737881.133576) can0 720#0727026BA7240A71
(1639737881.137377) can0 720#0227010000000000
(1639737881.138405) can0 728#037F272200000000
(1639737881.140777) can0 720#0727021A2B3C4D5E
(1639737881.144423) can0 720#0227010000000000
(1639737881.147670) can0 720#072702F311454C73
(1639737881.148622) can0 728#037F272200000000
(1639737881.151104) can0 720#0227010000000000
(1639737881.154212) can0 720#0727021746CEB435
(1639737881.157481) can0 720#0227010000000000
(1639737881.158402) can0 728#037F272200000000
(1639737881.168627) can0 720#0727029A78563412
(1639737881.175603) can0 720#0227010000000000
(1639737881.178352) can0 728#037F272200000000
(1639737881.179258) can0 720#07270276AB510945
(1639737881.181959) can0 720#0227010000000000
(1639737881.185712) can0 720#0727023423391177
(1639737881.188396) can0 728#037F272200000000
(1639737881.189697) can0 720#0227010000000000
(1639737881.193104) can0 720#0727024151268401
(1639737881.200484) can0 728#037F272200000000
(1639737881.203869) can0 720#0227010000000000
(1639737881.208783) can0 728#037F272200000000
(1639737881.217022) can0 720#0727022403356384
(1639737881.225327) can0 728#037F272200000000
(1639737881.231711) can0 720#0227010000000000
(1639737881.233852) can0 728#037F272200000000
(1639737881.247230) can0 720#0727028408F57701
(1639737881.250889) can0 728#037F272200000000
(1639737881.262433) can0 720#0227010000000000
(1639737881.267908) can0 728#037F272200000000
(1639737881.277663) can0 720#0727021982061003
(1639737881.284963) can0 728#037F272200000000
(1639737881.293684) can0 720#0227010000000000
(1639737881.302114) can0 728#037F272200000000
(1639737881.307395) can0 720#072702424F534558
(1639737881.310558) can0 728#037F272200000000
(1639737881.322488) can0 720#0227010000000000
(1639737881.327579) can0 728#037F272200000000
(1639737881.336136) can0 720#072702666F617765
(1639737881.344608) can0 728#037F272200000000
(1639737881.353793) can0 720#0227010000000000
(1639737881.361659) can0 728#037F272200000000
(1639737881.367067) can0 720#07270253554D2D33
(1639737881.370185) can0 728#037F272200000000
(1639737881.380018) can0 720#0227010000000000
(1639737881.387252) can0 728#037F272200000000
(1639737881.393991) can0 720#0727021213197630
(1639737881.395680) can0 728#037F272200000000
(1639737881.410004) can0 720#0227010000000000
(1639737881.412755) can0 728#037F272200000000
(1639737881.423269) can0 720#07270242A4839979
(1639737881.429805) can0 728#037F272200000000
(1639737881.435882) can0 720#023E010000000000
(1639737881.438421) can0 728#017E000000000000
(1639737881.442072) can0 720#0227010000000000
(1639737881.447501) can0 728#037F272200000000
(1639737881.458825) can0 720#072702EFE57A916A
(1639737881.463871) can0 728#037F272200000000
(1639737881.473509) can0 720#0227010000000000
(1639737881.477982) can0 720#07270219D30B2FD2
(1639737881.482252) can0 728#037F272200000000
(1639737881.485439) can0 720#0227010000000000
(1639737881.490535) can0 720#0727021420E6890A
(1639737881.492153) can0 728#037F272200000000
(1639737881.494456) can0 720#0227010000000000
(1639737881.497981) can0 720#0727025E100F4633
(1639737881.501636) can0 720#0227010000000000
(1639737881.502587) can0 728#037F272200000000
(1639737881.505024) can0 720#0727021571031976
(1639737881.508539) can0 720#0227010000000000
(1639737881.512904) can0 728#037F272200000000
(1639737881.521594) can0 720#07270266AF300612
(1639737881.526497) can0 720#0227010000000000
(1639737881.530425) can0 720#07270220E448E1D1
(1639737881.532282) can0 728#037F272200000000
(1639737881.534190) can0 720#0227010000000000
(1639737881.542947) can0 720#07270228E222635F
(1639737881.543935) can0 728#037F272200000000
(1639737881.544899) can0 720#0227010000000000
(1639737881.546809) can0 720#072702083161A4C5
(1639737881.549791) can0 720#0227010000000000
(1639737881.552554) can0 728#037F272200000000
(1639737881.555984) can0 720#072702E6763FED74
(1639737881.562156) can0 728#037F272200000000
(1639737881.563146) can0 720#0227010000000000
(1639737881.565976) can0 720#0727024A414D4553
(1639737881.568910) can0 720#0227010000000000
(1639737881.572293) can0 728#037F272200000000
(1639737881.573239) can0 720#0727020808010301
(1639737881.581064) can0 728#037F272200000000
(1639737881.584208) can0 720#0227010000000000
(1639737881.589578) can0 728#037F272200000000
(1639737881.601116) can0 720#0727025475BC4E68
(1639737881.606619) can0 728#037F272200000000
(1639737881.615876) can0 720#0227010000000000
(1639737881.623653) can0 728#037F272200000000
(1639737881.639547) can0 720#0727024D415A4441
(1639737881.640707) can0 728#037F272200000000
(1639737881.654255) can0 720#0227010000000000
(1639737881.657877) can0 728#037F272200000000
(1639737881.665869) can0 720#0727024B30323136
(1639737881.674746) can0 728#037F272200000000
(1639737881.679861) can0 720#0227010000000000
(1639737881.683514) can0 728#037F272200000000
(1639737881.692337) can0 720#0727026D415A4461
(1639737881.700839) can0 728#037F272200000000
(1639737881.709646) can0 720#0227010000000000
(1639737881.717399) can0 728#037F272200000000
(1639737881.726129) can0 720#072702621C067260
(1639737881.734728) can0 720#0227010000000000
(1639737881.735651) can0 728#037F272200000000
(1639737881.738512) can0 720#07270250414E4441
(1639737881.742599) can0 720#0227010000000000
(1639737881.744961) can0 728#037F272200000000
(1639737881.745877) can0 720#072702212703DA27
(1639737881.749838) can0 720#0227010000000000
(1639737881.754234) can0 728#037F272200000000
(1639737881.760440) can0 720#0727022270EA4C11
(1639737881.762723) can0 728#037F272200000000
(1639737881.774868) can0 720#0227010000000000
(1639737881.779803) can0 728#037F272200000000
(1639737881.789985) can0 720#0227010000000000
(1639737881.796957) can0 728#037F272200000000
(1639737881.802711) can0 720#023E010000000000
(1639737881.805350) can0 728#017E000000000000
(1639737881.806851) can0 720#072702466C617368
(1639737881.813854) can0 728#037F272200000000
(1639737882.994455) can0 720#023E010000000000
(1639737883.002204) can0 728#017E000000000000
(1639737883.436091) can0 720#023E010000000000
(1639737883.445303) can0 728#017E000000000000
(1639737883.802329) can0 720#023E010000000000
(1639737883.804901) can0 728#017E000000000000
(1639737884.994704) can0 720#023E010000000000
(1639737884.997803) can0 728#017E000000000000
(1639737885.436452) can0 720#023E010000000000
(1639737885.445037) can0 728#017E000000000000
(1639737885.801871) can0 720#023E010000000000
(1639737885.809389) can0 728#017E000000000000
(1639737886.994884) can0 720#023E010000000000
(1639737887.004802) can0 728#017E000000000000
(1639737887.436703) can0 720#023E010000000000
(1639737887.443200) can0 728#017E000000000000
(1639737887.801821) can0 720#023E010000000000
(1639737887.806618) can0 728#017E000000000000
(1639737888.995041) can0 720#023E010000000000
(1639737888.997193) can0 728#017E000000000000
(1639737889.436914) can0 720#023E010000000000
(1639737889.441280) can0 728#017E000000000000
(1639737889.801926) can0 720#023E010000000000
(1639737889.808898) can0 728#017E000000000000
(1639737890.995095) can0 720#023E010000000000
(1639737891.001326) can0 728#017E000000000000
(1639737895.184931) can0 720#023E010000000000
(1639737895.191861) can0 728#017E000000000000
(1639737895.549972) can0 720#023E010000000000
(1639737895.556257) can0 728#017E000000000000
(1639737896.742869) can0 720#023E010000000000
(1639737896.744287) can0 728#017E000000000000
(1639737897.185085) can0 720#023E010000000000
(1639737897.187268) can0 728#017E000000000000
(1639737897.550206) can0 720#023E010000000000
(1639737897.555169) can0 728#017E000000000000
(1639737898.743189) can0 720#023E010000000000
(1639737898.751245) can0 728#017E000000000000
(1639737899.185315) can0 720#023E010000000000
(1639737899.192218) can0 728#017E000000000000
(1639737899.550432) can0 720#023E010000000000
(1639737899.556468) can0 728#017E000000000000
(1639737900.743162) can0 720#023E010000000000
(1639737900.752030) can0 728#017E000000000000
(1639737901.185546) can0 720#023E010000000000
(1639737901.191477) can0 728#017E000000000000
(1639737901.550354) can0 720#023E010000000000
(1639737901.560243) can0 728#017E000000000000
(1639737902.743568) can0 720#023E010000000000
(1639737902.747386) can0 728#017E000000000000
(1639737903.185715) can0 720#023E010000000000
(1639737903.186947) can0 728#017E000000000000
(1639737903.550563) can0 720#023E010000000000
(1639737903.559272) can0 728#017E000000000000
(1639737904.743757) can0 720#023E010000000000
(1639737904.749577) can0 728#017E000000000000
(1639737905.185789) can0 720#023E010000000000
(1639737905.189482) can0 728#017E000000000000
(1639737905.552150) can0 720#023E010000000000
(1639737905.559163) can0 728#017E000000000000
(1639737906.743683) can0 720#023E010000000000
(1639737906.752634) can0 728#017E000000000000
(1639737907.186604) can0 720#023E010000000000
(1639737907.189962) can0 728#017E000000000000
(1639737907.551436) can0 720#023E010000000000
(1639737907.553920) can0 728#017E000000000000
(1639737908.744045) can0 720#023E010000000000
(1639737908.751468) can0 728#017E000000000000
(1639737909.185960) can0 720#023E010000000000
(1639737909.191924) can0 728#017E000000000000
(1639737909.551346) can0 720#023E010000000000
(1639737909.561173) can0 728#017E000000000000
(1639737910.744372) can0 720#023E010000000000
(1639737910.747156) can0 728#017E000000000000
(1639737911.186288) can0 720#023E010000000000
(1639737911.188602) can0 728#017E000000000000
(1639737911.551701) can0 720#023E010000000000
(1639737911.560999) can0 728#017E000000000000
(1639737912.744360) can0 720#023E010000000000
(1639737912.751938) can0 728#017E000000000000
(1639737913.188869) can0 720#023E010000000000
(1639737913.197816) can0 728#017E000000000000
(1639737913.551888) can0 720#023E010000000000
(1639737913.554950) can0 728#017E000000000000
(1639737914.744925) can0 720#023E010000000000
(1639737914.749116) can0 728#017E000000000000
(1639737915.186677) can0 720#023E010000000000
(1639737915.192408) can0 728#017E000000000000
(1639737915.552304) can0 720#023E010000000000
(1639737915.554986) can0 728#017E000000000000
(1639737916.744877) can0 720#023E010000000000
(1639737916.746245) can0 728#017E000000000000
(1639737917.186966) can0 720#023E010000000000
(1639737917.190484) can0 728#017E000000000000
(1639737917.552629) can0 720#023E010000000000
(1639737917.554695) can0 728#017E000000000000
(1639737918.745085) can0 720#023E010000000000
(1639737918.749777) can0 728#017E000000000000
(1639737919.187192) can0 720#023E010000000000
(1639737919.193249) can0 728#017E000000000000
(1639737919.553614) can0 720#023E010000000000
(1639737919.557884) can0 728#017E000000000000
(1639737920.745265) can0 720#023E010000000000
(1639737920.750935) can0 728#017E000000000000
(1639737921.187389) can0 720#023E010000000000
(1639737921.193506) can0 728#017E000000000000
(1639737921.552824) can0 720#023E010000000000
(1639737921.560152) can0 728#017E000000000000
(1639737922.745459) can0 720#023E010000000000
(1639737922.747737) can0 728#017E000000000000
(1639737923.187680) can0 720#023E010000000000
(1639737923.191227) can0 728#017E000000000000
(1639737923.553695) can0 720#023E010000000000
(1639737923.563419) can0 728#017E000000000000
(1639737924.745678) can0 720#023E010000000000
(1639737924.751233) can0 728#017E000000000000
(1639737925.187750) can0 720#023E010000000000
(1639737925.190117) can0 728#017E000000000000
(1639737925.553368) can0 720#023E010000000000
(1639737925.562804) can0 728#017E000000000000
(1639737926.745904) can0 720#023E010000000000
(1639737926.748463) can0 728#017E000000000000
(1639737927.187973) can0 720#023E010000000000
(1639737927.193081) can0 728#017E000000000000
(1639737931.268939) can0 720#023E010000000000
(1639737931.275358) can0 728#017E000000000000
(1639737932.461572) can0 720#023E010000000000
(1639737932.469703) can0 728#017E000000000000
(1639737932.903326) can0 720#023E010000000000
(1639737932.910576) can0 728#017E000000000000
(1639737933.269053) can0 720#023E010000000000
(1639737933.274488) can0 728#017E000000000000
(1639737934.461647) can0 720#023E010000000000
(1639737934.469409) can0 728#017E000000000000
(1639737934.903702) can0 720#023E010000000000
(1639737934.906477) can0 728#017E000000000000
(1639737935.269228) can0 720#023E010000000000
(1639737935.272289) can0 728#017E000000000000
(1639737936.464787) can0 720#023E010000000000
(1639737936.465850) can0 728#017E000000000000
(1639737936.903923) can0 720#023E010000000000
(1639737936.910474) can0 728#017E000000000000
(1639737937.269198) can0 720#023E010000000000
(1639737937.278325) can0 728#017E000000000000
(1639737938.462015) can0 720#023E010000000000
(1639737938.463096) can0 728#017E000000000000
(1639737938.903855) can0 720#023E010000000000
(1639737938.907854) can0 728#017E000000000000
(1639737939.269902) can0 720#023E010000000000
(1639737939.272272) can0 728#017E000000000000
(1639737940.461953) can0 720#023E010000000000
(1639737940.467849) can0 728#017E000000000000
(1639737940.904208) can0 720#023E010000000000
(1639737940.908643) can0 728#017E000000000000
(1639737941.269865) can0 720#023E010000000000
(1639737941.270915) can0 728#017E000000000000
(1639737942.462057) can0 720#023E010000000000
(1639737942.464349) can0 728#017E000000000000
(1639737942.904236) can0 720#023E010000000000
(1639737942.906641) can0 728#017E000000000000
(1639737943.270167) can0 720#023E010000000000
(1639737943.271255) can0 728#017E000000000000
(1639737944.462197) can0 720#023E010000000000
(1639737944.467520) can0 728#017E000000000000
(1639737944.904561) can0 720#023E010000000000
(1639737944.912818) can0 728#017E000000000000
(1639737945.270284) can0 720#023E010000000000
(1639737945.275043) can0 728#017E000000000000
(1639737946.462645) can0 720#023E010000000000
(1639737946.464452) can0 728#017E000000000000
(1639737946.904744) can0 720#023E010000000000
(1639737946.906303) can0 728#017E000000000000
(1639737947.270526) can0 720#023E010000000000
(1639737947.272688) can0 728#017E000000000000
(1639737948.462750) can0 720#023E010000000000
(1639737948.466620) can0 728#017E000000000000
(1639737948.904840) can0 720#023E010000000000
(1639737948.907990) can0 728#017E000000000000
(1639737949.270650) can0 720#023E010000000000
(1639737949.276088) can0 728#017E000000000000
(1639737950.462946) can0 720#023E010000000000
(1639737950.465793) can0 728#017E000000000000
(1639737950.905058) can0 720#023E010000000000
(1639737950.909260) can0 728#017E000000000000
(1639737951.270862) can0 720#023E010000000000
(1639737951.274424) can0 728#017E000000000000
(1639737952.463133) can0 720#023E010000000000
(1639737952.464859) can0 728#017E000000000000
(1639737952.905237) can0 720#023E010000000000
(1639737952.914778) can0 728#017E000000000000
(1639737953.270836) can0 720#023E010000000000
(1639737953.281429) can0 728#017E000000000000
(1639737954.463335) can0 720#023E010000000000
(1639737954.464414) can0 728#017E000000000000
(1639737954.905473) can0 720#023E010000000000
(1639737954.909741) can0 728#017E000000000000
(1639737955.270905) can0 720#023E010000000000
(1639737955.274908) can0 728#017E000000000000
(1639737956.463273) can0 720#023E010000000000
(1639737956.466884) can0 728#017E000000000000
(1639737956.905665) can0 720#023E010000000000
(1639737956.914206) can0 728#017E000000000000
(1639737957.271242) can0 720#023E010000000000
(1639737957.273978) can0 728#017E000000000000
(1639737958.463850) can0 720#023E010000000000
(1639737958.471156) can0 728#017E000000000000
(1639737958.905838) can0 720#023E010000000000
(1639737958.909447) can0 728#017E000000000000
(1639737959.271367) can0 720#023E010000000000
(1639737959.276157) can0 728#017E000000000000
(1639737960.464052) can0 720#023E010000000000
(1639737960.468872) can0 728#017E000000000000
(1639737960.908718) can0 720#023E010000000000
(1639737960.910372) can0 728#017E000000000000
(1639737961.272279) can0 720#023E010000000000
(1639737961.281328) can0 728#017E000000000000
(1639737962.464229) can0 720#023E010000000000
(1639737962.465535) can0 728#017E000000000000
(1639737962.906216) can0 720#023E010000000000
(1639737962.915340) can0 728#017E000000000000
(1639737963.271824) can0 720#023E010000000000
(1639737963.277147) can0 728#017E000000000000
(1639737968.054398) can0 720#023E010000000000
(1639737968.055453) can0 728#017E000000000000
(1639737968.496410) can0 720#023E010000000000
(1639737968.503030) can0 728#017E000000000000
(1639737968.861751) can0 720#023E010000000000
(1639737968.872497) can0 728#017E000000000000
