(1663746260.608192) can0 72E#037FAA1200000000
(1663746260.698318) can0 72E#300A140000000000
(1663746260.798412) can0 72E#300A140000000000
(1663746260.869377) can0 72E#037F657200000000
(1663746261.038884) can0 72E#037F5E1200000000
(1663746261.048847) can0 72E#037F421100000000
(1663746261.068646) can0 72E#037FEE1200000000
(1663746261.278918) can0 72E#300A140000000000
(1663746261.288959) can0 72E#300A140000000000
(1663746261.309140) can0 72E#037FC41200000000
(1663746261.348936) can0 72E#300A140000000000
(1663746261.439372) can0 72E#037F697200000000
(1663746261.449500) can0 72E#300A140000000000
(1663746261.469711) can0 72E#037F001200000000
(1663746261.499046) can0 72E#300A140000000000
(1663746261.589212) can0 72E#037F367200000000
(1663746261.609134) can0 72E#037F411200000000
(1663746261.799288) can0 72E#037F9A1200000000
(1663746261.949449) can0 72E#300A140000000000
(1663746261.989462) can0 72E#037F721200000000
(1663746262.049526) can0 72E#037F9C1200000000
(1663746262.149624) can0 72E#300A140000000000
(1663746262.169637) can0 72E#037FE47200000000
(1663746262.239704) can0 72E#300A140000000000
(1663746262.279770) can0 72E#037F291200000000
(1663746262.523257) can0 72E#037F3C1100000000
(1663746262.670086) can0 72E#037FD41200000000
(1663746262.780211) can0 72E#037FC41200000000
(1663746262.790237) can0 72E#037FF71200000000
(1663746262.800258) can0 72E#300A140000000000
(1663746262.830210) can0 72E#037FB57200000000
(1663746262.880336) can0 72E#300A140000000000
(1663746262.950318) can0 72E#037F607200000000
(1663746263.410768) can0 72E#300A140000000000
(1663746263.460766) can0 72E#037FA41200000000
(1663746263.901182) can0 72E#300A140000000000
(1663746263.911371) can0 72E#037F197200000000
(1663746263.951244) can0 72E#300A140000000000
(1663746263.992712) can0 72E#037F107200000000
(1663746264.112203) can0 72E#300A140000000000
(1663746264.201555) can0 72E#037F1D7200000000
(1663746264.231482) can0 72E#300A140000000000
(1663746264.271493) can0 72E#037F167200000000
(1663746264.511752) can0 72E#300A140000000000
(1663746264.524869) can0 72E#037FED1100000000
(1663746264.532120) can0 72E#037F061100000000
(1663746264.561840) can0 72E#300A140000000000
(1663746264.581774) can0 72E#037F9A7200000000
(1663746264.662327) can0 72E#300A140000000000
(1663746264.742154) can0 72E#037F5E1100000000
(1663746264.752172) can0 72E#037FBC1100000000
(1663746264.831979) can0 72E#037F1D1200000000
(1663746264.872309) can0 72E#037F2D1100000000
(1663746265.022196) can0 72E#300A140000000000
(1663746265.072222) can0 72E#037FAD7200000000
(1663746265.124159) can0 72E#300A140000000000
(1663746265.212866) can0 72E#037F7A7200000000
(1663746265.302421) can0 72E#037F0C1200000000
(1663746265.312993) can0 72E#300A140000000000
(1663746265.352417) can0 72E#300A140000000000
(1663746265.362506) can0 72E#300A140000000000
(1663746265.392440) can0 72E#037F497200000000
(1663746265.422706) can0 72E#037FED1100000000
(1663746265.472522) can0 72E#300A140000000000
(1663746265.562808) can0 72E#037FBC7200000000
(1663746265.592629) can0 72E#300A140000000000
(1663746265.612875) can0 72E#037F871100000000
(1663746265.632829) can0 72E#037FD41100000000
(1663746265.702725) can0 72E#300A140000000000
(1663746265.712768) can0 72E#037F981200000000
(1663746265.792985) can0 72E#037F091100000000
(1663746265.883676) can0 72E#037F8B1200000000
(1663746265.893731) can0 72E#037F311200000000
(1663746265.932960) can0 72E#300A140000000000
(1663746265.983214) can0 72E#037F321200000000
(1663746266.012979) can0 72E#037F2E1200000000
(1663746266.283380) can0 72E#300A140000000000
(1663746266.303514) can0 72E#037FF61100000000
(1663746266.473484) can0 72E#300A140000000000
(1663746266.483533) can0 72E#037F901200000000
(1663746266.563570) can0 72E#300A140000000000
(1663746266.583590) can0 72E#300A140000000000
(1663746266.633810) can0 72E#037FF81100000000
(1663746266.653674) can0 72E#300A140000000000
(1663746266.664242) can0 72E#300A140000000000
(1663746266.733737) can0 72E#037FC07200000000
(1663746266.803839) can0 72E#300A140000000000
(1663746266.844002) can0 72E#037FFA1100000000
(1663746267.034120) can0 72E#300A140000000000
(1663746267.084039) can0 72E#037F1B7200000000
(1663746267.134108) can0 72E#300A140000000000
(1663746267.144148) can0 72E#300A140000000000
(1663746267.214153) can0 72E#300A140000000000
(1663746267.244156) can0 72E#037FDF7200000000
(1663746267.424338) can0 72E#300A140000000000
(1663746267.444384) can0 72E#300A140000000000
(1663746267.454453) can0 72E#037F427200000000
(1663746267.620115) can0 72E#037FA11200000000
(1663746267.634530) can0 72E#300A140000000000
(1663746267.723842) can0 72E#300A140000000000
(1663746267.744617) can0 72E#300A140000000000
(1663746267.794675) can0 72E#300A140000000000
(1663746267.824934) can0 72E#037F7D1100000000
(1663746267.844716) can0 72E#300A140000000000
(1663746267.866245) can0 72E#037F717200000000
(1663746267.984803) can0 72E#037FCF7500000000
(1663746268.276818) can0 72E#037F901200000000
(1663746268.345154) can0 72E#300A140000000000
(1663746268.385417) can0 72E#037F201100000000
(1663746268.425249) can0 72E#300A140000000000
(1663746268.438045) can0 72E#037F3B1200000000
(1663746268.455693) can0 72E#300A140000000000
(1663746268.517147) can0 72E#037FEC7200000000
(1663746269.005958) can0 72E#037F791100000000
(1663746269.106857) can0 72E#300A140000000000
(1663746269.145877) can0 72E#300A140000000000
(1663746269.236238) can0 72E#037F267200000000
(1663746269.296871) can0 72E#037F551100000000
(1663746269.356064) can0 72E#300A140000000000
(1663746269.396150) can0 72E#037F5A1200000000
(1663746269.456225) can0 72E#037F2A1200000000
(1663746269.546248) can0 72E#300A140000000000
(1663746269.626308) can0 72E#300A140000000000
(1663746269.696375) can0 72E#300A140000000000
(1663746269.746406) can0 72E#300A140000000000
(1663746269.766600) can0 72E#037F941100000000
(1663746269.896725) can0 72E#037F301100000000
(1663746269.906621) can0 72E#300A140000000000
(1663746269.967164) can0 72E#037F117200000000
(1663746270.029628) can0 72E#037FBD1100000000
(1663746270.236813) can0 72E#037F211200000000
(1663746270.256901) can0 72E#300A140000000000
(1663746270.337567) can0 72E#300A140000000000
(1663746270.406972) can0 72E#037F381200000000
(1663746270.477063) can0 72E#300A140000000000
(1663746270.507092) can0 72E#300A140000000000
(1663746270.597316) can0 72E#037F8A7200000000
(1663746270.607208) can0 72E#037F4D1200000000
(1663746270.647184) can0 72E#037FD11200000000
(1663746270.687415) can0 72E#037FD31100000000
(1663746270.708237) can0 72E#037FA01100000000
(1663746270.757314) can0 72E#300A140000000000
(1663746270.847377) can0 72E#037F5A7200000000
(1663746270.877393) can0 72E#037F431200000000
(1663746270.937449) can0 72E#037FB11200000000
(1663746271.247760) can0 72E#300A140000000000
(1663746271.337897) can0 72E#037FB17200000000
(1663746271.438827) can0 72E#300A140000000000
(1663746271.467928) can0 72E#037F037200000000
(1663746271.558036) can0 72E#300A140000000000
(1663746271.578041) can0 72E#037F957200000000
(1663746271.738191) can0 72E#300A140000000000
(1663746271.798215) can0 72E#037F291200000000
(1663746271.828237) can0 72E#037F4B1200000000
(1663746271.878324) can0 72E#300A140000000000
(1663746271.908358) can0 72E#037F577200000000
(1663746272.078499) can0 72E#300A140000000000
(1663746272.108533) can0 72E#300A140000000000
(1663746272.128652) can0 72E#300A140000000000
(1663746272.148552) can0 72E#037FC87200000000
(1663746272.168589) can0 72E#300A140000000000
(1663746272.218607) can0 72E#037FD61200000000
(1663746272.258691) can0 72E#300A140000000000
(1663746272.348742) can0 72E#300A140000000000
(1663746272.359026) can0 72E#037F981100000000
(1663746272.518930) can0 72E#300A140000000000
(1663746272.539045) can0 72E#300A140000000000
(1663746272.629021) can0 72E#300A140000000000
(1663746272.669017) can0 72E#037FAB1200000000
(1663746272.699052) can0 72E#300A140000000000
(1663746272.739064) can0 72E#037F557200000000
(1663746272.799364) can0 72E#037F691100000000
(1663746272.819139) can0 72E#037F151200000000
(1663746272.859384) can0 72E#037FC41100000000
(1663746272.879216) can0 72E#300A140000000000
(1663746272.949252) can0 72E#037F6F7200000000
(1663746273.189491) can0 72E#300A140000000000
(1663746273.199563) can0 72E#300A140000000000
(1663746273.269772) can0 72E#037F221200000000
(1663746273.279618) can0 72E#037F3A1200000000
(1663746273.289688) can0 72E#300A140000000000
(1663746273.309587) can0 72E#037F167200000000
(1663746273.499771) can0 72E#300A140000000000
(1663746273.569850) can0 72E#300A140000000000
(1663746273.639901) can0 72E#300A140000000000
(1663746273.659913) can0 72E#300A140000000000
(1663746273.669952) can0 72E#037F3B1200000000
(1663746273.679992) can0 72E#300A140000000000
(1663746273.709958) can0 72E#300A140000000000
(1663746273.719989) can0 72E#037F9E1200000000
(1663746273.790090) can0 72E#300A140000000000
(1663746273.880259) can0 72E#037FD57200000000
(1663746273.890179) can0 72E#300A140000000000
(1663746273.980294) can0 72E#037F517200000000
(1663746274.030245) can0 72E#300A140000000000
(1663746274.090291) can0 72E#037F477200000000
(1663746274.130629) can0 72E#300A140000000000
(1663746274.190608) can0 72E#037F081100000000
(1663746274.590756) can0 72E#300A140000000000
(1663746274.600807) can0 72E#037FA07200000000
(1663746274.760901) can0 72E#300A140000000000
(1663746274.851080) can0 72E#037FF27200000000
(1663746274.871303) can0 72E#300A140000000000
(1663746274.901007) can0 72E#037F887200000000
(1663746274.971059) can0 72E#037FE91200000000
(1663746275.031115) can0 72E#037FC31200000000
(1663746275.051168) can0 72E#300A140000000000
(1663746275.061239) can0 72E#300A140000000000
(1663746275.091197) can0 72E#037FAC7200000000
(1663746275.131349) can0 72E#300A140000000000
(1663746275.171232) can0 72E#037F391200000000
(1663746275.211497) can0 72E#037F031100000000
(1663746275.243070) can0 72E#037F851200000000
(1663746275.281337) can0 72E#037F971200000000
(1663746275.381488) can0 72E#300A140000000000
(1663746275.471620) can0 72E#037FDE7200000000
(1663746275.492193) can0 72E#300A140000000000
(1663746275.521563) can0 72E#037F0C1200000000
(1663746275.611660) can0 72E#300A140000000000
(1663746275.701941) can0 72E#037F697200000000
(1663746275.811843) can0 72E#300A140000000000
(1663746275.821888) can0 72E#037F147200000000
(1663746275.841838) can0 72E#037F8B1200000000
(1663746276.022291) can0 72E#037F7C1100000000
(1663746276.132835) can0 72E#300A140000000000
(1663746276.173223) can0 72E#037F8E1100000000
(1663746276.242245) can0 72E#300A140000000000
(1663746276.282235) can0 72E#037F187200000000
(1663746276.392327) can0 72E#037F861200000000
(1663746276.492447) can0 72E#300A140000000000
(1663746276.572518) can0 72E#037FB27200000000
(1663746276.632767) can0 72E#037F101200000000
(1663746276.702639) can0 72E#037FCC1200000000
(1663746276.772704) can0 72E#300A140000000000
(1663746276.852775) can0 72E#300A140000000000
(1663746276.872793) can0 72E#300A140000000000
(1663746276.912825) can0 72E#300A140000000000
(1663746276.962835) can0 72E#037FDD1200000000
(1663746276.982889) can0 72E#300A140000000000
(1663746277.032937) can0 72E#300A140000000000
(1663746277.062962) can0 72E#300A140000000000
(1663746277.073030) can0 72E#300A140000000000
(1663746277.163570) can0 72E#037F5C7200000000
(1663746277.173650) can0 72E#037F471200000000
(1663746277.223078) can0 72E#037FF31200000000
(1663746277.403559) can0 72E#300A140000000000
(1663746277.473520) can0 72E#037F981100000000
(1663746277.563377) can0 72E#300A140000000000
(1663746277.653593) can0 72E#037F527200000000
(1663746277.933905) can0 72E#0354223500000000
(1663746277.993762) can0 72E#037F5D1200000000
(1663746278.023819) can0 72E#300A140000000000
(1663746278.043938) can0 72E#037F7E1200000000
(1663746278.113869) can0 72E#037F4A1200000000
(1663746278.344653) can0 72E#037F141200000000
(1663746278.394150) can0 72E#300A140000000000
(1663746278.434170) can0 72E#037FA57200000000
(1663746278.484234) can0 72E#300A140000000000
(1663746278.565116) can0 72E#300A140000000000
(1663746278.575178) can0 72E#037F437200000000
(1663746278.595192) can0 72E#300A140000000000
(1663746278.684509) can0 72E#037FDF7200000000
(1663746278.795177) can0 72E#037FB01200000000
(1663746278.804787) can0 72E#037F281200000000
(1663746278.817085) can0 72E#037F351100000000
(1663746278.974669) can0 72E#300A140000000000
(1663746279.034723) can0 72E#300A140000000000
(1663746279.044899) can0 72E#037FE77200000000
(1663746279.065134) can0 72E#300A140000000000
(1663746279.095169) can0 72E#037F2D7200000000
(1663746279.175633) can0 72E#037F111200000000
(1663746279.275691) can0 72E#037F481200000000
(1663746279.365114) can0 72E#037FB31200000000
(1663746279.565171) can0 72E#037FD21200000000
(1663746279.585222) can0 72E#300A140000000000
(1663746279.596165) can0 72E#037F6A7200000000
(1663746279.635242) can0 72E#037F701200000000
(1663746279.725343) can0 72E#300A140000000000
(1663746279.745337) can0 72E#037F8D7200000000
(1663746279.785401) can0 72E#300A140000000000
(1663746279.875683) can0 72E#037F567200000000
(1663746280.055640) can0 72E#300A140000000000
(1663746280.086207) can0 72E#300A140000000000
(1663746280.117490) can0 72E#037F421200000000
(1663746280.267285) can0 72E#300A140000000000
(1663746280.356061) can0 72E#037F147200000000
(1663746280.375950) can0 72E#037FFB1200000000
(1663746280.396156) can0 72E#037F8C1100000000
(1663746280.496153) can0 72E#037FA11200000000
(1663746280.526033) can0 72E#037FC41200000000
(1663746280.596099) can0 72E#037F291200000000
(1663746280.620961) can0 72E#037F0B1200000000
(1663746280.666677) can0 72E#300A140000000000
(1663746280.707154) can0 72E#037FD31100000000
(1663746280.726238) can0 72E#300A140000000000
(1663746280.746326) can0 72E#037F6A7200000000
(1663746280.806311) can0 72E#300A140000000000
(1663746280.886347) can0 72E#037F7B1200000000
(1663746280.926583) can0 72E#037F201100000000
(1663746280.936530) can0 72E#037F701200000000
(1663746280.957168) can0 72E#037FC71100000000
(1663746280.966705) can0 72E#037FE11100000000
(1663746281.036514) can0 72E#300A140000000000
(1663746281.056537) can0 72E#300A140000000000
(1663746281.076532) can0 72E#037F001200000000
(1663746281.086832) can0 72E#037FBC1100000000
(1663746281.456886) can0 72E#300A140000000000
(1663746281.466980) can0 72E#300A140000000000
(1663746281.477003) can0 72E#037FB91200000000
(1663746281.517205) can0 72E#037FB31100000000
(1663746281.556981) can0 72E#300A140000000000
(1663746281.637280) can0 72E#037FA51100000000
(1663746281.987585) can0 72E#037F5C1100000000
(1663746282.097625) can0 72E#037F651100000000
(1663746282.177542) can0 72E#300A140000000000
(1663746282.208161) can0 72E#037FCC7200000000
(1663746282.237555) can0 72E#037F4E1200000000
(1663746282.277617) can0 72E#037FE81200000000
(1663746282.317889) can0 72E#037F4B1100000000
(1663746282.378146) can0 72E#037F571200000000
(1663746282.467759) can0 72E#037F711200000000
(1663746282.619014) can0 72E#300A140000000000
(1663746282.628007) can0 72E#300A140000000000
(1663746282.677961) can0 72E#037F8B1200000000
(1663746282.768065) can0 72E#300A140000000000
(1663746282.848144) can0 72E#300A140000000000
(1663746282.898180) can0 72E#300A140000000000
(1663746282.918191) can0 72E#037F3E7200000000
(1663746282.968473) can0 72E#037F081100000000
(1663746283.258768) can0 72E#037F4C1100000000
(1663746283.298602) can0 72E#300A140000000000
(1663746283.318566) can0 72E#300A140000000000
(1663746283.409150) can0 72E#037F1C7200000000
(1663746283.668879) can0 72E#300A140000000000
(1663746283.678959) can0 72E#300A140000000000
(1663746283.769074) can0 72E#037F877200000000
(1663746283.808995) can0 72E#037F011200000000
(1663746283.949114) can0 72E#037F421200000000
(1663746284.069206) can0 72E#037F3C1200000000
(1663746284.349670) can0 72E#037F631100000000
(1663746284.399772) can0 72E#037FF01100000000
(1663746284.409585) can0 72E#037F781200000000
(1663746284.449858) can0 72E#300A140000000000
(1663746284.543525) can0 72E#037F267200000000
(1663746284.740003) can0 72E#037F5A1100000000
(1663746284.810074) can0 72E#037FED1100000000
(1663746284.839901) can0 72E#037F261200000000
(1663746284.880280) can0 72E#037F4B1100000000
(1663746284.930182) can0 72E#037FAB1100000000
(1663746284.970323) can0 72E#037F541100000000
(1663746285.110179) can0 72E#300A140000000000
(1663746285.150218) can0 72E#300A140000000000
(1663746285.220266) can0 72E#037FE97200000000
(1663746285.230536) can0 72E#037F2E1200000000
(1663746285.320334) can0 72E#037F721200000000
(1663746285.630644) can0 72E#037FDC1200000000
(1663746285.700700) can0 72E#300A140000000000
(1663746285.720704) can0 72E#037F197200000000
(1663746285.740958) can0 72E#037F4D1100000000
(1663746285.780739) can0 72E#037FAD1200000000
(1663746285.920869) can0 72E#037F381200000000
(1663746285.962015) can0 72E#037FC41100000000
(1663746285.970996) can0 72E#300A140000000000
(1663746286.030988) can0 72E#037F5B7200000000
(1663746286.051323) can0 72E#037FBB1100000000
(1663746286.131080) can0 72E#300A140000000000
(1663746286.201366) can0 72E#037F531100000000
(1663746286.221442) can0 72E#037F1B1100000000
(1663746286.431353) can0 72E#300A140000000000
(1663746286.461385) can0 72E#037F8C7200000000
(1663746286.571739) can0 72E#037F081200000000
(1663746286.721826) can0 72E#037F661100000000
(1663746286.841695) can0 72E#037FB41200000000
(1663746286.941810) can0 72E#300A140000000000
(1663746286.981804) can0 72E#037F1D1200000000
(1663746287.151999) can0 72E#300A140000000000
(1663746287.192013) can0 72E#037F467200000000
(1663746287.202117) can0 72E#300A140000000000
(1663746287.252059) can0 72E#037F717200000000
(1663746287.292124) can0 72E#300A140000000000
(1663746287.302202) can0 72E#037F1A7200000000
(1663746287.332166) can0 72E#300A140000000000
(1663746287.362743) can0 72E#300A140000000000
(1663746287.382191) can0 72E#037FE37200000000
(1663746287.442436) can0 72E#037F7C1100000000
(1663746287.502312) can0 72E#300A140000000000
(1663746287.522648) can0 72E#037FEB1100000000
(1663746287.532425) can0 72E#037F051200000000
(1663746287.612548) can0 72E#300A140000000000
(1663746287.642826) can0 72E#037F607200000000
(1663746287.693357) can0 72E#300A140000000000
(1663746287.752508) can0 72E#037FA41200000000
(1663746287.792576) can0 72E#300A140000000000
(1663746287.822599) can0 72E#300A140000000000
(1663746287.912661) can0 72E#037F701200000000
(1663746287.992747) can0 72E#300A140000000000
(1663746288.042781) can0 72E#037F247200000000
(1663746288.163079) can0 72E#037F601100000000
(1663746288.173195) can0 72E#037F2C1100000000
(1663746288.182988) can0 72E#300A140000000000
(1663746288.242936) can0 72E#037F451200000000
(1663746288.313044) can0 72E#300A140000000000
(1663746288.443153) can0 72E#300A140000000000
(1663746288.493193) can0 72E#300A140000000000
(1663746288.583426) can0 72E#037F107200000000
(1663746288.823492) can0 72E#300A140000000000
(1663746288.833584) can0 72E#300A140000000000
(1663746288.913750) can0 72E#037FB31100000000
(1663746289.073719) can0 72E#300A140000000000
(1663746289.084054) can0 72E#037F5E1100000000
(1663746289.123761) can0 72E#300A140000000000
(1663746289.153788) can0 72E#300A140000000000
(1663746289.176357) can0 72E#300A140000000000
(1663746289.243870) can0 72E#300A140000000000
(1663746289.323921) can0 72E#037F467200000000
(1663746289.454056) can0 72E#300A140000000000
(1663746289.504101) can0 72E#300A140000000000
(1663746289.595113) can0 72E#037FB27200000000
(1663746289.625044) can0 72E#300A140000000000
(1663746289.684267) can0 72E#300A140000000000
(1663746289.780248) can0 72E#037FC17200000000
(1663746289.856009) can0 72E#300A140000000000
(1663746289.864578) can0 72E#037FA07200000000
(1663746289.877839) can0 72E#037F631200000000
(1663746289.924977) can0 72E#037F101200000000
(1663746289.934477) can0 72E#300A140000000000
(1663746290.004472) can0 72E#037FFC7200000000
(1663746290.064498) can0 72E#037F4E1200000000
(1663746290.124958) can0 72E#037F6B1200000000
(1663746290.144607) can0 72E#300A140000000000
(1663746290.155969) can0 72E#037F1E1100000000
(1663746290.194685) can0 72E#300A140000000000
(1663746290.204722) can0 72E#037FEB7200000000
(1663746290.415025) can0 72E#037F3D1100000000
(1663746290.434863) can0 72E#037F7D1200000000
(1663746290.625105) can0 72E#300A140000000000
(1663746290.655106) can0 72E#037F7A1200000000
(1663746290.716042) can0 72E#300A140000000000
(1663746290.805407) can0 72E#037F167200000000
(1663746290.816067) can0 72E#300A140000000000
(1663746290.825340) can0 72E#300A140000000000
(1663746290.915964) can0 72E#037F767200000000
(1663746291.181697) can0 72E#300A140000000000
(1663746291.215611) can0 72E#037F727200000000
(1663746291.265680) can0 72E#300A140000000000
(1663746291.281224) can0 72E#037FF67200000000
(1663746291.556096) can0 72E#300A140000000000
(1663746291.585974) can0 72E#037FD01200000000
(1663746291.676022) can0 72E#037F6B1200000000
(1663746291.806225) can0 72E#300A140000000000
(1663746291.866220) can0 72E#300A140000000000
(1663746291.956989) can0 72E#037F127200000000
(1663746291.986626) can0 72E#037F001100000000
(1663746292.119280) can0 72E#037F1E1200000000
(1663746292.156643) can0 72E#037F671100000000
(1663746292.196519) can0 72E#300A140000000000
(1663746292.277537) can0 72E#037F007200000000
(1663746292.296608) can0 72E#300A140000000000
(1663746292.377964) can0 72E#300A140000000000
(1663746292.416714) can0 72E#300A140000000000
(1663746292.476740) can0 72E#037FA51200000000
(1663746292.667438) can0 72E#300A140000000000
(1663746292.727221) can0 72E#037FE01100000000
(1663746292.867430) can0 72E#037F161100000000
(1663746292.927173) can0 72E#300A140000000000
(1663746293.007243) can0 72E#300A140000000000
(1663746293.037263) can0 72E#037F067200000000
(1663746293.177397) can0 72E#300A140000000000
(1663746293.187448) can0 72E#037FB47200000000
(1663746293.227440) can0 72E#300A140000000000
(1663746293.267648) can0 72E#037F941100000000
(1663746293.517677) can0 72E#037F181200000000
(1663746293.597774) can0 72E#300A140000000000
(1663746293.647786) can0 72E#037F9D1200000000
(1663746293.657886) can0 72E#300A140000000000
(1663746293.727852) can0 72E#037F2D1200000000
(1663746293.737927) can0 72E#037FE51200000000
(1663746293.808016) can0 72E#300A140000000000
(1663746293.828147) can0 72E#037F8E1100000000
(1663746294.008179) can0 72E#300A140000000000
(1663746294.058326) can0 72E#300A140000000000
(1663746294.088213) can0 72E#300A140000000000
(1663746294.148523) can0 72E#300A140000000000
(1663746294.238324) can0 72E#037F727200000000
(1663746294.288363) can0 72E#037FAF1200000000
(1663746294.328591) can0 72E#037F191100000000
(1663746294.338619) can0 72E#300A140000000000
(1663746294.428519) can0 72E#300A140000000000
(1663746294.518753) can0 72E#037F9F7200000000
(1663746294.558764) can0 72E#300A140000000000
(1663746294.568696) can0 72E#037F5D7200000000
(1663746294.648721) can0 72E#300A140000000000
(1663746294.698744) can0 72E#037FA97200000000
(1663746294.959213) can0 72E#037FA91100000000
(1663746294.979023) can0 72E#300A140000000000
(1663746294.999062) can0 72E#300A140000000000
(1663746295.019030) can0 72E#037F9D7200000000
(1663746295.029099) can0 72E#037F841200000000
(1663746295.039112) can0 72E#037F581200000000
(1663746295.149350) can0 72E#037F701100000000
(1663746295.369666) can0 72E#037FB81100000000
(1663746295.399378) can0 72E#037FDB1200000000
(1663746295.469424) can0 72E#037F411200000000
(1663746295.519470) can0 72E#037F111200000000
(1663746295.569604) can0 72E#300A140000000000
(1663746295.659610) can0 72E#037FFE7200000000
(1663746295.699660) can0 72E#300A140000000000
(1663746295.739694) can0 72E#300A140000000000
(1663746295.749752) can0 72E#037FCE7200000000
(1663746295.809820) can0 72E#300A140000000000
(1663746295.859797) can0 72E#037FBF7200000000
(1663746295.999899) can0 72E#037F1F1200000000
(1663746296.049984) can0 72E#300A140000000000
(1663746296.060147) can0 72E#300A140000000000
(1663746296.079993) can0 72E#037F497200000000
(1663746296.150062) can0 72E#300A140000000000
(1663746296.170075) can0 72E#037FAE7200000000
(1663746296.200107) can0 72E#300A140000000000
(1663746296.290821) can0 72E#037FC97200000000
(1663746296.311050) can0 72E#037F5B1100000000
(1663746296.390596) can0 72E#300A140000000000
(1663746296.480469) can0 72E#037F0F7200000000
(1663746296.520658) can0 72E#037F691100000000
(1663746296.760612) can0 72E#300A140000000000
(1663746296.780632) can0 72E#300A140000000000
(1663746296.820647) can0 72E#037F8C7200000000
(1663746296.840686) can0 72E#300A140000000000
(1663746296.881038) can0 72E#037FA21100000000
(1663746296.940773) can0 72E#300A140000000000
(1663746296.950842) can0 72E#300A140000000000
(1663746296.980821) can0 72E#300A140000000000
(1663746297.050870) can0 72E#300A140000000000
(1663746297.070895) can0 72E#300A140000000000
(1663746297.291269) can0 72E#037FEF1100000000
(1663746297.441217) can0 72E#300A140000000000
(1663746297.451296) can0 72E#300A140000000000
(1663746297.491259) can0 72E#037FE37200000000
(1663746297.571326) can0 72E#037F8A1200000000
(1663746297.721453) can0 72E#037F781200000000
(1663746297.881865) can0 72E#037F561100000000
(1663746297.941661) can0 72E#037FB41200000000
(1663746297.951736) can0 72E#300A140000000000
(1663746298.031759) can0 72E#300A140000000000
(1663746298.041823) can0 72E#037FBE7200000000
(1663746298.071773) can0 72E#037FD41200000000
(1663746298.322008) can0 72E#300A140000000000
(1663746298.342015) can0 72E#037F421200000000
(1663746298.612452) can0 72E#037F851100000000
(1663746298.632297) can0 72E#300A140000000000
(1663746298.692347) can0 72E#300A140000000000
(1663746298.702411) can0 72E#300A140000000000
(1663746298.792685) can0 72E#037F937200000000
(1663746298.822459) can0 72E#300A140000000000
(1663746298.842486) can0 72E#300A140000000000
(1663746298.862480) can0 72E#037F3B7200000000
(1663746315.787862) can0 72E#037FB11100000000
(1663746316.018677) can0 72E#037F4B1200000000
(1663746316.067909) can0 72E#037F391200000000
(1663746316.118977) can0 72E#037F051200000000
(1663746316.238264) can0 72E#037FB71100000000
(1663746316.269974) can0 72E#300A140000000000
(1663746316.288321) can0 72E#037F061100000000
(1663746316.418799) can0 72E#300A140000000000
(1663746316.428564) can0 72E#037F181200000000
(1663746316.438546) can0 72E#037F591100000000
(1663746316.448551) can0 72E#037F651100000000
(1663746316.518558) can0 72E#037FC71100000000
(1663746316.623819) can0 72E#300A140000000000
(1663746316.638427) can0 72E#037F1B7200000000
(1663746316.718777) can0 72E#300A140000000000
(1663746316.789497) can0 72E#037F4B7200000000
(1663746316.969037) can0 72E#037F221200000000
(1663746317.259051) can0 72E#300A140000000000
(1663746317.329140) can0 72E#300A140000000000
(1663746317.339179) can0 72E#300A140000000000
(1663746317.389134) can0 72E#300A140000000000
(1663746317.429167) can0 72E#300A140000000000
(1663746317.439248) can0 72E#300A140000000000
(1663746317.449246) can0 72E#300A140000000000
(1663746317.479213) can0 72E#300A140000000000
(1663746317.499240) can0 72E#037F007200000000
(1663746317.769477) can0 72E#300A140000000000
(1663746317.809481) can0 72E#037FB31200000000
(1663746318.019911) can0 72E#037F3A1100000000
(1663746318.049933) can0 72E#037F5D1100000000
(1663746318.159990) can0 72E#037FDA1100000000
(1663746318.239903) can0 72E#300A140000000000
(1663746318.330121) can0 72E#037F467200000000
(1663746318.450292) can0 72E#037F531100000000
(1663746318.500134) can0 72E#300A140000000000
(1663746318.540170) can0 72E#300A140000000000
(1663746318.600225) can0 72E#300A140000000000
(1663746318.660250) can0 72E#037F3D7200000000
(1663746318.700341) can0 72E#300A140000000000
(1663746318.720305) can0 72E#037F771200000000
(1663746318.730399) can0 72E#300A140000000000
(1663746318.822103) can0 72E#037F927200000000
(1663746319.030606) can0 72E#300A140000000000
(1663746319.050591) can0 72E#037F2D1200000000
(1663746319.121151) can0 72E#300A140000000000
(1663746319.180751) can0 72E#300A140000000000
(1663746319.270924) can0 72E#037F987200000000
(1663746319.601118) can0 72E#300A140000000000
(1663746319.651150) can0 72E#037F997200000000
(1663746319.661253) can0 72E#300A140000000000
(1663746319.721212) can0 72E#037F031200000000
(1663746319.751255) can0 72E#300A140000000000
(1663746319.781247) can0 72E#037FC81200000000
(1663746320.021538) can0 72E#300A140000000000
(1663746320.091648) can0 72E#300A140000000000
(1663746320.151594) can0 72E#037F181200000000
(1663746320.161683) can0 72E#300A140000000000
(1663746320.171691) can0 72E#300A140000000000
(1663746320.191631) can0 72E#037F911200000000
(1663746320.372310) can0 72E#300A140000000000
(1663746320.422089) can0 72E#037FC01100000000
(1663746320.472106) can0 72E#037F931100000000
(1663746320.521961) can0 72E#300A140000000000
(1663746320.612116) can0 72E#037F1A7200000000
(1663746320.622125) can0 72E#300A140000000000
(1663746320.642331) can0 72E#037FAF1100000000
(1663746320.692078) can0 72E#037FEB1200000000
(1663746320.712121) can0 72E#300A140000000000
(1663746320.802288) can0 72E#037F1B7200000000
(1663746320.982532) can0 72E#037F0A1100000000
(1663746321.052430) can0 72E#300A140000000000
(1663746321.142491) can0 72E#300A140000000000
(1663746321.182512) can0 72E#037F487200000000
(1663746321.242600) can0 72E#300A140000000000
(1663746321.252672) can0 72E#300A140000000000
(1663746321.282636) can0 72E#300A140000000000
(1663746321.342699) can0 72E#300A140000000000
(1663746321.352748) can0 72E#300A140000000000
(1663746321.383696) can0 72E#037F3F1200000000
(1663746321.452789) can0 72E#300A140000000000
(1663746321.463024) can0 72E#037F161100000000
(1663746321.713019) can0 72E#300A140000000000
(1663746321.803199) can0 72E#037F4B7200000000
(1663746321.823116) can0 72E#300A140000000000
(1663746321.914871) can0 72E#037FC87200000000
(1663746321.935090) can0 72E#037FEE1200000000
(1663746322.033305) can0 72E#300A140000000000
(1663746322.053548) can0 72E#037FC01100000000
(1663746322.113377) can0 72E#300A140000000000
(1663746322.203618) can0 72E#037F907200000000
(1663746322.243958) can0 72E#037F8C1200000000
(1663746322.363610) can0 72E#300A140000000000
(1663746322.373671) can0 72E#300A140000000000
(1663746322.383669) can0 72E#037F631200000000
(1663746322.473706) can0 72E#300A140000000000
(1663746322.503712) can0 72E#037FC57200000000
(1663746322.794830) can0 72E#300A140000000000
(1663746322.814820) can0 72E#037F8D1100000000
(1663746322.844861) can0 72E#037FEE1200000000
(1663746322.854841) can0 72E#300A140000000000
(1663746322.894141) can0 72E#300A140000000000
(1663746322.954609) can0 72E#037F277200000000
(1663746323.064207) can0 72E#037F8F1200000000
(1663746323.354503) can0 72E#300A140000000000
(1663746323.474788) can0 72E#037FB41100000000
(1663746323.494606) can0 72E#037F421200000000
(1663746323.844939) can0 72E#300A140000000000
(1663746323.925604) can0 72E#300A140000000000
(1663746324.015726) can0 72E#037F637200000000
(1663746324.055121) can0 72E#300A140000000000
(1663746324.065187) can0 72E#037F667200000000
(1663746324.155217) can0 72E#300A140000000000
(1663746324.177592) can0 72E#037F7B1200000000
(1663746324.215246) can0 72E#037F881200000000
(1663746324.285323) can0 72E#037F8A1200000000
(1663746324.305378) can0 72E#300A140000000000
(1663746324.336343) can0 72E#037F681100000000
(1663746324.416731) can0 72E#300A140000000000
(1663746324.505627) can0 72E#037F697200000000
(1663746324.665670) can0 72E#300A140000000000
(1663746324.725948) can0 72E#037FA31100000000
(1663746324.765767) can0 72E#300A140000000000
(1663746324.785813) can0 72E#300A140000000000
(1663746324.855850) can0 72E#300A140000000000
(1663746324.865909) can0 72E#037F7A7200000000
(1663746324.935896) can0 72E#037FF51200000000
(1663746325.137646) can0 72E#300A140000000000
(1663746325.146137) can0 72E#037F8E1200000000
(1663746325.236259) can0 72E#300A140000000000
(1663746325.256186) can0 72E#037F727200000000
(1663746325.386300) can0 72E#037F3B1200000000
(1663746325.446383) can0 72E#300A140000000000
(1663746325.466377) can0 72E#037F4A7200000000
(1663746325.486595) can0 72E#037F0A1100000000
(1663746325.496469) can0 72E#037F8A1200000000
(1663746325.596514) can0 72E#300A140000000000
(1663746325.646536) can0 72E#037F267200000000
(1663746325.866759) can0 72E#300A140000000000
(1663746325.896758) can0 72E#037F897200000000
(1663746325.916835) can0 72E#300A140000000000
(1663746326.007041) can0 72E#037F3F7200000000
(1663746326.080636) can0 72E#037FCD1100000000
(1663746326.136998) can0 72E#300A140000000000
(1663746326.217060) can0 72E#037F067200000000
(1663746326.417457) can0 72E#037F131100000000
(1663746326.517608) can0 72E#037FE01100000000
(1663746326.597370) can0 72E#300A140000000000
(1663746326.687567) can0 72E#037FC67200000000
(1663746327.047782) can0 72E#037F501200000000
(1663746327.117873) can0 72E#300A140000000000
(1663746327.157890) can0 72E#037FFA1200000000
(1663746327.177930) can0 72E#300A140000000000
(1663746327.208988) can0 72E#037F011100000000
(1663746327.358066) can0 72E#037F311200000000
(1663746327.408143) can0 72E#300A140000000000
(1663746327.478182) can0 72E#037F337200000000
(1663746327.609184) can0 72E#300A140000000000
(1663746327.629360) can0 72E#037FCB1100000000
(1663746327.658575) can0 72E#037F791100000000
(1663746327.738660) can0 72E#037FB31100000000
(1663746327.798678) can0 72E#037F8E1100000000
(1663746327.888574) can0 72E#300A140000000000
(1663746327.918601) can0 72E#300A140000000000
(1663746328.008684) can0 72E#300A140000000000
(1663746328.089126) can0 72E#037F941100000000
(1663746328.098825) can0 72E#300A140000000000
(1663746328.108822) can0 72E#037F1F7200000000
(1663746328.138799) can0 72E#300A140000000000
(1663746328.209026) can0 72E#037FF77200000000
(1663746328.238884) can0 72E#300A140000000000
(1663746328.249174) can0 72E#037F861100000000
(1663746328.308976) can0 72E#300A140000000000
(1663746328.348995) can0 72E#037F787200000000
(1663746328.459913) can0 72E#300A140000000000
(1663746328.479079) can0 72E#037FAF1200000000
(1663746328.519200) can0 72E#300A140000000000
(1663746328.529214) can0 72E#300A140000000000
(1663746328.549159) can0 72E#037FBE1200000000
(1663746328.670662) can0 72E#037F731100000000
(1663746328.699308) can0 72E#300A140000000000
(1663746328.759335) can0 72E#037FF11200000000
(1663746328.789391) can0 72E#300A140000000000
(1663746328.809427) can0 72E#300A140000000000
(1663746328.839467) can0 72E#037F6F7200000000
(1663746328.879474) can0 72E#300A140000000000
(1663746328.999535) can0 72E#037FAB1200000000
(1663746329.019594) can0 72E#300A140000000000
(1663746329.039577) can0 72E#037FD71200000000
(1663746329.149715) can0 72E#300A140000000000
(1663746329.239891) can0 72E#037F2E7200000000
(1663746329.310074) can0 72E#037FED1100000000
(1663746329.550093) can0 72E#300A140000000000
(1663746329.640257) can0 72E#037F4E7200000000
(1663746329.690607) can0 72E#300A140000000000
(1663746329.800291) can0 72E#300A140000000000
(1663746329.890482) can0 72E#037F437200000000
(1663746330.083507) can0 72E#037F181200000000
(1663746330.160782) can0 72E#037F931100000000
(1663746330.220637) can0 72E#037F511200000000
(1663746330.270899) can0 72E#037F101200000000
(1663746330.330772) can0 72E#300A140000000000
(1663746330.340853) can0 72E#037FB51200000000
(1663746330.380819) can0 72E#300A140000000000
(1663746330.400805) can0 72E#037FA27200000000
(1663746330.651046) can0 72E#037F801200000000
(1663746330.671074) can0 72E#300A140000000000
(1663746330.721209) can0 72E#300A140000000000
(1663746330.802069) can0 72E#037F061100000000
(1663746330.901507) can0 72E#037F461100000000
(1663746330.921541) can0 72E#037F141200000000
(1663746331.081441) can0 72E#300A140000000000
(1663746331.101633) can0 72E#037F741100000000
(1663746331.151479) can0 72E#037F931200000000
(1663746331.231581) can0 72E#300A140000000000
(1663746331.261679) can0 72E#300A140000000000
(1663746331.361708) can0 72E#300A140000000000
(1663746331.391944) can0 72E#037F511100000000
(1663746331.421961) can0 72E#037F5D1100000000
(1663746331.521851) can0 72E#300A140000000000
(1663746331.531898) can0 72E#037F7F7200000000
(1663746331.541931) can0 72E#300A140000000000
(1663746331.622900) can0 72E#037F487200000000
(1663746331.902181) can0 72E#300A140000000000
(1663746331.962412) can0 72E#037F7E1100000000
(1663746332.102532) can0 72E#037F117800000000
(1663746335.705751) can0 72E#037F117800000000
(1663746339.308860) can0 72E#037F117800000000
(1663746342.912239) can0 72E#037F117800000000
(1663746346.515584) can0 72E#037F117800000000
(1663746350.118785) can0 72E#037F117800000000
(1663746353.721987) can0 72E#037F117800000000
(1663746357.325494) can0 72E#037F117800000000
(1663746360.928428) can0 72E#037F117800000000
(1663746364.531687) can0 72E#037F117800000000
(1663746368.135357) can0 72E#037F117800000000
(1663746371.738237) can0 72E#037F117800000000
(1663746375.341502) can0 72E#037F117800000000
(1663746378.945640) can0 72E#037F117800000000
(1663746382.548631) can0 72E#037F117800000000
(1663746386.151607) can0 72E#037F117800000000
(1663746389.754566) can0 72E#037F117800000000
(1663746430.321463) can0 72E#037F2F1200000000
(1663746433.925519) can0 72E#037F2F1200000000
(1663746435.085701) can0 72E#037F2F1200000000
(1663746435.386066) can0 72E#037F2F1200000000
(1663746435.586154) can0 72E#037F2F1200000000
(1663746435.796356) can0 72E#037F2F1200000000
(1663746435.986496) can0 72E#037F2F1200000000
(1663746436.179529) can0 72E#037F2F1200000000
(1663746436.356857) can0 72E#037F2F1200000000
(1663746436.557073) can0 72E#037F2F1200000000
(1663746502.517279) can0 72E#037F2F1200000000
(1663746538.950706) can0 72E#037F2F1200000000
(1663746538.960912) can0 72E#037F2F1200000000
(1663746538.970782) can0 72E#037F2F1200000000
(1663746538.980859) can0 72E#037F2F1200000000
(1663746538.990774) can0 72E#037F2F1200000000
(1663746539.000784) can0 72E#037F2F1200000000
(1663746539.010792) can0 72E#037F2F1200000000
(1663746539.021701) can0 72E#037F2F1200000000
(1663746539.030857) can0 72E#037F2F1200000000
(1663746539.040919) can0 72E#037F2F1200000000
(1663746539.050829) can0 72E#037F2F1200000000
(1663746539.060905) can0 72E#037F2F1200000000
(1663746539.080995) can0 72E#037F2F1200000000
(1663746539.101467) can0 72E#037F2F1200000000
(1663746539.111702) can0 72E#037F2F1200000000
(1663746539.120938) can0 72E#037F2F1200000000
(1663746539.130906) can0 72E#037F2F1200000000
(1663746539.141027) can0 72E#037F2F1200000000
(1663746539.150920) can0 72E#037F2F1200000000
(1663746539.161022) can0 72E#037F2F1200000000
(1663746539.170950) can0 72E#037F2F1200000000
(1663746539.180956) can0 72E#037F2F1200000000
(1663746539.190961) can0 72E#037F2F1200000000
(1663746539.201030) can0 72E#037F2F1200000000
(1663746539.210975) can0 72E#037F2F1200000000
(1663746539.221108) can0 72E#037F2F1200000000
(1663746539.230998) can0 72E#037F2F1200000000
(1663746539.241042) can0 72E#037F2F1200000000
(1663746539.251018) can0 72E#037F2F1200000000
(1663746539.261076) can0 72E#037F2F1200000000
(1663746539.281287) can0 72E#037F2F1200000000
(1663746539.291028) can0 72E#037F2F1200000000
(1663746539.301071) can0 72E#037F2F1200000000
(1663746539.311055) can0 72E#037F2F1200000000
(1663746539.321109) can0 72E#037F2F1200000000
(1663746539.331115) can0 72E#037F2F1200000000
(1663746539.341137) can0 72E#037F2F1200000000
(1663746539.351095) can0 72E#037F2F1200000000
(1663746539.361147) can0 72E#037F2F1200000000
(1663746539.371127) can0 72E#037F2F1200000000
(1663746539.381149) can0 72E#037F2F1200000000
(1663746539.391236) can0 72E#037F2F1200000000
(1663746539.401207) can0 72E#037F2F1200000000
(1663746539.411167) can0 72E#037F2F1200000000
(1663746539.421219) can0 72E#037F2F1200000000
(1663746539.431223) can0 72E#037F2F1200000000
(1663746539.441246) can0 72E#037F2F1200000000
(1663746539.451197) can0 72E#037F2F1200000000
(1663746539.461327) can0 72E#037F2F1200000000
(1663746539.471222) can0 72E#037F2F1200000000
(1663746539.481276) can0 72E#037F2F1200000000
(1663746539.491222) can0 72E#037F2F1200000000
(1663746539.503034) can0 72E#037F2F1200000000
(1663746539.511241) can0 72E#037F2F1200000000
(1663746539.523134) can0 72E#037F2F1200000000
(1663746539.531358) can0 72E#037F2F1200000000
(1663746539.541289) can0 72E#037F2F1200000000
(1663746539.551276) can0 72E#037F2F1200000000
(1663746539.561331) can0 72E#037F2F1200000000
(1663746539.571302) can0 72E#037F2F1200000000
(1663746539.581351) can0 72E#037F2F1200000000
(1663746539.591328) can0 72E#037F2F1200000000
(1663746539.601341) can0 72E#037F2F1200000000
(1663746539.611347) can0 72E#037F2F1200000000
(1663746539.621473) can0 72E#037F2F1200000000
(1663746539.631367) can0 72E#037F2F1200000000
(1663746539.641475) can0 72E#037F2F1200000000
(1663746539.651386) can0 72E#037F2F1200000000
(1663746539.661438) can0 72E#037F2F1200000000
(1663746539.671404) can0 72E#037F2F1200000000
(1663746539.681518) can0 72E#037F2F1200000000
(1663746539.691403) can0 72E#037F2F1200000000
(1663746539.701490) can0 72E#037F2F1200000000
(1663746539.713129) can0 72E#037F2F1200000000
(1663746539.721543) can0 72E#037F2F1200000000
(1663746539.731441) can0 72E#037F2F1200000000
(1663746539.741447) can0 72E#037F2F1200000000
(1663746539.756128) can0 72E#037F2F1200000000
(1663746539.761572) can0 72E#037F2F1200000000
(1663746539.777168) can0 72E#037F2F1200000000
(1663746539.781664) can0 72E#037F2F1200000000
(1663746539.791495) can0 72E#037F2F1200000000
(1663746539.801586) can0 72E#037F2F1200000000
(1663746539.811523) can0 72E#037F2F1200000000
(1663746539.821671) can0 72E#037F2F1200000000
(1663746539.831545) can0 72E#037F2F1200000000
(1663746539.841553) can0 72E#037F2F1200000000
(1663746539.851547) can0 72E#037F2F1200000000
(1663746539.871571) can0 72E#037F2F1200000000
(1663746539.891826) can0 72E#037F2F1200000000
(1663746539.913942) can0 72E#037F2F1200000000
(1663746539.933234) can0 72E#037F2F1200000000
(1663746539.942354) can0 72E#037F2F1200000000
(1663746539.954370) can0 72E#037F2F1200000000
(1663746539.962563) can0 72E#037F2F1200000000
(1663746539.971725) can0 72E#037F2F1200000000
(1663746539.981694) can0 72E#037F2F1200000000
(1663746539.991689) can0 72E#037F2F1200000000
(1663746540.004006) can0 72E#037F2F1200000000
(1663746540.011715) can0 72E#037F2F1200000000
(1663746540.023553) can0 72E#037F2F1200000000
(1663746540.031786) can0 72E#037F2F1200000000
(1663746540.041737) can0 72E#037F2F1200000000
(1663746540.051735) can0 72E#037F2F1200000000
(1663746540.061856) can0 72E#037F2F1200000000
(1663746540.071810) can0 72E#037F2F1200000000
(1663746540.081824) can0 72E#037F2F1200000000
(1663746540.091799) can0 72E#037F2F1200000000
(1663746540.101809) can0 72E#037F2F1200000000
(1663746540.111793) can0 72E#037F2F1200000000
(1663746540.121902) can0 72E#037F2F1200000000
(1663746540.131816) can0 72E#037F2F1200000000
(1663746540.141869) can0 72E#037F2F1200000000
(1663746540.151828) can0 72E#037F2F1200000000
(1663746540.161986) can0 72E#037F2F1200000000
(1663746540.171849) can0 72E#037F2F1200000000
(1663746540.181932) can0 72E#037F2F1200000000
(1663746540.191878) can0 72E#037F2F1200000000
(1663746540.201895) can0 72E#037F2F1200000000
(1663746540.211903) can0 72E#037F2F1200000000
(1663746540.221956) can0 72E#037F2F1200000000
(1663746540.231917) can0 72E#037F2F1200000000
(1663746540.241986) can0 72E#037F2F1200000000
(1663746540.255975) can0 72E#037F2F1200000000
(1663746540.262310) can0 72E#037F2F1200000000
(1663746540.274730) can0 72E#037F2F1200000000
(1663746540.284670) can0 72E#037F2F1200000000
(1663746540.293582) can0 72E#037F2F1200000000
(1663746540.302923) can0 72E#037F2F1200000000
(1663746540.311979) can0 72E#037F2F1200000000
(1663746540.322031) can0 72E#037F2F1200000000
(1663746540.331993) can0 72E#037F2F1200000000
(1663746540.342027) can0 72E#037F2F1200000000
(1663746540.356830) can0 72E#037F2F1200000000
(1663746540.362170) can0 72E#037F2F1200000000
(1663746540.372046) can0 72E#037F2F1200000000
(1663746540.382045) can0 72E#037F2F1200000000
(1663746540.392916) can0 72E#037F2F1200000000
(1663746540.402938) can0 72E#037F2F1200000000
(1663746540.413998) can0 72E#037F2F1200000000
(1663746540.422220) can0 72E#037F2F1200000000
(1663746540.432113) can0 72E#037F2F1200000000
(1663746540.442112) can0 72E#037F2F1200000000
(1663746540.453930) can0 72E#037F2F1200000000
(1663746540.462178) can0 72E#037F2F1200000000
(1663746540.472997) can0 72E#037F2F1200000000
(1663746540.484428) can0 72E#037F2F1200000000
(1663746540.492165) can0 72E#037F2F1200000000
(1663746540.503073) can0 72E#037F2F1200000000
(1663746540.512985) can0 72E#037F2F1200000000
(1663746540.523050) can0 72E#037F2F1200000000
(1663746540.532984) can0 72E#037F2F1200000000
(1663746540.542248) can0 72E#037F2F1200000000
(1663746540.553934) can0 72E#037F2F1200000000
(1663746540.562263) can0 72E#037F2F1200000000
(1663746540.572220) can0 72E#037F2F1200000000
(1663746540.583211) can0 72E#037F2F1200000000
(1663746540.592981) can0 72E#037F2F1200000000
(1663746540.602915) can0 72E#037F2F1200000000
(1663746540.612986) can0 72E#037F2F1200000000
(1663746540.622999) can0 72E#037F2F1200000000
(1663746540.633903) can0 72E#037F2F1200000000
(1663746540.642401) can0 72E#037F2F1200000000
(1663746540.654905) can0 72E#037F2F1200000000
(1663746540.662427) can0 72E#037F2F1200000000
(1663746540.672308) can0 72E#037F2F1200000000
(1663746540.685095) can0 72E#037F2F1200000000
(1663746540.692328) can0 72E#037F2F1200000000
(1663746540.702917) can0 72E#037F2F1200000000
(1663746540.713984) can0 72E#037F2F1200000000
(1663746540.722506) can0 72E#037F2F1200000000
(1663746540.732362) can0 72E#037F2F1200000000
(1663746540.742400) can0 72E#037F2F1200000000
(1663746540.754082) can0 72E#037F2F1200000000
(1663746540.762447) can0 72E#037F2F1200000000
(1663746540.778926) can0 72E#037F2F1200000000
(1663746540.784625) can0 72E#037F2F1200000000
(1663746540.792418) can0 72E#037F2F1200000000
(1663746540.802925) can0 72E#037F2F1200000000
(1663746540.813402) can0 72E#037F2F1200000000
(1663746540.822563) can0 72E#037F2F1200000000
(1663746540.832983) can0 72E#037F2F1200000000
(1663746540.842519) can0 72E#037F2F1200000000
(1663746540.853920) can0 72E#037F2F1200000000
(1663746540.862544) can0 72E#037F2F1200000000
(1663746540.873027) can0 72E#037F2F1200000000
(1663746540.893262) can0 72E#037F2F1200000000
(1663746540.914483) can0 72E#037F2F1200000000
(1663746540.932699) can0 72E#037F2F1200000000
(1663746540.955827) can0 72E#037F2F1200000000
(1663746540.973122) can0 72E#037F2F1200000000
(1663746540.984177) can0 72E#037F2F1200000000
(1663746540.993336) can0 72E#037F2F1200000000
(1663746541.005028) can0 72E#037F2F1200000000
(1663746541.014949) can0 72E#037F2F1200000000
(1663746541.024509) can0 72E#037F2F1200000000
(1663746541.032706) can0 72E#037F2F1200000000
(1663746541.042670) can0 72E#037F2F1200000000
(1663746541.054872) can0 72E#037F2F1200000000
(1663746541.062773) can0 72E#037F2F1200000000
(1663746541.073000) can0 72E#037F2F1200000000
(1663746541.086131) can0 72E#037F2F1200000000
(1663746541.092757) can0 72E#037F2F1200000000
(1663746541.102956) can0 72E#037F2F1200000000
(1663746541.114823) can0 72E#037F2F1200000000
(1663746541.122831) can0 72E#037F2F1200000000
(1663746541.135888) can0 72E#037F2F1200000000
(1663746541.142866) can0 72E#037F2F1200000000
(1663746541.153920) can0 72E#037F2F1200000000
(1663746541.162814) can0 72E#037F2F1200000000
(1663746541.172775) can0 72E#037F2F1200000000
(1663746541.183992) can0 72E#037F2F1200000000
(1663746541.192976) can0 72E#037F2F1200000000
(1663746541.202924) can0 72E#037F2F1200000000
(1663746541.213004) can0 72E#037F2F1200000000
(1663746541.222887) can0 72E#037F2F1200000000
(1663746541.232824) can0 72E#037F2F1200000000
(1663746541.242838) can0 72E#037F2F1200000000
(1663746541.256029) can0 72E#037F2F1200000000
(1663746541.262950) can0 72E#037F2F1200000000
(1663746541.277548) can0 72E#037F2F1200000000
(1663746541.290483) can0 72E#037F2F1200000000
(1663746541.293428) can0 72E#037F2F1200000000
(1663746541.303920) can0 72E#037F2F1200000000
(1663746541.313976) can0 72E#037F2F1200000000
(1663746541.323016) can0 72E#037F2F1200000000
(1663746541.332918) can0 72E#037F2F1200000000
(1663746541.342927) can0 72E#037F2F1200000000
(1663746541.354822) can0 72E#037F2F1200000000
(1663746541.363053) can0 72E#037F2F1200000000
(1663746541.373205) can0 72E#037F2F1200000000
(1663746541.383266) can0 72E#037F2F1200000000
(1663746541.393071) can0 72E#037F2F1200000000
(1663746541.402980) can0 72E#037F2F1200000000
(1663746541.412984) can0 72E#037F2F1200000000
(1663746541.423045) can0 72E#037F2F1200000000
(1663746541.433004) can0 72E#037F2F1200000000
(1663746541.443072) can0 72E#037F2F1200000000
(1663746541.454910) can0 72E#037F2F1200000000
(1663746541.463154) can0 72E#037F2F1200000000
(1663746541.473046) can0 72E#037F2F1200000000
(1663746541.484876) can0 72E#037F2F1200000000
(1663746541.493114) can0 72E#037F2F1200000000
(1663746541.503121) can0 72E#037F2F1200000000
(1663746541.513095) can0 72E#037F2F1200000000
(1663746541.523984) can0 72E#037F2F1200000000
(1663746541.533162) can0 72E#037F2F1200000000
(1663746541.543149) can0 72E#037F2F1200000000
(1663746541.554921) can0 72E#037F2F1200000000
(1663746541.563245) can0 72E#037F2F1200000000
(1663746541.573157) can0 72E#037F2F1200000000
(1663746541.583302) can0 72E#037F2F1200000000
(1663746541.593220) can0 72E#037F2F1200000000
(1663746541.603187) can0 72E#037F2F1200000000
(1663746541.613967) can0 72E#037F2F1200000000
(1663746541.623256) can0 72E#037F2F1200000000
(1663746541.633273) can0 72E#037F2F1200000000
(1663746541.643252) can0 72E#037F2F1200000000
(1663746541.653933) can0 72E#037F2F1200000000
(1663746541.663213) can0 72E#037F2F1200000000
(1663746541.673273) can0 72E#037F2F1200000000
(1663746541.684252) can0 72E#037F2F1200000000
(1663746541.693301) can0 72E#037F2F1200000000
(1663746541.703282) can0 72E#037F2F1200000000
(1663746541.713327) can0 72E#037F2F1200000000
(1663746541.723332) can0 72E#037F2F1200000000
(1663746541.733345) can0 72E#037F2F1200000000
(1663746541.743310) can0 72E#037F2F1200000000
(1663746541.754141) can0 72E#037F2F1200000000
(1663746541.763379) can0 72E#037F2F1200000000
(1663746541.776113) can0 72E#037F2F1200000000
(1663746541.784538) can0 72E#037F2F1200000000
(1663746541.793435) can0 72E#037F2F1200000000
(1663746541.803371) can0 72E#037F2F1200000000
(1663746541.813400) can0 72E#037F2F1200000000
(1663746541.823415) can0 72E#037F2F1200000000
(1663746541.833428) can0 72E#037F2F1200000000
(1663746541.843389) can0 72E#037F2F1200000000
(1663746541.854993) can0 72E#037F2F1200000000
