(1639293751.944755) can0 720#023E010000000000
(1639293751.951437) can0 728#017E000000000000
(1639293753.939291) can0 720#023E010000000000
(1639293753.945597) can0 728#017E000000000000
(1639293755.938964) can0 720#023E010000000000
(1639293755.940155) can0 728#017E000000000000
(1639293757.939053) can0 720#023E010000000000
(1639293757.948949) can0 728#017E000000000000
(1639293759.939946) can0 720#023E010000000000
(1639293759.946052) can0 728#017E000000000000
(1639293761.939973) can0 720#023E010000000000
(1639293761.943401) can0 728#017E000000000000
(1639293763.940295) can0 720#023E010000000000
(1639293763.942415) can0 728#017E000000000000
(1639293765.939452) can0 720#023E010000000000
(1639293765.947874) can0 728#017E000000000000
(1639293767.939574) can0 720#023E010000000000
(1639293767.942517) can0 728#017E000000000000
(1639293769.940253) can0 720#023E010000000000
(1639293769.943290) can0 728#017E000000000000
(1639293771.939734) can0 720#023E010000000000
(1639293771.946276) can0 728#017E000000000000
(1639293773.939844) can0 720#023E010000000000
(1639293773.947900) can0 728#017E000000000000
(1639293775.939903) can0 720#023E010000000000
(1639293775.941089) can0 728#017E000000000000
(1639293777.940091) can0 720#023E010000000000
(1639293777.947143) can0 728#017E000000000000
(1639293779.940160) can0 720#023E010000000000
(1639293779.943383) can0 728#017E000000000000
(1639293781.942620) can0 720#023E010000000000
(1639293781.952289) can0 728#017E000000000000
(1639293783.940539) can0 720#023E010000000000
(1639293783.946081) can0 728#017E000000000000
(1639293785.940859) can0 720#023E010000000000
(1639293785.944035) can0 728#017E000000000000
(1639293787.940817) can0 720#023E010000000000
(1639293787.945280) can0 728#017E000000000000
(1639293789.941779) can0 720#023E010000000000
(1639293789.946720) can0 728#017E000000000000
(1639293791.940972) can0 720#023E010000000000
(1639293791.943909) can0 728#017E000000000000
(1639293793.940998) can0 720#023E010000000000
(1639293793.951182) can0 728#017E000000000000
(1639293795.941241) can0 720#023E010000000000
(1639293795.942588) can0 728#017E000000000000
(1639293797.941227) can0 720#023E010000000000
(1639293797.944161) can0 728#017E000000000000
(1639293799.941468) can0 720#023E010000000000
(1639293799.944226) can0 728#017E000000000000
(1639293801.941426) can0 720#023E010000000000
(1639293801.950275) can0 728#017E000000000000
(1639293803.942237) can0 720#023E010000000000
(1639293803.944316) can0 728#017E000000000000
(1639293805.941575) can0 720#023E010000000000
(1639293805.946774) can0 728#017E000000000000
(1639293807.941871) can0 720#023E010000000000
(1639293807.949313) can0 728#017E000000000000
(1639293809.941893) can0 720#023E010000000000
(1639293809.946585) can0 728#017E000000000000
(1639293811.942001) can0 720#023E010000000000
(1639293811.952122) can0 728#017E000000000000
(1639293813.942090) can0 720#023E010000000000
(1639293813.947757) can0 728#017E000000000000
(1639293815.942277) can0 720#023E010000000000
(1639293815.951392) can0 728#017E000000000000
(1639293817.942662) can0 720#023E010000000000
(1639293817.948467) can0 728#017E000000000000
(1639293819.944755) can0 720#023E010000000000
(1639293819.955088) can0 728#017E000000000000
(1639293821.943838) can0 720#023E010000000000
(1639293821.945588) can0 728#017E000000000000
(1639293823.943073) can0 720#023E010000000000
(1639293823.954116) can0 728#017E000000000000
(1639293825.943983) can0 720#023E010000000000
(1639293825.953966) can0 728#017E000000000000
(1639293827.943205) can0 720#023E010000000000
(1639293827.947535) can0 728#017E000000000000
(1639293829.943301) can0 720#023E010000000000
(1639293829.950561) can0 728#017E000000000000
(1639293831.944278) can0 720#023E010000000000
(1639293831.945966) can0 728#017E000000000000
(1639293833.943836) can0 720#023E010000000000
(1639293833.945141) can0 728#017E000000000000
(1639293835.943824) can0 720#023E010000000000
(1639293835.946263) can0 728#017E000000000000
(1639293837.944111) can0 720#023E010000000000
(1639293837.952578) can0 728#017E000000000000
(1639293839.944231) can0 720#023E010000000000
(1639293839.952359) can0 728#017E000000000000
(1639293841.946026) can0 720#023E010000000000
(1639293841.949863) can0 728#017E000000000000
(1639293843.944287) can0 720#023E010000000000
(1639293843.948773) can0 728#017E000000000000
(1639293845.944749) can0 720#023E010000000000
(1639293845.952787) can0 728#017E000000000000
(1639293847.945444) can0 720#023E010000000000
(1639293847.949384) can0 728#017E000000000000
(1639293849.944621) can0 720#023E010000000000
(1639293849.951703) can0 728#017E000000000000
(1639293851.944842) can0 720#023E010000000000
(1639293851.946235) can0 728#017E000000000000
(1639293853.944826) can0 720#023E010000000000
(1639293853.953510) can0 728#017E000000000000
(1639293855.944974) can0 720#023E010000000000
(1639293855.953302) can0 728#017E000000000000
(1639293857.945031) can0 720#023E010000000000
(1639293857.949492) can0 728#017E000000000000
(1639293859.945443) can0 720#023E010000000000
(1639293859.954246) can0 728#017E000000000000
(1639293861.945188) can0 720#023E010000000000
(1639293861.955794) can0 728#017E000000000000
(1639293863.946170) can0 720#023E010000000000
(1639293863.949921) can0 728#017E000000000000
(1639293865.945421) can0 720#023E010000000000
(1639293865.947493) can0 728#017E000000000000
(1639293867.945485) can0 720#023E010000000000
(1639293867.952682) can0 728#017E000000000000
(1639293869.946427) can0 720#023E010000000000
(1639293869.951939) can0 728#017E000000000000
(1639293871.946026) can0 720#023E010000000000
(1639293871.953911) can0 728#017E000000000000
(1639293873.945870) can0 720#023E010000000000
(1639293873.951298) can0 728#017E000000000000
(1639293875.946189) can0 720#023E010000000000
(1639293875.952544) can0 728#017E000000000000
(1639293877.946144) can0 720#023E010000000000
(1639293877.956748) can0 728#017E000000000000
(1639293879.946702) can0 720#023E010000000000
(1639293879.950197) can0 728#017E000000000000
(1639293881.946295) can0 720#023E010000000000
(1639293881.956111) can0 728#017E000000000000
(1639293883.946681) can0 720#023E010000000000
(1639293883.949791) can0 728#017E000000000000
(1639293885.947420) can0 720#023E010000000000
(1639293885.957786) can0 728#017E000000000000
(1639293887.946705) can0 720#023E010000000000
(1639293887.950893) can0 728#017E000000000000
(1639293889.947089) can0 720#023E010000000000
(1639293889.953765) can0 728#017E000000000000
(1639293891.947019) can0 720#023E010000000000
(1639293891.956816) can0 728#017E000000000000
(1639293893.949601) can0 720#023E010000000000
(1639293893.961311) can0 728#017E000000000000
(1639293895.947194) can0 720#023E010000000000
(1639293895.957245) can0 728#017E000000000000
(1639293897.947536) can0 720#023E010000000000
(1639293897.955237) can0 728#017E000000000000
(1639293899.947472) can0 720#023E010000000000
(1639293899.959127) can0 728#017E000000000000
(1639293901.947585) can0 720#023E010000000000
(1639293901.957158) can0 728#017E000000000000
(1639293903.947885) can0 720#023E010000000000
(1639293903.954110) can0 728#017E000000000000
(1639293905.947808) can0 720#023E010000000000
(1639293905.957771) can0 728#017E000000000000
(1639293907.949182) can0 720#023E010000000000
(1639293907.952264) can0 728#017E000000000000
(1639293909.947998) can0 720#023E010000000000
(1639293909.957187) can0 728#017E000000000000
(1639293911.948526) can0 720#023E010000000000
(1639293911.951765) can0 728#017E000000000000
(1639293913.948399) can0 720#023E010000000000
(1639293913.950564) can0 728#017E000000000000
(1639293915.948338) can0 720#023E010000000000
(1639293915.954806) can0 728#017E000000000000
(1639293917.950629) can0 720#023E010000000000
(1639293917.959908) can0 728#017E000000000000
(1639293919.948542) can0 720#023E010000000000
(1639293919.952464) can0 728#017E000000000000
(1639293921.948677) can0 720#023E010000000000
(1639293921.950965) can0 728#017E000000000000
(1639293923.948721) can0 720#023E010000000000
(1639293923.955218) can0 728#017E000000000000
(1639293925.949097) can0 720#023E010000000000
(1639293925.958379) can0 728#017E000000000000
(1639293927.949426) can0 720#023E010000000000
(1639293927.953659) can0 728#017E000000000000
(1639293929.949122) can0 720#023E010000000000
(1639293929.953984) can0 728#017E000000000000
(1639293931.949104) can0 720#023E010000000000
(1639293931.955072) can0 728#017E000000000000
(1639293933.950446) can0 720#023E010000000000
(1639293933.954012) can0 728#017E000000000000
(1639293935.949545) can0 720#023E010000000000
(1639293935.954411) can0 728#017E000000000000
(1639293937.949378) can0 720#023E010000000000
(1639293937.956843) can0 728#017E000000000000
(1639293939.949470) can0 720#023E010000000000
(1639293939.951983) can0 728#017E000000000000
(1639293941.949554) can0 720#023E010000000000
(1639293941.956147) can0 728#017E000000000000
(1639293943.950077) can0 720#023E010000000000
(1639293943.958989) can0 728#017E000000000000
(1639293945.949729) can0 720#023E010000000000
(1639293945.956672) can0 728#017E000000000000
(1639293947.949801) can0 720#023E010000000000
(1639293947.957920) can0 728#017E000000000000
(1639293949.950135) can0 720#023E010000000000
(1639293949.954095) can0 728#017E000000000000
(1639293951.950352) can0 720#023E010000000000
(1639293951.955960) can0 728#017E000000000000
(1639293953.950352) can0 720#023E010000000000
(1639293953.961432) can0 728#017E000000000000
(1639293955.950467) can0 720#023E010000000000
(1639293955.958630) can0 728#017E000000000000
(1639293957.951058) can0 720#023E010000000000
(1639293957.954571) can0 728#017E000000000000
(1639293959.950692) can0 720#023E010000000000
(1639293959.956611) can0 728#017E000000000000
(1639293961.951018) can0 720#023E010000000000
(1639293961.958054) can0 728#017E000000000000
(1639293963.950941) can0 720#023E010000000000
(1639293963.952683) can0 728#017E000000000000
(1639293965.953053) can0 720#023E010000000000
(1639293965.955258) can0 728#017E000000000000
(1639293967.951488) can0 720#023E010000000000
(1639293967.956551) can0 728#017E000000000000
(1639293969.951365) can0 720#023E010000000000
(1639293969.953362) can0 728#017E000000000000
(1639293971.951455) can0 720#023E010000000000
(1639293971.956691) can0 728#017E000000000000
(1639293973.951608) can0 720#023E010000000000
(1639293973.953577) can0 728#017E000000000000
(1639293975.952300) can0 720#023E010000000000
(1639293975.962397) can0 728#017E000000000000
(1639293977.951809) can0 720#023E010000000000
(1639293977.960030) can0 728#017E000000000000
(1639293979.952008) can0 720#023E010000000000
(1639293979.962074) can0 728#017E000000000000
(1639293981.953476) can0 720#023E010000000000
(1639293981.957393) can0 728#017E000000000000
(1639293983.952271) can0 720#023E010000000000
(1639293983.956250) can0 728#017E000000000000
(1639293985.952273) can0 720#023E010000000000
(1639293985.954600) can0 728#017E000000000000
(1639293987.953444) can0 720#023E010000000000
(1639293987.959471) can0 728#017E000000000000
(1639293989.952424) can0 720#023E010000000000
(1639293989.957578) can0 728#017E000000000000
(1639293991.952921) can0 720#023E010000000000
(1639293991.954409) can0 728#017E000000000000
(1639293993.952768) can0 720#023E010000000000
(1639293993.958140) can0 728#017E000000000000
(1639293995.954217) can0 720#023E010000000000
(1639293995.962267) can0 728#017E000000000000
(1639293997.953607) can0 720#023E010000000000
(1639293997.960950) can0 728#017E000000000000
(1639293999.953756) can0 720#023E010000000000
(1639293999.958706) can0 728#017E000000000000
(1639294001.953547) can0 720#023E010000000000
(1639294001.955319) can0 728#017E000000000000
(1639294003.953691) can0 720#023E010000000000
(1639294003.961512) can0 728#017E000000000000
(1639294005.948797) can0 720#0210810000000000
(1639294005.953746) can0 720#023E010000000000
(1639294005.956066) can0 728#0250810000000000
(1639294007.953874) can0 720#023E010000000000
(1639294007.955584) can0 728#017E000000000000
(1639294009.954152) can0 720#023E010000000000
(1639294009.960503) can0 728#017E000000000000
(1639294011.954137) can0 720#023E010000000000
(1639294011.960467) can0 728#017E000000000000
(1639294013.723620) can0 720#0210830000000000
(1639294013.728587) can0 728#037F101200000000
(1639294013.954570) can0 720#023E010000000000
(1639294013.955844) can0 728#017E000000000000
(1639294015.954427) can0 720#023E010000000000
(1639294015.958965) can0 728#017E000000000000
(1639294017.956151) can0 720#023E010000000000
(1639294017.957308) can0 728#017E000000000000
(1639294018.688077) can0 720#0210850000000000
(1639294018.694305) can0 728#037F101200000000
(1639294019.954661) can0 720#023E010000000000
(1639294019.958234) can0 728#017E000000000000
(1639294021.954753) can0 720#023E010000000000
(1639294021.962075) can0 728#017E000000000000
(1639294023.955065) can0 720#023E010000000000
(1639294023.962517) can0 728#017E000000000000
(1639294025.955029) can0 720#023E010000000000
(1639294025.963124) can0 728#017E000000000000
(1639294027.863356) can0 720#0210850000000000
(1639294027.873345) can0 728#037F101200000000
(1639294027.955156) can0 720#023E010000000000
(1639294027.963987) can0 728#017E000000000000
(1639294029.955259) can0 720#023E010000000000
(1639294029.962602) can0 728#017E000000000000
(1639294031.955557) can0 720#023E010000000000
(1639294031.957167) can0 728#017E000000000000
(1639294033.956600) can0 720#023E010000000000
(1639294033.960447) can0 728#017E000000000000
(1639294035.955768) can0 720#023E010000000000
(1639294035.963530) can0 728#017E000000000000
(1639294037.956301) can0 720#023E010000000000
(1639294037.957342) can0 728#017E000000000000
(1639294038.356300) can0 720#0210890000000000
(1639294038.364971) can0 728#037F101200000000
(1639294039.955992) can0 720#023E010000000000
(1639294039.959857) can0 728#017E000000000000
(1639294041.956911) can0 720#023E010000000000
(1639294041.961102) can0 728#017E000000000000
(1639294043.807241) can0 720#0210870000000000
(1639294043.818345) can0 728#0250870000000000
(1639294043.956480) can0 720#023E010000000000
(1639294043.962137) can0 728#017E000000000000
(1639294045.956414) can0 720#023E010000000000
(1639294045.965631) can0 728#017E000000000000
(1639294047.956495) can0 720#023E010000000000
(1639294047.964869) can0 728#017E000000000000
(1639294049.956601) can0 720#023E010000000000
(1639294049.959817) can0 728#017E000000000000
(1639294051.956684) can0 720#023E010000000000
(1639294051.966654) can0 728#017E000000000000
(1639294053.956761) can0 720#023E010000000000
(1639294053.958317) can0 728#017E000000000000
(1639294055.957045) can0 720#023E010000000000
(1639294055.964350) can0 728#017E000000000000
(1639294056.854929) can0 720#1270100000000000
(1639294056.855963) can0 728#3000280000000000
(1639294057.956931) can0 720#023E010000000000
(1639294057.964708) can0 728#017E000000000000
(1639294059.957034) can0 720#023E010000000000
(1639294059.965776) can0 728#017E000000000000
(1639294061.957148) can0 720#023E010000000000
(1639294061.960971) can0 728#017E000000000000
(1639294063.957246) can0 720#023E010000000000
(1639294063.959255) can0 728#017E000000000000
(1639294065.957324) can0 720#023E010000000000
(1639294065.963569) can0 728#017E000000000000
(1639294067.957441) can0 720#023E010000000000
(1639294067.960108) can0 728#017E000000000000
(1639294069.957577) can0 720#023E010000000000
(1639294069.963666) can0 728#017E000000000000
(1639294071.957842) can0 720#023E010000000000
(1639294071.962824) can0 728#017E000000000000
(1639294073.958531) can0 720#023E010000000000
(1639294073.962713) can0 728#017E000000000000
(1639294075.958171) can0 720#023E010000000000
(1639294075.961419) can0 728#017E000000000000
(1639294077.958153) can0 720#023E010000000000
(1639294077.967795) can0 728#017E000000000000
(1639294078.756974) can0 720#1127010000000000
(1639294078.758046) can0 728#3000280000000000
(1639294079.958472) can0 720#023E010000000000
(1639294079.962455) can0 728#017E000000000000
(1639294081.958568) can0 720#023E010000000000
(1639294081.966894) can0 728#017E000000000000
(1639294083.960433) can0 720#023E010000000000
(1639294083.970669) can0 728#017E000000000000
(1639294085.958611) can0 720#023E010000000000
(1639294085.968523) can0 728#017E000000000000
(1639294087.518810) can0 720#1270100000000000
(1639294087.519891) can0 728#3000280000000000
(1639294087.960828) can0 720#023E010000000000
(1639294087.963857) can0 728#017E000000000000
(1639294089.960192) can0 720#023E010000000000
(1639294089.963306) can0 728#017E000000000000
(1639294091.958903) can0 720#023E010000000000
(1639294091.966393) can0 728#017E000000000000
(1639294093.958966) can0 720#023E010000000000
(1639294093.963948) can0 728#017E000000000000
(1639294095.959058) can0 720#023E010000000000
(1639294095.967168) can0 728#017E000000000000
(1639294097.959127) can0 720#023E010000000000
(1639294097.964378) can0 728#017E000000000000
(1639294099.959308) can0 720#023E010000000000
(1639294099.969136) can0 728#017E000000000000
(1639294101.960385) can0 720#023E010000000000
(1639294101.967324) can0 728#017E000000000000
(1639294103.959486) can0 720#023E010000000000
(1639294103.966261) can0 728#017E000000000000
(1639294105.959570) can0 720#023E010000000000
(1639294105.967388) can0 728#017E000000000000
(1639294107.450303) can0 720#0170100000000000
(1639294107.453331) can0 728#037F701100000000
(1639294107.959976) can0 720#023E010000000000
(1639294107.963603) can0 728#017E000000000000
(1639294109.959782) can0 720#023E010000000000
(1639294109.962796) can0 728#017E000000000000
(1639294111.959839) can0 720#023E010000000000
(1639294111.966934) can0 728#017E000000000000
(1639294113.093518) can0 720#0270100000000000
(1639294113.100191) can0 728#037F701100000000
(1639294113.960324) can0 720#023E010000000000
(1639294113.963977) can0 728#017E000000000000
(1639294115.960306) can0 720#023E010000000000
(1639294115.971122) can0 728#017E000000000000
(1639294117.335348) can0 720#1270100000000000
(1639294117.336442) can0 728#3000280000000000
(1639294117.960292) can0 720#023E010000000000
(1639294117.961792) can0 728#017E000000000000
(1639294119.960344) can0 720#023E010000000000
(1639294119.965618) can0 728#017E000000000000
(1639294121.960670) can0 720#023E010000000000
(1639294121.969640) can0 728#017E000000000000
(1639294123.960541) can0 720#023E010000000000
(1639294123.969049) can0 728#017E000000000000
(1639294125.960785) can0 720#023E010000000000
(1639294125.970978) can0 728#017E000000000000
(1639294127.960890) can0 720#023E010000000000
(1639294127.970171) can0 728#017E000000000000
(1639294129.960901) can0 720#023E010000000000
(1639294129.971517) can0 728#017E000000000000
(1639294131.961469) can0 720#023E010000000000
(1639294131.969011) can0 728#017E000000000000
(1639294133.961044) can0 720#023E010000000000
(1639294133.969704) can0 728#017E000000000000
(1639294135.961110) can0 720#023E010000000000
(1639294135.969290) can0 728#017E000000000000
(1639294137.961416) can0 720#023E010000000000
(1639294137.966277) can0 728#017E000000000000
(1639294139.961740) can0 720#023E010000000000
(1639294139.963394) can0 728#017E000000000000
(1639294141.961529) can0 720#023E010000000000
(1639294141.969986) can0 728#017E000000000000
(1639294143.961596) can0 720#023E010000000000
(1639294143.968814) can0 728#017E000000000000
(1639294145.966129) can0 720#023E010000000000
(1639294145.968665) can0 728#017E000000000000
(1639294147.961841) can0 720#023E010000000000
(1639294147.970640) can0 728#017E000000000000
(1639294149.961898) can0 720#023E010000000000
(1639294149.968894) can0 728#017E000000000000
(1639294151.962154) can0 720#023E010000000000
(1639294151.967999) can0 728#017E000000000000
(1639294153.962111) can0 720#023E010000000000
(1639294153.966847) can0 728#017E000000000000
(1639294155.962398) can0 720#023E010000000000
(1639294155.964794) can0 728#017E000000000000
(1639294157.962376) can0 720#023E010000000000
(1639294157.967715) can0 728#017E000000000000
(1639294159.962445) can0 720#023E010000000000
(1639294159.971425) can0 728#017E000000000000
(1639294161.962585) can0 720#023E010000000000
(1639294161.963792) can0 728#017E000000000000
(1639294163.962653) can0 720#023E010000000000
(1639294163.970436) can0 728#017E000000000000
(1639294165.962734) can0 720#023E010000000000
(1639294165.969914) can0 728#017E000000000000
(1639294167.962829) can0 720#023E010000000000
(1639294167.971370) can0 728#017E000000000000
(1639294169.963016) can0 720#023E010000000000
(1639294169.967354) can0 728#017E000000000000
(1639294171.963029) can0 720#023E010000000000
(1639294171.971318) can0 728#017E000000000000
(1639294173.963118) can0 720#023E010000000000
(1639294173.971770) can0 728#017E000000000000
(1639294175.963238) can0 720#023E010000000000
(1639294175.973545) can0 728#017E000000000000
(1639294177.963334) can0 720#023E010000000000
(1639294177.974132) can0 728#017E000000000000
(1639294179.963456) can0 720#023E010000000000
(1639294179.973827) can0 728#017E000000000000
(1639294181.965311) can0 720#023E010000000000
(1639294181.967326) can0 728#017E000000000000
(1639294183.963626) can0 720#023E010000000000
(1639294183.965781) can0 728#017E000000000000
(1639294185.963706) can0 720#023E010000000000
(1639294185.972255) can0 728#017E000000000000
(1639294187.964011) can0 720#023E010000000000
(1639294187.973415) can0 728#017E000000000000
(1639294189.963971) can0 720#023E010000000000
(1639294189.969494) can0 728#017E000000000000
(1639294191.964063) can0 720#023E010000000000
(1639294191.969384) can0 728#017E000000000000
(1639294193.964183) can0 720#023E010000000000
(1639294193.973178) can0 728#017E000000000000
(1639294195.964291) can0 720#023E010000000000
(1639294195.972963) can0 728#017E000000000000
(1639294197.964372) can0 720#023E010000000000
(1639294197.972763) can0 728#017E000000000000
(1639294199.964429) can0 720#023E010000000000
(1639294199.967667) can0 728#017E000000000000
(1639294201.964772) can0 720#023E010000000000
(1639294201.969846) can0 728#017E000000000000
(1639294203.965159) can0 720#023E010000000000
(1639294203.969122) can0 728#017E000000000000
(1639294205.964798) can0 720#023E010000000000
(1639294205.970473) can0 728#017E000000000000
(1639294207.964888) can0 720#023E010000000000
(1639294207.972918) can0 728#017E000000000000
(1639294209.964960) can0 720#023E010000000000
(1639294209.973358) can0 728#017E000000000000
(1639294211.965168) can0 720#023E010000000000
(1639294211.967730) can0 728#017E000000000000
(1639294213.965467) can0 720#023E010000000000
(1639294213.966785) can0 728#017E000000000000
(1639294215.965432) can0 720#023E010000000000
(1639294215.969198) can0 728#017E000000000000
(1639294217.965563) can0 720#023E010000000000
(1639294217.976450) can0 728#017E000000000000
(1639294219.965884) can0 720#023E010000000000
(1639294219.968642) can0 728#017E000000000000
(1639294221.965806) can0 720#023E010000000000
(1639294221.971303) can0 728#017E000000000000
(1639294223.965980) can0 720#023E010000000000
(1639294223.973208) can0 728#017E000000000000
(1639294225.967241) can0 720#023E010000000000
(1639294225.970414) can0 728#017E000000000000
(1639294227.966132) can0 720#023E010000000000
(1639294227.972286) can0 728#017E000000000000
(1639294229.966335) can0 720#023E010000000000
(1639294229.969484) can0 728#017E000000000000
(1639294231.966582) can0 720#023E010000000000
(1639294231.968214) can0 728#017E000000000000
(1639294233.966553) can0 720#023E010000000000
(1639294233.968696) can0 728#017E000000000000
(1639294235.966807) can0 720#023E010000000000
(1639294235.971260) can0 728#017E000000000000
(1639294237.966739) can0 720#023E010000000000
(1639294237.974801) can0 728#017E000000000000
(1639294239.968355) can0 720#023E010000000000
(1639294239.971042) can0 728#017E000000000000
(1639294241.966998) can0 720#023E010000000000
(1639294241.970184) can0 728#017E000000000000
(1639294243.967108) can0 720#023E010000000000
(1639294243.976051) can0 728#017E000000000000
(1639294245.968713) can0 720#023E010000000000
(1639294245.970824) can0 728#017E000000000000
(1639294247.967304) can0 720#023E010000000000
(1639294247.972401) can0 728#017E000000000000
(1639294249.967392) can0 720#023E010000000000
(1639294249.976157) can0 728#017E000000000000
(1639294251.967503) can0 720#023E010000000000
(1639294251.973968) can0 728#017E000000000000
(1639294253.967637) can0 720#023E010000000000
(1639294253.975466) can0 728#017E000000000000
(1639294255.967929) can0 720#023E010000000000
(1639294255.972981) can0 728#017E000000000000
(1639294257.970118) can0 720#023E010000000000
(1639294257.975839) can0 728#017E000000000000
(1639294259.968019) can0 720#023E010000000000
(1639294259.977011) can0 728#017E000000000000
(1639294261.968159) can0 720#023E010000000000
(1639294261.975826) can0 728#017E000000000000
(1639294263.968493) can0 720#023E010000000000
(1639294263.971396) can0 728#017E000000000000
(1639294265.968460) can0 720#023E010000000000
(1639294265.971003) can0 728#017E000000000000
(1639294267.969469) can0 720#023E010000000000
(1639294267.973114) can0 728#017E000000000000
(1639294269.968662) can0 720#023E010000000000
(1639294269.974552) can0 728#017E000000000000
