(1663863037.154523) can0 2E3#0000000000000000
(1663863037.159015) can0 2E2#0000000000000000
(1663863037.160011) can0 2FC#0000000000000046
(1663863037.161103) can0 307#0000008000000000
(1663863037.162042) can0 313#8400000000000000
(1663863037.162989) can0 353#33810000118E0000
(1663863037.163989) can0 315#00000007FF000000
(1663863037.172547) can0 128#0080000000000000
(1663863037.173535) can0 340#0000000000000000
(1663863037.189196) can0 55C#0102000000000000
(1663863037.212530) can0 330#0000000200000000
(1663863037.213480) can0 353#33810000118E0000
(1663863037.237993) can0 2E6#064E000000000000
(1663863037.239008) can0 2EC#029F0303064E0000
(1663863037.240002) can0 2EF#04E3064E081D0000
(1663863037.240978) can0 2F2#0B0C0A0C0947C804
(1663863037.241996) can0 30F#110D070F12020000
(1663863037.243030) can0 311#1F9F9F0A1F1F0701
(1663863037.258969) can0 2FC#0000000000000046
(1663863037.262444) can0 353#33810000118E0000
(1663863037.270149) can0 360#0000000000000000
(1663863037.271154) can0 365#0000000000000000
(1663863037.272494) can0 128#0080000000000000
(1663863037.273481) can0 330#0000000200000000
(1663863037.274480) can0 340#0000000000000000
(1663863037.282414) can0 6F6#15E57A995F7F2C66
(1663863037.284990) can0 501#0C026E0000000000
(1663863037.294824) can0 409#24880008200A4921
(1663863037.295796) can0 403#020200242400F400
(1663863037.296788) can0 406#0504000700000000
(1663863037.303324) can0 2CA#0000000000000000
(1663863037.312444) can0 353#33810000118E0000
(1663863037.332481) can0 330#0000000200000000
(1663863037.358963) can0 2FC#0000000000000046
(1663863037.362461) can0 353#33810000118E0000
(1663863037.364363) can0 2D4#0000000010100000
(1663863037.368820) can0 50C#11026E0000000000
(1663863037.372508) can0 128#0080000000000000
(1663863037.373510) can0 340#0000000000000000
(1663863037.392497) can0 330#0000000200000000
(1663863037.403339) can0 2E1#4000000000000000
(1663863037.404343) can0 2E3#0000000000000000
(1663863037.408935) can0 2E2#0000000000000000
(1663863037.409944) can0 313#8400000000000000
(1663863037.410958) can0 315#00000007FF000000
(1663863037.412461) can0 353#33810000118E0000
(1663863037.438554) can0 2E6#064E000000000000
(1663863037.439571) can0 2EC#029F0303064E0000
(1663863037.440571) can0 2EF#04E3064E081D0000
(1663863037.441565) can0 2F2#0B0C0A0C0947C804
(1663863037.442578) can0 30F#110D070F12020000
(1663863037.443610) can0 311#1F9F9F0A1F1F0701
(1663863037.452490) can0 330#0000000200000000
(1663863037.458973) can0 2FC#0000000000000046
(1663863037.462486) can0 353#33810000118E0000
(1663863037.463454) can0 511#41026E0000040400
(1663863037.472503) can0 128#0080000000000000
(1663863037.473504) can0 340#0000000000000000
(1663863037.503351) can0 2CA#0000000000000000
(1663863037.512492) can0 330#0000000200000000
(1663863037.513444) can0 353#33810000118E0000
(1663863037.522420) can0 6F6#15E57A995F7F2C66
(1663863037.532513) can0 640#0000000000000000
(1663863037.545082) can0 409#24880008200A4921
(1663863037.558984) can0 2FC#0000000000000046
(1663863037.562489) can0 353#33810000118E0000
(1663863037.563467) can0 541#5502000000000000
(1663863037.572544) can0 128#0080000000000000
(1663863037.573532) can0 330#0000000200000000
(1663863037.574535) can0 340#0000000000000000
(1663863037.612479) can0 353#33810000118E0000
(1663863037.614386) can0 2D4#0000000010100000
(1663863037.632513) can0 330#0000000200000000
(1663863037.638052) can0 2E6#064E000000000000
(1663863037.639071) can0 2EC#029F0303064E0000
(1663863037.640075) can0 2EF#04E3064E081D0000
(1663863037.641063) can0 2F2#0B0C0A0C0947C804
(1663863037.642134) can0 2F4#3000FFFFFFFC0000
(1663863037.643210) can0 2F9#0000000000000000
(1663863037.644241) can0 309#2020202020202020
(1663863037.645278) can0 30B#0000020000130804
(1663863037.646324) can0 30D#0000000140160000
(1663863037.647330) can0 30F#110D070F12020000
(1663863037.648361) can0 311#1F9F9F0A1F1F0701
(1663863037.649352) can0 317#5739453836313031
(1663863037.650430) can0 6FC#0000000000000000
(1663863037.653380) can0 2E1#4000000000000000
(1663863037.654382) can0 2E3#0000000000000000
(1663863037.655357) can0 555#5C12000000000000
(1663863037.658986) can0 2E2#0000000000000000
(1663863037.660016) can0 2FC#0000000000000046
(1663863037.661039) can0 307#0000008000000000
(1663863037.662049) can0 313#8400000000000000
(1663863037.662998) can0 353#33810000118E0000
(1663863037.663997) can0 315#00000007FF000000
(1663863037.672500) can0 128#0080000000000000
(1663863037.673502) can0 340#0000000000000000
(1663863037.692489) can0 330#0000000200000000
(1663863037.703355) can0 2CA#0000000000000000
(1663863037.712455) can0 353#33810000118E0000
(1663863037.749089) can0 55C#0102000000000000
(1663863037.752485) can0 330#0000000200000000
(1663863037.758975) can0 2FC#0000000000000046
(1663863037.762453) can0 353#33810000118E0000
(1663863037.763363) can0 6F6#15E57A995F7F2C66
(1663863037.772498) can0 128#0080000000000000
(1663863037.773517) can0 340#0000000000000000
(1663863037.781679) can0 360#0000000000000000
(1663863037.782684) can0 365#0000000000000000
(1663863037.795360) can0 409#24880008200A4921
(1663863037.796333) can0 403#020200242400F400
(1663863037.797324) can0 406#0504000700000000
(1663863037.812488) can0 330#0000000200000000
(1663863037.813435) can0 353#33810000118E0000
(1663863037.838550) can0 2E6#064E000000000000
(1663863037.839566) can0 2EC#029F0303064E0000
(1663863037.840563) can0 2EF#04E3064E081D0000
(1663863037.841556) can0 2F2#0B0C0A0C0947C804
(1663863037.842570) can0 30F#110D070F12020000
(1663863037.843600) can0 311#1F9F9F0A1F1F0701
(1663863037.845608) can0 501#0C026E0000000000
(1663863037.858977) can0 2FC#0000000000000046
(1663863037.862447) can0 353#33810000118E0000
(1663863037.864365) can0 2D4#0000000010100000
(1663863037.872493) can0 128#0080000000000000
(1663863037.873483) can0 330#0000000200000000
(1663863037.874482) can0 340#0000000000000000
(1663863037.903358) can0 2CA#0000000000000000
(1663863037.904347) can0 2E1#4000000000000000
(1663863037.905356) can0 2E3#0000000000000000
(1663863037.908955) can0 2E2#0000000000000000
(1663863037.909964) can0 313#8400000000000000
(1663863037.910977) can0 315#00000007FF000000
(1663863037.912449) can0 353#33810000118E0000
(1663863037.929116) can0 50C#11026E0000000000
(1663863037.932478) can0 330#0000000200000000
(1663863037.958994) can0 2FC#0000000000000046
(1663863037.962447) can0 353#33810000118E0000
(1663863037.972494) can0 128#0080000000000000
(1663863037.973497) can0 340#0000000000000000
(1663863037.992484) can0 330#0000000200000000
(1663863038.002429) can0 6F6#15900FEC2A0C5915
(1663863038.012473) can0 353#33810000118E0000
(1663863038.022505) can0 511#41026E0000040400
(1663863038.037984) can0 2E6#064E000000000000
(1663863038.039008) can0 2EC#029F0303064E0000
(1663863038.040006) can0 2EF#04E3064E081D0000
(1663863038.041005) can0 2F2#0B0C0A0C0947C804
(1663863038.042013) can0 30F#110D070F12020000
(1663863038.043069) can0 311#1F9F9F0A1F1F0701
(1663863038.045699) can0 409#24880008200A4921
(1663863038.052482) can0 330#0000000200000000
(1663863038.058987) can0 2FC#0000000000000046
(1663863038.062453) can0 353#33810000118E0000
(1663863038.072489) can0 128#0080000000000000
(1663863038.073490) can0 340#0000000000000000
(1663863038.103372) can0 2CA#0000000000000000
(1663863038.112485) can0 330#0000000200000000
(1663863038.113440) can0 353#33810000118E0000
(1663863038.114430) can0 2D4#0000000010100000
(1663863038.123423) can0 541#5502000000000000
(1663863038.138027) can0 2F4#3000FFFFFFFC0000
(1663863038.139100) can0 2F9#0000000000000000
(1663863038.140128) can0 309#2020202020202020
(1663863038.141167) can0 30B#0000020000130804
(1663863038.142217) can0 30D#0000000140160000
(1663863038.153360) can0 2E1#4000000000000000
(1663863038.154366) can0 2E3#0000000000000000
(1663863038.158984) can0 2E2#0000000000000000
(1663863038.160005) can0 2FC#0000000000000046
(1663863038.161028) can0 307#0000008000000000
(1663863038.162045) can0 313#8400000000000000
(1663863038.162994) can0 353#33810000118E0000
(1663863038.163986) can0 315#00000007FF000000
(1663863038.172491) can0 128#0080000000000000
(1663863038.173484) can0 330#0000000200000000
(1663863038.174479) can0 340#0000000000000000
(1663863038.212449) can0 353#33810000118E0000
(1663863038.214401) can0 555#5C12000000000000
(1663863038.232506) can0 330#0000000200000000
(1663863038.239773) can0 2E6#064E000000000000
(1663863038.240795) can0 2EC#029F0303064E0000
(1663863038.241789) can0 2EF#04E3064E081D0000
(1663863038.242699) can0 6F6#15900FEC2A0C5915
(1663863038.243634) can0 2F2#0B0C0A0C0947C804
(1663863038.244670) can0 30F#110D070F12020000
(1663863038.245682) can0 311#1F9F9F0A1F1F0701
(1663863038.258992) can0 2FC#0000000000000046
(1663863038.262436) can0 353#33810000118E0000
(1663863038.272487) can0 128#0080000000000000
(1663863038.273485) can0 340#0000000000000000
(1663863038.292474) can0 330#0000000200000000
(1663863038.293484) can0 360#0000000000000000
(1663863038.294484) can0 365#0000000000000000
(1663863038.295979) can0 409#24880008200A4921
(1663863038.296957) can0 403#020200242400F400
(1663863038.297946) can0 406#0504000700000000
(1663863038.303363) can0 2CA#0000000000000000
(1663863038.309076) can0 55C#0102000000000000
(1663863038.312433) can0 353#33810000118E0000
(1663863038.352478) can0 330#0000000200000000
(1663863038.358996) can0 2FC#0000000000000046
(1663863038.362441) can0 353#33810000118E0000
(1663863038.364377) can0 2D4#0000000010100000
(1663863038.372481) can0 128#0080000000000000
(1663863038.373481) can0 340#0000000000000000
(1663863038.403371) can0 2E1#4000000000000000
(1663863038.404376) can0 2E3#0000000000000000
(1663863038.406221) can0 501#0C026E0000000000
(1663863038.408973) can0 2E2#0000000000000000
(1663863038.409989) can0 313#8400000000000000
(1663863038.411003) can0 315#00000007FF000000
(1663863038.412475) can0 330#0000000200000000
(1663863038.413432) can0 353#33810000118E0000
(1663863038.439066) can0 2E6#064E000000000000
(1663863038.440083) can0 2EC#029F0303064E0000
(1663863038.441082) can0 2EF#04E3064E081D0000
(1663863038.442071) can0 2F2#0B0C0A0C0947C804
(1663863038.443119) can0 30F#110D070F12020000
(1663863038.444120) can0 311#1F9F9F0A1F1F0701
(1663863038.458998) can0 2FC#0000000000000046
(1663863038.462437) can0 353#33810000118E0000
(1663863038.472486) can0 128#0080000000000000
(1663863038.473477) can0 330#0000000200000000
(1663863038.474475) can0 340#0000000000000000
(1663863038.482420) can0 6F6#15900FEC2A0C5915
(1663863038.490369) can0 50C#11026E0000000000
(1663863038.503371) can0 2CA#0000000000000000
(1663863038.512434) can0 353#33810000118E0000
(1663863038.532472) can0 330#0000000200000000
(1663863038.533482) can0 640#0000000000000000
(1663863038.546212) can0 409#24880008200A4921
(1663863038.558999) can0 2FC#0000000000000046
(1663863038.562455) can0 353#33810000118E0000
(1663863038.572536) can0 128#0080000000000000
(1663863038.573499) can0 340#0000000000000000
(1663863038.582512) can0 511#41026E0000040400
(1663863038.592492) can0 330#0000000200000000
(1663863038.612454) can0 353#33810000118E0000
(1663863038.614406) can0 2D4#0000000010100000
(1663863038.640280) can0 2E6#064E000000000000
(1663863038.641300) can0 2EC#029F0303064E0000
(1663863038.642299) can0 2EF#04E3064E081D0000
(1663863038.643298) can0 2F2#0B0C0A0C0947C804
(1663863038.644365) can0 2F4#3000FFFFFFFC0000
(1663863038.645435) can0 2F9#0000000000000000
(1663863038.646469) can0 309#2020202020202020
(1663863038.647506) can0 30B#0000020000130804
(1663863038.648552) can0 30D#0000000140160000
(1663863038.649562) can0 30F#110D070F12020000
(1663863038.650591) can0 311#1F9F9F0A1F1F0701
(1663863038.651576) can0 317#5739453836313031
(1663863038.652590) can0 330#0000000200000000
(1663863038.653564) can0 2E1#4000000000000000
(1663863038.654566) can0 6FC#0000000000000000
(1663863038.655559) can0 2E3#0000000000000000
(1663863038.659019) can0 2E2#0000000000000000
(1663863038.660044) can0 2FC#0000000000000046
(1663863038.661072) can0 307#0000008000000000
(1663863038.662083) can0 313#8400000000000000
(1663863038.663034) can0 353#33810000118E0000
(1663863038.664014) can0 315#00000007FF000000
(1663863038.672502) can0 128#0080000000000000
(1663863038.673502) can0 340#0000000000000000
(1663863038.683438) can0 541#5502000000000000
(1663863038.703379) can0 2CA#0000000000000000
(1663863038.712473) can0 330#0000000200000000
(1663863038.713427) can0 353#33810000118E0000
(1663863038.722417) can0 6F6#15900FEC2A0C5915
(1663863038.759026) can0 2FC#0000000000000046
(1663863038.762459) can0 353#33810000118E0000
(1663863038.772477) can0 128#0080000000000000
(1663863038.773467) can0 330#0000000200000000
(1663863038.774465) can0 340#0000000000000000
(1663863038.775440) can0 555#5C12000000000000
(1663863038.796505) can0 409#24880008200A4921
(1663863038.797475) can0 403#020200242400F400
(1663863038.798468) can0 406#0504000700000000
(1663863038.804727) can0 360#0000000000000000
(1663863038.805730) can0 365#0000000000000000
(1663863038.812434) can0 353#33810000118E0000
(1663863038.832467) can0 330#0000000200000000
(1663863038.842664) can0 2E6#064E000000000000
(1663863038.843686) can0 2EC#029F0303064E0000
(1663863038.844687) can0 2EF#04E3064E081D0000
(1663863038.845678) can0 2F2#0B0C0A0C0947C804
(1663863038.846693) can0 30F#110D070F12020000
(1663863038.847724) can0 311#1F9F9F0A1F1F0701
(1663863038.859014) can0 2FC#0000000000000046
(1663863038.862429) can0 353#33810000118E0000
(1663863038.864395) can0 2D4#0000000010100000
(1663863038.869114) can0 55C#0102000000000000
(1663863038.872474) can0 128#0080000000000000
(1663863038.873476) can0 340#0000000000000000
(1663863038.892488) can0 330#0000000200000000
(1663863038.903385) can0 2CA#0000000000000000
(1663863038.904373) can0 2E1#4000000000000000
(1663863038.905381) can0 2E3#0000000000000000
(1663863038.909005) can0 2E2#0000000000000000
(1663863038.910011) can0 313#8400000000000000
(1663863038.911027) can0 315#00000007FF000000
(1663863038.912426) can0 353#33810000118E0000
(1663863038.952469) can0 330#0000000200000000
(1663863038.959017) can0 2FC#0000000000000046
(1663863038.962433) can0 353#33810000118E0000
(1663863038.963371) can0 6F6#15831CFF39184A07
(1663863038.966881) can0 501#0C026E0000000000
(1663863038.972481) can0 128#0080000000000000
(1663863038.973481) can0 340#0000000000000000
(1663863039.012471) can0 330#0000000200000000
(1663863039.013426) can0 353#33810000118E0000
(1663863039.042209) can0 2E6#064E000000000000
(1663863039.043230) can0 2EC#029F0303064E0000
(1663863039.044228) can0 2EF#04E3064E081D0000
(1663863039.045218) can0 2F2#0B0C0A0C0947C804
(1663863039.046232) can0 30F#110D070F12020000
(1663863039.047176) can0 409#24880008200A4921
(1663863039.048134) can0 311#1F9F9F0A1F1F0701
(1663863039.053201) can0 50C#11026E0000000000
(1663863039.059022) can0 2FC#0000000000000046
(1663863039.062429) can0 353#33810000118E0000
(1663863039.072467) can0 128#0080000000000000
(1663863039.073461) can0 330#0000000200000000
(1663863039.074458) can0 340#0000000000000000
(1663863039.103398) can0 2CA#0000000000000000
(1663863039.112450) can0 353#33810000118E0000
(1663863039.114408) can0 2D4#0000000010100000
(1663863039.132467) can0 330#0000000200000000
(1663863039.143038) can0 2F4#3000FFFFFFFC0000
(1663863039.144110) can0 2F9#0000000000000000
(1663863039.145140) can0 309#2020202020202020
(1663863039.146182) can0 30B#0000020000130804
(1663863039.147226) can0 30D#0000000140160000
(1663863039.152474) can0 511#41026E0000040400
(1663863039.153463) can0 2E1#4000000000000000
(1663863039.154465) can0 2E3#0000000000000000
(1663863039.159018) can0 2E2#0000000000000000
(1663863039.160043) can0 2FC#0000000000000046
(1663863039.161066) can0 307#0000008000000000
(1663863039.162080) can0 313#8400000000000000
(1663863039.163067) can0 353#33810000118E0000
(1663863039.164020) can0 315#00000007FF000000
(1663863039.172466) can0 128#0080000000000000
(1663863039.173472) can0 340#0000000000000000
(1663863039.192463) can0 330#0000000200000000
(1663863039.202407) can0 6F6#15831CFF39184A07
(1663863039.212429) can0 353#33810000118E0000
(1663863039.242264) can0 2E6#064E000000000000
(1663863039.243267) can0 2EC#029F0303064E0000
(1663863039.244239) can0 541#5502000000000000
(1663863039.245188) can0 2EF#04E3064E081D0000
(1663863039.246186) can0 2F2#0B0C0A0C0947C804
(1663863039.247195) can0 30F#110D070F12020000
(1663863039.248222) can0 311#1F9F9F0A1F1F0701
(1663863039.252453) can0 330#0000000200000000
(1663863039.259029) can0 2FC#0000000000000046
(1663863039.262419) can0 353#33810000118E0000
(1663863039.272469) can0 128#0080000000000000
(1663863039.273468) can0 340#0000000000000000
(1663863039.297066) can0 409#24880008200A4921
(1663863039.298039) can0 403#020200242400F400
(1663863039.299028) can0 406#0504000700000000
(1663863039.303390) can0 2CA#0000000000000000
(1663863039.312460) can0 330#0000000200000000
(1663863039.313411) can0 353#33810000118E0000
(1663863039.316295) can0 360#0000000000000000
(1663863039.317303) can0 365#0000000000000000
(1663863039.334431) can0 555#5C12000000000000
(1663863039.359159) can0 2FC#0000000000000046
(1663863039.362423) can0 353#33810000118E0000
(1663863039.364426) can0 2D4#0000000010100000
(1663863039.372469) can0 128#0080000000000000
(1663863039.373464) can0 330#0000000200000000
(1663863039.374458) can0 340#0000000000000000
(1663863039.403401) can0 2E1#4000000000000000
(1663863039.404395) can0 2E3#0000000000000000
(1663863039.409027) can0 2E2#0000000000000000
(1663863039.410041) can0 313#8400000000000000
(1663863039.411058) can0 315#00000007FF000000
(1663863039.412416) can0 353#33810000118E0000
(1663863039.429137) can0 55C#0102000000000000
(1663863039.432459) can0 330#0000000200000000
(1663863039.442431) can0 6F6#15831CFF39184A07
(1663863039.443406) can0 2E6#064E000000000000
(1663863039.444431) can0 2EC#029F0303064E0000
(1663863039.445427) can0 2EF#04E3064E081D0000
(1663863039.446418) can0 2F2#0B0C0A0C0947C804
(1663863039.447434) can0 30F#110D070F12020000
(1663863039.448464) can0 311#1F9F9F0A1F1F0701
(1663863039.459040) can0 2FC#0000000000000046
(1663863039.462416) can0 353#33810000118E0000
(1663863039.472470) can0 128#0080000000000000
(1663863039.473466) can0 340#0000000000000000
(1663863039.492479) can0 330#0000000200000000
(1663863039.503414) can0 2CA#0000000000000000
(1663863039.512437) can0 353#33810000118E0000
(1663863039.522499) can0 640#0000000000000000
(1663863039.527470) can0 501#0C026E0000000000
(1663863039.547373) can0 409#24880008200A4921
(1663863039.552498) can0 330#0000000200000000
(1663863039.559068) can0 2FC#0000000000000046
(1663863039.562438) can0 353#33810000118E0000
(1663863039.572479) can0 128#0080000000000000
(1663863039.573482) can0 340#0000000000000000
(1663863039.612457) can0 330#0000000200000000
(1663863039.613408) can0 353#33810000118E0000
(1663863039.614381) can0 50C#11026E0000000000
(1663863039.615371) can0 2D4#0000000010100000
(1663863039.642735) can0 2E6#064E000000000000
(1663863039.643755) can0 2EC#029F0303064E0000
(1663863039.644754) can0 2EF#04E3064E081D0000
(1663863039.645745) can0 2F2#0B0C0A0C0947C804
(1663863039.646816) can0 2F4#3000FFFFFFFC0000
(1663863039.647886) can0 2F9#0000000000000000
(1663863039.648938) can0 309#2020202020202020
(1663863039.649957) can0 30B#0000020000130804
(1663863039.651004) can0 30D#0000000140160000
(1663863039.652015) can0 30F#110D070F12020000
(1663863039.653071) can0 311#1F9F9F0A1F1F0701
(1663863039.654026) can0 2E1#4000000000000000
(1663863039.654937) can0 317#5739453836313031
(1663863039.655929) can0 2E3#0000000000000000
(1663863039.656936) can0 6FC#0000000000000000
(1663863039.659032) can0 2E2#0000000000000000
(1663863039.660055) can0 2FC#0000000000000046
(1663863039.661079) can0 307#0000008000000000
(1663863039.662096) can0 313#8400000000000000
(1663863039.663070) can0 353#33810000118E0000
(1663863039.664056) can0 315#00000007FF000000
(1663863039.672460) can0 128#0080000000000000
(1663863039.673456) can0 330#0000000200000000
(1663863039.674450) can0 340#0000000000000000
(1663863039.682409) can0 6F6#15831CFF39184A07
(1663863039.703404) can0 2CA#0000000000000000
(1663863039.712414) can0 353#33810000118E0000
(1663863039.713376) can0 511#41026E0000040400
(1663863039.732448) can0 330#0000000200000000
(1663863039.759062) can0 2FC#0000000000000046
(1663863039.762410) can0 353#33810000118E0000
(1663863039.772486) can0 128#0080000000000000
(1663863039.773486) can0 340#0000000000000000
(1663863039.792440) can0 330#0000000200000000
(1663863039.797691) can0 409#24880008200A4921
(1663863039.798667) can0 403#020200242400F400
(1663863039.799656) can0 406#0504000700000000
(1663863039.803466) can0 541#5502000000000000
(1663863039.812406) can0 353#33810000118E0000
(1663863039.827754) can0 360#0000000000000000
(1663863039.828757) can0 365#0000000000000000
(1663863039.844231) can0 2E6#064E000000000000
(1663863039.845252) can0 2EC#029F0303064E0000
(1663863039.846251) can0 2EF#04E3064E081D0000
(1663863039.847243) can0 2F2#0B0C0A0C0947C804
(1663863039.848257) can0 30F#110D070F12020000
(1663863039.849287) can0 311#1F9F9F0A1F1F0701
(1663863039.852441) can0 330#0000000200000000
(1663863039.859048) can0 2FC#0000000000000046
(1663863039.862422) can0 353#33810000118E0000
(1663863039.864424) can0 2D4#0000000010100000
(1663863039.872453) can0 128#0080000000000000
(1663863039.873456) can0 340#0000000000000000
(1663863039.894438) can0 555#5C12000000000000
(1663863039.903408) can0 2CA#0000000000000000
(1663863039.904396) can0 2E1#4000000000000000
(1663863039.905404) can0 2E3#0000000000000000
(1663863039.909042) can0 2E2#0000000000000000
(1663863039.910058) can0 313#8400000000000000
(1663863039.911075) can0 315#00000007FF000000
(1663863039.912448) can0 330#0000000200000000
(1663863039.913405) can0 353#33810000118E0000
(1663863039.922379) can0 6F6#15BE21C20423773B
(1663863039.959061) can0 2FC#0000000000000046
(1663863039.962409) can0 353#33810000118E0000
(1663863039.972449) can0 128#0080000000000000
(1663863039.973441) can0 330#0000000200000000
(1663863039.974437) can0 340#0000000000000000
(1663863039.989167) can0 55C#0102000000000000
(1663863040.012428) can0 353#33810000118E0000
(1663863040.032469) can0 330#0000000200000000
(1663863040.043826) can0 2E6#064E000000000000
(1663863040.044847) can0 2EC#029F0303064E0000
(1663863040.045849) can0 2EF#04E3064E081D0000
(1663863040.046842) can0 2F2#0B0C0A0C0947C804
(1663863040.047856) can0 30F#110D070F12020000
(1663863040.048797) can0 409#24880008200A4921
(1663863040.049765) can0 311#1F9F9F0A1F1F0701
(1663863040.059079) can0 2FC#0000000000000046
(1663863040.062429) can0 353#33810000118E0000
(1663863040.072470) can0 128#0080000000000000
(1663863040.073469) can0 340#0000000000000000
(1663863040.088100) can0 501#0C026E0000000000
(1663863040.092439) can0 330#0000000200000000
(1663863040.103418) can0 2CA#0000000000000000
(1663863040.112404) can0 353#33810000118E0000
(1663863040.114432) can0 2D4#0000000010100000
(1663863040.143623) can0 2F4#3000FFFFFFFC0000
(1663863040.144690) can0 2F9#0000000000000000
(1663863040.145722) can0 309#2020202020202020
(1663863040.146761) can0 30B#0000020000130804
(1663863040.147807) can0 30D#0000000140160000
(1663863040.152440) can0 330#0000000200000000
(1663863040.153424) can0 2E1#4000000000000000
(1663863040.154429) can0 2E3#0000000000000000
(1663863040.159055) can0 2E2#0000000000000000
(1663863040.160076) can0 2FC#0000000000000046
(1663863040.161100) can0 307#0000008000000000
(1663863040.162117) can0 313#8400000000000000
(1663863040.163083) can0 353#33810000118E0000
(1663863040.164057) can0 315#00000007FF000000
(1663863040.164969) can0 6F6#15BE21C20423773B
(1663863040.172447) can0 128#0080000000000000
(1663863040.173451) can0 340#0000000000000000
(1663863040.176831) can0 50C#11026E0000000000
(1663863040.212470) can0 330#0000000200000000
(1663863040.213423) can0 353#33810000118E0000
(1663863040.246426) can0 2E6#064E000000000000
(1663863040.247428) can0 2EC#029F0303064E0000
(1663863040.248441) can0 2EF#04E3064E081D0000
(1663863040.249423) can0 2F2#0B0C0A0C0947C804
(1663863040.250434) can0 30F#110D070F12020000
(1663863040.251465) can0 311#1F9F9F0A1F1F0701
(1663863040.259068) can0 2FC#0000000000000046
(1663863040.262397) can0 353#33810000118E0000
(1663863040.272450) can0 128#0080000000000000
(1663863040.273444) can0 330#0000000200000000
(1663863040.274434) can0 340#0000000000000000
(1663863040.275394) can0 511#41026E0000040400
(1663863040.298206) can0 409#24880008200A4921
(1663863040.299154) can0 403#020200252500F400
(1663863040.300144) can0 406#0504000700000000
(1663863040.303415) can0 2CA#0000000000000000
(1663863040.312403) can0 353#33810000118E0000
(1663863040.332434) can0 330#0000000200000000
(1663863040.339317) can0 360#0000000000000000
(1663863040.340321) can0 365#0000000000000000
(1663863040.359068) can0 2FC#0000000000000046
(1663863040.362403) can0 353#33810000118E0000
(1663863040.363476) can0 541#5502000000000000
(1663863040.364464) can0 2D4#0000000010100000
(1663863040.372443) can0 128#0080000000000000
(1663863040.373443) can0 340#0000000000000000
(1663863040.392431) can0 330#0000000200000000
(1663863040.402358) can0 6F6#15BE21C20423773B
(1663863040.403417) can0 2E1#4000000000000000
(1663863040.404420) can0 2E3#0000000000000000
(1663863040.409062) can0 2E2#0000000000000000
(1663863040.410076) can0 313#8400000000000000
(1663863040.411091) can0 315#00000007FF000000
(1663863040.412404) can0 353#33810000118E0000
(1663863040.445860) can0 2E6#064E000000000000
(1663863040.446883) can0 2EC#029F0303064E0000
(1663863040.447883) can0 2EF#04E3064E081D0000
(1663863040.448872) can0 2F2#0B0C0A0C0947C804
(1663863040.449887) can0 30F#110D070F12020000
(1663863040.450919) can0 311#1F9F9F0A1F1F0701
(1663863040.452433) can0 330#0000000200000000
(1663863040.454459) can0 555#5C12000000000000
(1663863040.459070) can0 2FC#0000000000000046
(1663863040.462404) can0 353#33810000118E0000
(1663863040.472442) can0 128#0080000000000000
(1663863040.473457) can0 340#0000000000000000
(1663863040.503454) can0 2CA#0000000000000000
(1663863040.512457) can0 330#0000000200000000
(1663863040.513413) can0 353#33810000118E0000
(1663863040.514414) can0 640#0000000000000000
(1663863040.548521) can0 409#24880008200A4921
(1663863040.549533) can0 55C#0102000000000000
(1663863040.559100) can0 2FC#0000000000000046
(1663863040.562417) can0 353#33810000118E0000
(1663863040.572465) can0 128#0080000000000000
(1663863040.573458) can0 330#0000000200000000
(1663863040.574454) can0 340#0000000000000000
(1663863040.612421) can0 353#33810000118E0000
(1663863040.614459) can0 2D4#0000000010100000
(1663863040.632454) can0 330#0000000200000000
(1663863040.642380) can0 6F6#15BE21C20423773B
(1663863040.646692) can0 2E6#064E000000000000
(1663863040.647719) can0 2EC#029F0303064E0000
(1663863040.648720) can0 2EF#04E3064E081D0000
(1663863040.649692) can0 501#0C026E0000000000
(1663863040.650627) can0 2F2#0B0C0A0C0947C804
(1663863040.651700) can0 2F4#3000FFFFFFFC0000
(1663863040.652762) can0 2F9#0000000000000000
(1663863040.653755) can0 2E1#4000000000000000
(1663863040.654715) can0 309#2020202020202020
(1663863040.655704) can0 2E3#0000000000000000
(1663863040.656670) can0 30B#0000020000130804
(1663863040.657719) can0 30D#0000000140160000
(1663863040.658724) can0 30F#110D070F12020000
(1663863040.659715) can0 2E2#0000000000000000
(1663863040.660679) can0 311#1F9F9F0A1F1F0701
(1663863040.661674) can0 2FC#0000000000000046
(1663863040.662585) can0 317#5739453836313031
(1663863040.663610) can0 307#0000008000000000
(1663863040.664529) can0 353#33810000118E0000
(1663863040.665513) can0 313#8400000000000000
(1663863040.666531) can0 6FC#0000000000000000
(1663863040.667512) can0 315#00000007FF000000
(1663863040.672462) can0 128#0080000000000000
(1663863040.673498) can0 340#0000000000000000
(1663863040.692426) can0 330#0000000200000000
(1663863040.703422) can0 2CA#0000000000000000
(1663863040.712390) can0 353#33810000118E0000
(1663863040.736141) can0 50C#11026E0000000000
(1663863040.752441) can0 330#0000000200000000
(1663863040.759088) can0 2FC#0000000000000046
(1663863040.762420) can0 353#33810000118E0000
(1663863040.772435) can0 128#0080000000000000
(1663863040.773435) can0 340#0000000000000000
(1663863040.798764) can0 409#24880008200A4921
(1663863040.799737) can0 403#020200242400F400
(1663863040.800729) can0 406#0504000700000000
(1663863040.812431) can0 330#0000000200000000
(1663863040.813384) can0 353#33810000118E0000
(1663863040.832442) can0 511#41026E0000040400
(1663863040.845871) can0 2E6#064E000000000000
(1663863040.846891) can0 2EC#029F0303064E0000
(1663863040.847892) can0 2EF#04E3064E081D0000
(1663863040.848881) can0 2F2#0B0C0A0C0947C804
(1663863040.849896) can0 30F#110D070F12020000
(1663863040.850904) can0 360#0000000000000000
(1663863040.851862) can0 311#1F9F9F0A1F1F0701
(1663863040.852853) can0 365#0000000000000000
(1663863040.859087) can0 2FC#0000000000000046
(1663863040.862388) can0 353#33810000118E0000
(1663863040.864449) can0 2D4#0000000010100000
(1663863040.872459) can0 128#0080000000000000
(1663863040.873453) can0 330#0000000200000000
(1663863040.874448) can0 340#0000000000000000
(1663863040.882359) can0 6F6#15AD36D5397323CF
(1663863040.903433) can0 2CA#0000000000000000
(1663863040.904430) can0 2E1#4000000000000000
(1663863040.905439) can0 2E3#0000000000000000
(1663863040.909205) can0 2E2#0000000000000000
(1663863040.910212) can0 313#8400000000000000
(1663863040.911229) can0 315#00000007FF000000
(1663863040.912387) can0 353#33810000118E0000
(1663863040.923497) can0 541#5502000000000000
(1663863040.932427) can0 330#0000000200000000
(1663863040.959094) can0 2FC#0000000000000046
(1663863040.962386) can0 353#33810000118E0000
(1663863040.972433) can0 128#0080000000000000
(1663863040.973435) can0 340#0000000000000000
(1663863040.992423) can0 330#0000000200000000
(1663863041.012398) can0 353#33810000118E0000
(1663863041.014472) can0 555#5C12000000000000
(1663863041.046408) can0 2E6#064E000000000000
(1663863041.047428) can0 2EC#029F0303064E0000
(1663863041.048427) can0 2EF#04E3064E081D0000
(1663863041.049368) can0 409#24880008200A4921
(1663863041.050304) can0 2F2#0B0C0A0C0947C804
(1663863041.051318) can0 30F#110D070F12020000
(1663863041.052351) can0 311#1F9F9F0A1F1F0701
(1663863041.053347) can0 330#0000000200000000
(1663863041.059094) can0 2FC#0000000000000046
(1663863041.062390) can0 353#33810000118E0000
(1663863041.072433) can0 128#0080000000000000
(1663863041.073428) can0 340#0000000000000000
(1663863041.103441) can0 2CA#0000000000000000
(1663863041.109196) can0 55C#0102000000000000
(1663863041.112427) can0 330#0000000200000000
(1663863041.113381) can0 353#33810000118E0000
(1663863041.114451) can0 2D4#0000000010100000
(1663863041.122353) can0 6F6#15AD36D5397323CF
(1663863041.146521) can0 2F4#3000FFFFFFFC0000
(1663863041.147593) can0 2F9#0000000000000000
(1663863041.148622) can0 309#2020202020202020
(1663863041.149660) can0 30B#0000020000130804
(1663863041.150709) can0 30D#0000000140160000
(1663863041.153441) can0 2E1#4000000000000000
(1663863041.154442) can0 2E3#0000000000000000
(1663863041.159092) can0 2E2#0000000000000000
(1663863041.160114) can0 2FC#0000000000000046
(1663863041.161136) can0 307#0000008000000000
(1663863041.162154) can0 313#8400000000000000
(1663863041.163127) can0 353#33810000118E0000
(1663863041.164097) can0 315#00000007FF000000
(1663863041.172433) can0 128#0080000000000000
(1663863041.173427) can0 330#0000000200000000
(1663863041.174421) can0 340#0000000000000000
(1663863041.209365) can0 501#0C026E0000000000
(1663863041.212386) can0 353#33810000118E0000
(1663863041.232417) can0 330#0000000200000000
(1663863041.245935) can0 2E6#064E000000000000
(1663863041.246955) can0 2EC#029F0303064E0000
(1663863041.247946) can0 2EF#04E3064E081D0000
(1663863041.248925) can0 2F2#0B0C0A0C0947C804
(1663863041.249943) can0 30F#110D070F12020000
(1663863041.250983) can0 311#1F9F9F0A1F1F0701
(1663863041.259107) can0 2FC#0000000000000046
(1663863041.262381) can0 353#33810000118E0000
(1663863041.272427) can0 128#0080000000000000
(1663863041.273446) can0 340#0000000000000000
(1663863041.292420) can0 330#0000000200000000
(1663863041.296482) can0 50C#11026E0000000000
(1663863041.299449) can0 409#24880008200A4921
(1663863041.300424) can0 403#020200242400F400
(1663863041.301414) can0 406#0504000700000000
(1663863041.303439) can0 2CA#0000000000000000
(1663863041.312405) can0 353#33810000118E0000
(1663863041.352413) can0 330#0000000200000000
(1663863041.359108) can0 2FC#0000000000000046
(1663863041.362352) can0 360#0000000000000000
(1663863041.363306) can0 353#33810000118E0000
(1663863041.364294) can0 365#0000000000000000
(1663863041.365283) can0 2D4#0000000010100000
(1663863041.366191) can0 6F6#15AD36D5397323CF
(1663863041.372426) can0 128#0080000000000000
(1663863041.373425) can0 340#0000000000000000
(1663863041.392443) can0 511#41026E0000040400
(1663863041.403442) can0 2E1#4000000000000000
(1663863041.404446) can0 2E3#0000000000000000
(1663863041.409095) can0 2E2#0000000000000000
(1663863041.410103) can0 313#8400000000000000
(1663863041.411118) can0 315#00000007FF000000
(1663863041.412422) can0 330#0000000200000000
(1663863041.413377) can0 353#33810000118E0000
(1663863041.446987) can0 2E6#064E000000000000
(1663863041.448004) can0 2EC#029F0303064E0000
(1663863041.449001) can0 2EF#04E3064E081D0000
(1663863041.449994) can0 2F2#0B0C0A0C0947C804
(1663863041.451016) can0 30F#110D070F12020000
(1663863041.452046) can0 311#1F9F9F0A1F1F0701
(1663863041.459111) can0 2FC#0000000000000046
(1663863041.462382) can0 353#33810000118E0000
(1663863041.472420) can0 128#0080000000000000
(1663863041.473413) can0 330#0000000200000000
(1663863041.474411) can0 340#0000000000000000
(1663863041.483507) can0 541#5502000000000000
(1663863041.503450) can0 2CA#0000000000000000
(1663863041.512378) can0 353#33810000118E0000
(1663863041.513385) can0 640#0000000000000000
(1663863041.532441) can0 330#0000000200000000
(1663863041.549625) can0 409#24880008200A4921
(1663863041.559113) can0 2FC#0000000000000046
(1663863041.562376) can0 353#33810000118E0000
(1663863041.572417) can0 128#0080000000000000
(1663863041.573419) can0 340#0000000000000000
(1663863041.574478) can0 555#5C12000000000000
(1663863041.592413) can0 330#0000000200000000
(1663863041.602342) can0 6F6#15AD36D5397323CF
(1663863041.612405) can0 353#33810000118E0000
(1663863041.614496) can0 2D4#0000000010100000
(1663863041.647364) can0 2E6#064E000000000000
(1663863041.648384) can0 2EC#029F0303064E0000
(1663863041.649384) can0 2EF#04E3064E081D0000
(1663863041.650373) can0 2F2#0B0C0A0C0947C804
(1663863041.651444) can0 2F4#3000FFFFFFFC0000
(1663863041.652438) can0 330#0000000200000000
(1663863041.653446) can0 2F9#0000000000000000
(1663863041.654427) can0 2E1#4000000000000000
(1663863041.655389) can0 309#2020202020202020
(1663863041.656382) can0 2E3#0000000000000000
(1663863041.657345) can0 30B#0000020000130804
(1663863041.658393) can0 30D#0000000140160000
(1663863041.659382) can0 2E2#0000000000000000
(1663863041.660318) can0 30F#110D070F12020000
(1663863041.661320) can0 2FC#0000000000000046
(1663863041.662279) can0 311#1F9F9F0A1F1F0701
(1663863041.663284) can0 307#0000008000000000
(1663863041.664177) can0 317#5739453836313031
(1663863041.665162) can0 313#8400000000000000
(1663863041.666114) can0 353#33810000118E0000
(1663863041.667107) can0 315#00000007FF000000
(1663863041.668111) can0 6FC#0000000000000000
(1663863041.669303) can0 55C#0102000000000000
(1663863041.672441) can0 128#0080000000000000
(1663863041.673442) can0 340#0000000000000000
(1663863041.703471) can0 2CA#0000000000000000
(1663863041.712441) can0 330#0000000200000000
(1663863041.713366) can0 353#33810000118E0000
(1663863041.759130) can0 2FC#0000000000000046
(1663863041.762369) can0 353#33810000118E0000
(1663863041.769999) can0 501#0C026E0000000000
(1663863041.772413) can0 128#0080000000000000
(1663863041.773407) can0 330#0000000200000000
(1663863041.774404) can0 340#0000000000000000
(1663863041.799904) can0 409#24880008200A4921
(1663863041.800856) can0 403#020200252500F400
(1663863041.801844) can0 406#0504000700000000
(1663863041.812384) can0 353#33810000118E0000
(1663863041.832407) can0 330#0000000200000000
(1663863041.842346) can0 6F6#1545DB38FE268FCF
(1663863041.847530) can0 2E6#064E000000000000
(1663863041.848553) can0 2EC#029F0303064E0000
(1663863041.849550) can0 2EF#04E3064E081D0000
(1663863041.850541) can0 2F2#0B0C0A0C0947C804
(1663863041.851559) can0 30F#110D070F12020000
(1663863041.852589) can0 311#1F9F9F0A1F1F0701
(1663863041.858406) can0 50C#11026E0000000000
(1663863041.859406) can0 2FC#0000000000000046
(1663863041.862395) can0 353#33810000118E0000
(1663863041.864470) can0 2D4#0000000010100000
(1663863041.872411) can0 128#0080000000000000
(1663863041.873411) can0 340#0000000000000000
(1663863041.874414) can0 360#0000000000000000
(1663863041.875422) can0 365#0000000000000000
(1663863041.892405) can0 330#0000000200000000
(1663863041.903452) can0 2CA#0000000000000000
(1663863041.904444) can0 2E1#4000000000000000
(1663863041.905452) can0 2E3#0000000000000000
(1663863041.909114) can0 2E2#0000000000000000
(1663863041.910132) can0 313#8400000000000000
(1663863041.911144) can0 315#00000007FF000000
(1663863041.912368) can0 353#33810000118E0000
(1663863041.952403) can0 330#0000000200000000
(1663863041.953360) can0 511#41026E0000040400
(1663863041.959125) can0 2FC#0000000000000046
(1663863041.962373) can0 353#33810000118E0000
(1663863041.972435) can0 128#0080000000000000
(1663863041.973437) can0 340#0000000000000000
(1663863042.012410) can0 330#0000000200000000
(1663863042.013364) can0 353#33810000118E0000
(1663863042.043550) can0 541#5502000000000000
(1663863042.047280) can0 2E6#064E000000000000
(1663863042.048300) can0 2EC#029F0303064E0000
(1663863042.049299) can0 2EF#04E3064E081D0000
(1663863042.050261) can0 409#24880008200A4921
(1663863042.051203) can0 2F2#0B0C0A0C0947C804
(1663863042.052218) can0 30F#110D070F12020000
(1663863042.053253) can0 311#1F9F9F0A1F1F0701
(1663863042.059140) can0 2FC#0000000000000046
(1663863042.062386) can0 353#33810000118E0000
(1663863042.072437) can0 128#0080000000000000
(1663863042.073425) can0 330#0000000200000000
(1663863042.074424) can0 340#0000000000000000
(1663863042.082400) can0 6F6#1545DB38FE268FCF
(1663863042.103482) can0 2CA#0000000000000000
(1663863042.112388) can0 353#33810000118E0000
(1663863042.114503) can0 2D4#0000000010100000
(1663863042.132396) can0 330#0000000200000000
(1663863042.134498) can0 555#5C12000000000000
(1663863042.147486) can0 2F4#3000FFFFFFFC0000
(1663863042.148551) can0 2F9#0000000000000000
(1663863042.149582) can0 309#2020202020202020
(1663863042.150622) can0 30B#0000020000130804
(1663863042.151667) can0 30D#0000000140160000
(1663863042.153456) can0 2E1#4000000000000000
(1663863042.154470) can0 2E3#0000000000000000
(1663863042.159112) can0 2E2#0000000000000000
(1663863042.160134) can0 2FC#0000000000000046
(1663863042.161159) can0 307#0000008000000000
(1663863042.162173) can0 313#8400000000000000
(1663863042.163158) can0 353#33810000118E0000
(1663863042.164118) can0 315#00000007FF000000
(1663863042.172445) can0 128#0080000000000000
(1663863042.173420) can0 340#0000000000000000
(1663863042.192441) can0 330#0000000200000000
(1663863042.212361) can0 353#33810000118E0000
(1663863042.229231) can0 55C#0102000000000000
(1663863042.249888) can0 2E6#064E000000000000
(1663863042.250888) can0 2EC#029F0303064E0000
(1663863042.251892) can0 2EF#04E3064E081D0000
(1663863042.252892) can0 330#0000000200000000
(1663863042.253812) can0 2F2#0B0C0A0C0947C804
(1663863042.254828) can0 30F#110D070F12020000
(1663863042.255870) can0 311#1F9F9F0A1F1F0701
(1663863042.259123) can0 2FC#0000000000000046
(1663863042.262369) can0 353#33810000118E0000
(1663863042.272409) can0 128#0080000000000000
(1663863042.273408) can0 340#0000000000000000
(1663863042.300479) can0 409#24880008200A4921
(1663863042.301450) can0 403#020200242400F400
(1663863042.302440) can0 406#0504000700000000
(1663863042.303473) can0 2CA#0000000000000000
(1663863042.310753) can0 501#0C026E0000000000
(1663863042.312400) can0 330#0000000200000000
(1663863042.313352) can0 353#33810000118E0000
(1663863042.322341) can0 6F6#1545DB38FE268FCF
(1663863042.359127) can0 2FC#0000000000000046
(1663863042.362358) can0 353#33810000118E0000
(1663863042.364488) can0 2D4#0000000010100000
(1663863042.372404) can0 128#0080000000000000
(1663863042.373398) can0 330#0000000200000000
(1663863042.374395) can0 340#0000000000000000
(1663863042.385388) can0 360#0000000000000000
(1663863042.386390) can0 365#0000000000000000
(1663863042.400214) can0 50C#11026E0000000000
(1663863042.403464) can0 2E1#4000000000000000
(1663863042.404471) can0 2E3#0000000000000000
(1663863042.409132) can0 2E2#0000000000000000
(1663863042.410139) can0 313#8400000000000000
(1663863042.411154) can0 315#00000007FF000000
(1663863042.412387) can0 353#33810000118E0000
(1663863042.432418) can0 330#0000000200000000
(1663863042.449443) can0 2E6#064E000000000000
(1663863042.450462) can0 2EC#029F0303064E0000
(1663863042.451460) can0 2EF#04E3064E081D0000
(1663863042.452452) can0 2F2#0B0C0A0C0947C804
(1663863042.453471) can0 30F#110D070F12020000
(1663863042.454497) can0 311#1F9F9F0A1F1F0701
(1663863042.459283) can0 2FC#0000000000000046
(1663863042.462384) can0 353#33810000118E0000
(1663863042.472424) can0 128#0080000000000000
(1663863042.473425) can0 340#0000000000000000
(1663863042.492414) can0 330#0000000200000000
(1663863042.493372) can0 511#41026E0000040400
(1663863042.502434) can0 640#0000000000000000
(1663863042.503502) can0 2CA#0000000000000000
(1663863042.512385) can0 353#33810000118E0000
(1663863042.550784) can0 409#24880008200A4921
(1663863042.552418) can0 330#0000000200000000
(1663863042.559159) can0 2FC#0000000000000046
(1663863042.562380) can0 353#33810000118E0000
(1663863042.563311) can0 6F6#1545DB38FE268FCF
(1663863042.572426) can0 128#0080000000000000
(1663863042.573437) can0 340#0000000000000000
(1663863042.583557) can0 541#5502000000000000
(1663863042.612413) can0 330#0000000200000000
(1663863042.613370) can0 353#33810000118E0000
(1663863042.614510) can0 2D4#0000000010100000
(1663863042.649450) can0 2E6#064E000000000000
(1663863042.650468) can0 2EC#029F0303064E0000
(1663863042.651467) can0 2EF#04E3064E081D0000
(1663863042.652468) can0 2F2#0B0C0A0C0947C804
(1663863042.653491) can0 2E1#4000000000000000
(1663863042.654496) can0 2F4#3000FFFFFFFC0000
(1663863042.655488) can0 2E3#0000000000000000
(1663863042.656495) can0 2F9#0000000000000000
(1663863042.657527) can0 309#2020202020202020
(1663863042.658571) can0 30B#0000020000130804
(1663863042.659556) can0 2E2#0000000000000000
(1663863042.660537) can0 30D#0000000140160000
(1663863042.661531) can0 2FC#0000000000000046
(1663863042.662466) can0 30F#110D070F12020000
(1663863042.663461) can0 307#0000008000000000
(1663863042.664415) can0 311#1F9F9F0A1F1F0701
(1663863042.665397) can0 313#8400000000000000
(1663863042.666329) can0 317#5739453836313031
(1663863042.667300) can0 315#00000007FF000000
(1663863042.668254) can0 353#33810000118E0000
(1663863042.669259) can0 6FC#0000000000000000
(1663863042.672418) can0 128#0080000000000000
(1663863042.673409) can0 330#0000000200000000
(1663863042.674408) can0 340#0000000000000000
(1663863042.675382) can0 555#5C12000000000000
(1663863042.703500) can0 2CA#0000000000000000
(1663863042.712374) can0 353#33810000118E0000
(1663863042.732392) can0 330#0000000200000000
(1663863042.759157) can0 2FC#0000000000000046
(1663863042.762352) can0 353#33810000118E0000
(1663863042.769384) can0 55C#0102000000000000
(1663863042.772396) can0 128#0080000000000000
(1663863042.773397) can0 340#0000000000000000
(1663863042.792389) can0 330#0000000200000000
(1663863042.801100) can0 409#24880008200A4921
(1663863042.802075) can0 403#020200242400F400
(1663863042.803082) can0 406#0504000700000000
(1663863042.803980) can0 6F6#15F3E80BA76D3DD1
(1663863042.812365) can0 353#33810000118E0000
(1663863042.850065) can0 2E6#064E000000000000
(1663863042.851087) can0 2EC#029F0303064E0000
(1663863042.852058) can0 501#0C026E0000000000
(1663863042.853006) can0 2EF#04E3064E081D0000
(1663863042.853992) can0 330#0000000200000000
(1663863042.854931) can0 2F2#0B0C0A0C0947C804
(1663863042.855958) can0 30F#110D070F12020000
(1663863042.856980) can0 311#1F9F9F0A1F1F0701
(1663863042.859148) can0 2FC#0000000000000046
(1663863042.862356) can0 353#33810000118E0000
(1663863042.864501) can0 2D4#0000000010100000
(1663863042.872395) can0 128#0080000000000000
(1663863042.873393) can0 340#0000000000000000
(1663863042.896859) can0 360#0000000000000000
(1663863042.897866) can0 365#0000000000000000
(1663863042.903486) can0 2CA#0000000000000000
(1663863042.904487) can0 2E1#4000000000000000
(1663863042.905496) can0 2E3#0000000000000000
(1663863042.909151) can0 2E2#0000000000000000
(1663863042.910167) can0 313#8400000000000000
(1663863042.911183) can0 315#00000007FF000000
(1663863042.912391) can0 330#0000000200000000
(1663863042.913333) can0 353#33810000118E0000
(1663863042.940024) can0 50C#11026E0000000000
(1663863042.959150) can0 2FC#0000000000000046
(1663863042.962374) can0 353#33810000118E0000
(1663863042.972401) can0 128#0080000000000000
(1663863042.973389) can0 330#0000000200000000
(1663863042.974393) can0 340#0000000000000000
(1663863043.012352) can0 353#33810000118E0000
(1663863043.032393) can0 330#0000000200000000
(1663863043.033359) can0 511#41026E0000040400
(1663863043.042339) can0 6F6#15F3E80BA76D3DD1
(1663863043.049899) can0 2E6#064E000000000000
(1663863043.050920) can0 2EC#029F0303064E0000
(1663863043.051862) can0 409#24880008200A4921
(1663863043.052806) can0 2EF#04E3064E081D0000
(1663863043.053796) can0 2F2#0B0C0A0C0947C804
(1663863043.054812) can0 30F#110D070F12020000
(1663863043.055848) can0 311#1F9F9F0A1F1F0701
(1663863043.059181) can0 2FC#0000000000000046
(1663863043.062370) can0 353#33810000118E0000
(1663863043.072447) can0 128#0080000000000000
(1663863043.073446) can0 340#0000000000000000
(1663863043.092408) can0 330#0000000200000000
(1663863043.103519) can0 2CA#0000000000000000
(1663863043.112366) can0 353#33810000118E0000
(1663863043.114536) can0 2D4#0000000010100000
(1663863043.123572) can0 541#5502000000000000
(1663863043.149943) can0 2F4#3000FFFFFFFC0000
(1663863043.151013) can0 2F9#0000000000000000
(1663863043.152046) can0 309#2020202020202020
(1663863043.153034) can0 330#0000000200000000
(1663863043.154018) can0 2E1#4000000000000000
(1663863043.154987) can0 30B#0000020000130804
(1663863043.155977) can0 2E3#0000000000000000
(1663863043.156951) can0 30D#0000000140160000
(1663863043.159153) can0 2E2#0000000000000000
(1663863043.160175) can0 2FC#0000000000000046
(1663863043.161197) can0 307#0000008000000000
(1663863043.162216) can0 313#8400000000000000
(1663863043.163169) can0 353#33810000118E0000
(1663863043.164157) can0 315#00000007FF000000
(1663863043.172389) can0 128#0080000000000000
(1663863043.173390) can0 340#0000000000000000
(1663863043.212386) can0 330#0000000200000000
(1663863043.213341) can0 353#33810000118E0000
(1663863043.214526) can0 555#5C12000000000000
(1663863043.250702) can0 2E6#064E000000000000
(1663863043.251705) can0 2EC#029F0303064E0000
(1663863043.252704) can0 2EF#04E3064E081D0000
(1663863043.253705) can0 2F2#0B0C0A0C0947C804
(1663863043.254712) can0 30F#110D070F12020000
(1663863043.255742) can0 311#1F9F9F0A1F1F0701
(1663863043.259165) can0 2FC#0000000000000046
(1663863043.262340) can0 353#33810000118E0000
(1663863043.272388) can0 128#0080000000000000
(1663863043.273377) can0 330#0000000200000000
(1663863043.274376) can0 340#0000000000000000
(1663863043.282320) can0 6F6#15F3E80BA76D3DD1
(1663863043.301610) can0 409#24880008200A4921
(1663863043.302584) can0 403#020200242400F400
(1663863043.303575) can0 2CA#0000000000000000
(1663863043.304565) can0 406#0504000700000000
(1663863043.309271) can0 55C#0102000000000000
(1663863043.312341) can0 353#33810000118E0000
(1663863043.332381) can0 330#0000000200000000
(1663863043.359168) can0 2FC#0000000000000046
(1663863043.362341) can0 353#33810000118E0000
(1663863043.364507) can0 2D4#0000000010100000
(1663863043.372385) can0 128#0080000000000000
(1663863043.373388) can0 340#0000000000000000
(1663863043.391845) can0 501#0C026E0000000000
(1663863043.392833) can0 330#0000000200000000
(1663863043.403493) can0 2E1#4000000000000000
(1663863043.404496) can0 2E3#0000000000000000
(1663863043.408420) can0 360#0000000000000000
(1663863043.409410) can0 2E2#0000000000000000
(1663863043.410401) can0 365#0000000000000000
(1663863043.411385) can0 313#8400000000000000
(1663863043.412401) can0 315#00000007FF000000
(1663863043.413357) can0 353#33810000118E0000
(1663863043.452043) can0 2E6#064E000000000000
(1663863043.453031) can0 330#0000000200000000
(1663863043.454020) can0 2EC#029F0303064E0000
(1663863043.454997) can0 2EF#04E3064E081D0000
(1663863043.455987) can0 2F2#0B0C0A0C0947C804
(1663863043.457002) can0 30F#110D070F12020000
(1663863043.458033) can0 311#1F9F9F0A1F1F0701
(1663863043.459224) can0 2FC#0000000000000046
(1663863043.462345) can0 353#33810000118E0000
(1663863043.472383) can0 128#0080000000000000
(1663863043.473384) can0 340#0000000000000000
(1663863043.482469) can0 50C#11026E0000000000
(1663863043.492388) can0 640#0000000000000000
(1663863043.503501) can0 2CA#0000000000000000
(1663863043.512402) can0 330#0000000200000000
(1663863043.513356) can0 353#33810000118E0000
(1663863043.522312) can0 6F6#15F3E80BA76D3DD1
(1663863043.551903) can0 409#24880008200A4921
(1663863043.559196) can0 2FC#0000000000000046
(1663863043.562338) can0 353#33810000118E0000
(1663863043.572391) can0 128#0080000000000000
(1663863043.573385) can0 330#0000000200000000
(1663863043.574375) can0 340#0000000000000000
(1663863043.582395) can0 511#41026E0000040400
(1663863043.612330) can0 353#33810000118E0000
(1663863043.614516) can0 2D4#0000000010100000
(1663863043.632379) can0 330#0000000200000000
(1663863043.651902) can0 2E6#064E000000000000
(1663863043.652927) can0 2EC#029F0303064E0000
(1663863043.653913) can0 2E1#4000000000000000
(1663863043.654854) can0 2EF#04E3064E081D0000
(1663863043.655847) can0 2E3#0000000000000000
(1663863043.656788) can0 2F2#0B0C0A0C0947C804
(1663863043.657853) can0 2F4#3000FFFFFFFC0000
(1663863043.658924) can0 2F9#0000000000000000
(1663863043.659916) can0 2E2#0000000000000000
(1663863043.660874) can0 309#2020202020202020
(1663863043.661872) can0 2FC#0000000000000046
(1663863043.662840) can0 30B#0000020000130804
(1663863043.663828) can0 307#0000008000000000
(1663863043.664802) can0 30D#0000000140160000
(1663863043.665787) can0 313#8400000000000000
(1663863043.666721) can0 30F#110D070F12020000
(1663863043.667714) can0 315#00000007FF000000
(1663863043.668686) can0 311#1F9F9F0A1F1F0701
(1663863043.669624) can0 353#33810000118E0000
(1663863043.670534) can0 317#5739453836313031
(1663863043.671519) can0 541#5502000000000000
(1663863043.672518) can0 128#0080000000000000
(1663863043.673517) can0 340#0000000000000000
(1663863043.674528) can0 6FC#0000000000000000
(1663863043.692367) can0 330#0000000200000000
(1663863043.703503) can0 2CA#0000000000000000
(1663863043.712375) can0 353#33810000118E0000
(1663863043.752389) can0 330#0000000200000000
(1663863043.754547) can0 555#5C12000000000000
(1663863043.759198) can0 2FC#0000000000000046
(1663863043.762339) can0 353#33810000118E0000
(1663863043.763259) can0 6F6#15F3E80BA76D3DD1
(1663863043.772377) can0 128#0080000000000000
(1663863043.773376) can0 340#0000000000000000
(1663863043.802189) can0 409#24880008200A4921
(1663863043.803168) can0 403#020200242400F400
(1663863043.804148) can0 406#0504000700000000
(1663863043.812366) can0 330#0000000200000000
(1663863043.813318) can0 353#33810000118E0000
(1663863043.849280) can0 55C#0102000000000000
(1663863043.854191) can0 2E6#064E000000000000
(1663863043.855218) can0 2EC#029F0303064E0000
(1663863043.856214) can0 2EF#04E3064E081D0000
(1663863043.857205) can0 2F2#0B0C0A0C0947C804
(1663863043.858221) can0 30F#110D070F12020000
(1663863043.859220) can0 2FC#0000000000000046
(1663863043.860179) can0 311#1F9F9F0A1F1F0701
(1663863043.862330) can0 353#33810000118E0000
(1663863043.864522) can0 2D4#0000000010100000
(1663863043.872376) can0 128#0080000000000000
(1663863043.873369) can0 330#0000000200000000
(1663863043.874390) can0 340#0000000000000000
(1663863043.903505) can0 2CA#0000000000000000
(1663863043.904511) can0 2E1#4000000000000000
(1663863043.905516) can0 2E3#0000000000000000
(1663863043.909190) can0 2E2#0000000000000000
(1663863043.910206) can0 313#8400000000000000
(1663863043.911220) can0 315#00000007FF000000
(1663863043.912330) can0 353#33810000118E0000
(1663863043.919899) can0 360#0000000000000000
(1663863043.920905) can0 365#0000000000000000
(1663863043.932361) can0 330#0000000200000000
(1663863043.933352) can0 501#0C026E0000000000
(1663863043.959202) can0 2FC#0000000000000046
(1663863043.962329) can0 353#33810000118E0000
(1663863043.972381) can0 128#0080000000000000
(1663863043.973375) can0 340#0000000000000000
(1663863043.992368) can0 330#0000000200000000
(1663863044.002292) can0 6F6#1562FD1ED8FCA8E5
(1663863044.012330) can0 353#33810000118E0000
(1663863044.024213) can0 50C#11026E0000000000
(1663863044.052361) can0 330#0000000200000000
(1663863044.053305) can0 409#24880008200A4921
(1663863044.054411) can0 2E6#064E000000000000
(1663863044.055427) can0 2EC#029F0303064E0000
(1663863044.056426) can0 2EF#04E3064E081D0000
(1663863044.057417) can0 2F2#0B0C0A0C0947C804
(1663863044.058433) can0 30F#110D070F12020000
(1663863044.059432) can0 2FC#0000000000000046
(1663863044.060393) can0 311#1F9F9F0A1F1F0701
(1663863044.062353) can0 353#33810000118E0000
(1663863044.072369) can0 128#0080000000000000
(1663863044.073371) can0 340#0000000000000000
(1663863044.103515) can0 2CA#0000000000000000
(1663863044.112367) can0 330#0000000200000000
(1663863044.113321) can0 353#33810000118E0000
(1663863044.114535) can0 2D4#0000000010100000
(1663863044.122380) can0 511#41026E0000040400
(1663863044.153510) can0 2E1#4000000000000000
(1663863044.154518) can0 2F4#3000FFFFFFFC0000
(1663863044.155507) can0 2E3#0000000000000000
(1663863044.156515) can0 2F9#0000000000000000
(1663863044.157547) can0 309#2020202020202020
(1663863044.158585) can0 30B#0000020000130804
(1663863044.159576) can0 2E2#0000000000000000
(1663863044.160552) can0 30D#0000000140160000
(1663863044.161551) can0 2FC#0000000000000046
(1663863044.162504) can0 353#33810000118E0000
(1663863044.163500) can0 307#0000008000000000
(1663863044.164503) can0 313#8400000000000000
(1663863044.165525) can0 315#00000007FF000000
(1663863044.172389) can0 128#0080000000000000
(1663863044.173384) can0 330#0000000200000000
(1663863044.174379) can0 340#0000000000000000
(1663863044.203574) can0 541#5502000000000000
(1663863044.212322) can0 353#33810000118E0000
(1663863044.232361) can0 330#0000000200000000
(1663863044.242293) can0 6F6#1562FD1ED8FCA8E5
(1663863044.254316) can0 2E6#064E000000000000
(1663863044.255332) can0 2EC#029F0303064E0000
(1663863044.256328) can0 2EF#04E3064E081D0000
(1663863044.257316) can0 2F2#0B0C0A0C0947C804
(1663863044.258330) can0 30F#110D070F12020000
(1663863044.259324) can0 2FC#0000000000000046
(1663863044.260291) can0 311#1F9F9F0A1F1F0701
(1663863044.262323) can0 353#33810000118E0000
(1663863044.272365) can0 128#0080000000000000
(1663863044.273365) can0 340#0000000000000000
(1663863044.292359) can0 330#0000000200000000
(1663863044.294555) can0 555#5C12000000000000
(1663863044.302854) can0 409#24880008200A4921
(1663863044.303841) can0 2CA#0000000000000000
(1663863044.304817) can0 403#020200242400F400
(1663863044.305815) can0 406#0504000700000000
(1663863044.312318) can0 353#33810000118E0000
(1663863044.352354) can0 330#0000000200000000
(1663863044.359215) can0 2FC#0000000000000046
(1663863044.362335) can0 353#33810000118E0000
(1663863044.364530) can0 2D4#0000000010100000
(1663863044.372366) can0 128#0080000000000000
(1663863044.373368) can0 340#0000000000000000
(1663863044.389321) can0 55C#0102000000000000
(1663863044.403535) can0 2E1#4000000000000000
(1663863044.404523) can0 2E3#0000000000000000
(1663863044.409204) can0 2E2#0000000000000000
(1663863044.410211) can0 313#8400000000000000
(1663863044.411225) can0 315#00000007FF000000
(1663863044.412363) can0 330#0000000200000000
(1663863044.413315) can0 353#33810000118E0000
(1663863044.431464) can0 360#0000000000000000
(1663863044.432470) can0 365#0000000000000000
(1663863044.454574) can0 2E6#064E000000000000
(1663863044.455595) can0 2EC#029F0303064E0000
(1663863044.456594) can0 2EF#04E3064E081D0000
(1663863044.457584) can0 2F2#0B0C0A0C0947C804
(1663863044.458600) can0 30F#110D070F12020000
(1663863044.459600) can0 2FC#0000000000000046
(1663863044.460558) can0 311#1F9F9F0A1F1F0701
(1663863044.462318) can0 353#33810000118E0000
(1663863044.472363) can0 128#0080000000000000
(1663863044.473361) can0 330#0000000200000000
(1663863044.474355) can0 340#0000000000000000
(1663863044.475332) can0 501#0C026E0000000000
(1663863044.482434) can0 640#0000000000000000
(1663863044.483348) can0 6F6#1562FD1ED8FCA8E5
(1663863044.503525) can0 2CA#0000000000000000
(1663863044.512321) can0 353#33810000118E0000
(1663863044.532352) can0 330#0000000200000000
(1663863044.553040) can0 409#24880008200A4921
(1663863044.559226) can0 2FC#0000000000000046
(1663863044.562320) can0 353#33810000118E0000
(1663863044.564828) can0 50C#11026E0000000000
(1663863044.572357) can0 128#0080000000000000
(1663863044.573361) can0 340#0000000000000000
(1663863044.592349) can0 330#0000000200000000
(1663863044.612345) can0 353#33810000118E0000
(1663863044.614545) can0 2D4#0000000010100000
(1663863044.652352) can0 330#0000000200000000
(1663863044.653525) can0 2E1#4000000000000000
(1663863044.654495) can0 2E6#064E000000000000
(1663863044.655486) can0 2E3#0000000000000000
(1663863044.656453) can0 2EC#029F0303064E0000
(1663863044.657451) can0 2EF#04E3064E081D0000
(1663863044.658443) can0 2F2#0B0C0A0C0947C804
(1663863044.659434) can0 2E2#0000000000000000
(1663863044.660442) can0 2F4#3000FFFFFFFC0000
(1663863044.661441) can0 2FC#0000000000000046
(1663863044.662449) can0 2F9#0000000000000000
(1663863044.663446) can0 307#0000008000000000
(1663863044.664398) can0 309#2020202020202020
(1663863044.665383) can0 313#8400000000000000
(1663863044.666349) can0 30B#0000020000130804
(1663863044.667331) can0 315#00000007FF000000
(1663863044.668320) can0 30D#0000000140160000
(1663863044.669267) can0 353#33810000118E0000
(1663863044.670201) can0 30F#110D070F12020000
(1663863044.671160) can0 511#41026E0000040400
(1663863044.672120) can0 311#1F9F9F0A1F1F0701
(1663863044.673143) can0 128#0080000000000000
(1663863044.674030) can0 317#5739453836313031
(1663863044.675028) can0 340#0000000000000000
(1663863044.676037) can0 6FC#0000000000000000
(1663863044.703542) can0 2CA#0000000000000000
(1663863044.712356) can0 330#0000000200000000
(1663863044.713310) can0 353#33810000118E0000
(1663863044.722302) can0 6F6#1562FD1ED8FCA8E5
(1663863044.759237) can0 2FC#0000000000000046
(1663863044.762313) can0 353#33810000118E0000
(1663863044.763585) can0 541#5502000000000000
(1663863044.772374) can0 128#0080000000000000
(1663863044.773358) can0 330#0000000200000000
(1663863044.774357) can0 340#0000000000000000
(1663863044.803347) can0 409#24880008200A4921
(1663863044.804273) can0 403#020200252500F400
(1663863044.805259) can0 406#0504000700000000
(1663863044.812306) can0 353#33810000118E0000
(1663863044.832373) can0 330#0000000200000000
(1663863044.854567) can0 555#5C12000000000000
(1663863044.855982) can0 2E6#064E000000000000
(1663863044.856998) can0 2EC#029F0303064E0000
(1663863044.857995) can0 2EF#04E3064E081D0000
(1663863044.858987) can0 2F2#0B0C0A0C0947C804
(1663863044.859985) can0 2FC#0000000000000046
(1663863044.860920) can0 30F#110D070F12020000
(1663863044.861951) can0 311#1F9F9F0A1F1F0701
(1663863044.862914) can0 353#33810000118E0000
(1663863044.864544) can0 2D4#0000000010100000
(1663863044.872341) can0 128#0080000000000000
(1663863044.873342) can0 340#0000000000000000
(1663863044.892333) can0 330#0000000200000000
(1663863044.903516) can0 2CA#0000000000000000
(1663863044.904512) can0 2E1#4000000000000000
(1663863044.905519) can0 2E3#0000000000000000
(1663863044.909207) can0 2E2#0000000000000000
(1663863044.910221) can0 313#8400000000000000
(1663863044.911237) can0 315#00000007FF000000
(1663863044.912292) can0 353#33810000118E0000
(1663863044.942912) can0 360#0000000000000000
(1663863044.943917) can0 365#0000000000000000
(1663863044.949315) can0 55C#0102000000000000
(1663863044.952323) can0 330#0000000200000000
(1663863044.959224) can0 2FC#0000000000000046
(1663863044.962290) can0 353#33810000118E0000
(1663863044.963220) can0 6F6#151D8261A781D499
(1663863044.972355) can0 128#0080000000000000
(1663863044.973356) can0 340#0000000000000000
(1663863045.012344) can0 330#0000000200000000
(1663863045.013296) can0 353#33810000118E0000
(1663863045.033705) can0 501#0C026E0000000000
(1663863045.053595) can0 409#24880008200A4921
(1663863045.056001) can0 2E6#064E000000000000
(1663863045.057024) can0 2EC#029F0303064E0000
(1663863045.058022) can0 2EF#04E3064E081D0000
(1663863045.059014) can0 2F2#0B0C0A0C0947C804
(1663863045.060014) can0 2FC#0000000000000046
(1663863045.060949) can0 30F#110D070F12020000
(1663863045.061979) can0 311#1F9F9F0A1F1F0701
(1663863045.062933) can0 353#33810000118E0000
(1663863045.072346) can0 128#0080000000000000
(1663863045.073341) can0 330#0000000200000000
(1663863045.074336) can0 340#0000000000000000
(1663863045.103539) can0 2CA#0000000000000000
(1663863045.112303) can0 353#33810000118E0000
(1663863045.114550) can0 2D4#0000000010100000
(1663863045.127518) can0 50C#11026E0000000000
(1663863045.132341) can0 330#0000000200000000
(1663863045.153534) can0 2E1#4000000000000000
(1663863045.154540) can0 2E3#0000000000000000
(1663863045.156828) can0 2F4#3000FFFFFFFC0000
(1663863045.157899) can0 2F9#0000000000000000
(1663863045.158929) can0 309#2020202020202020
(1663863045.159921) can0 2E2#0000000000000000
(1663863045.160889) can0 30B#0000020000130804
(1663863045.161894) can0 2FC#0000000000000046
(1663863045.162862) can0 30D#0000000140160000
(1663863045.163853) can0 307#0000008000000000
(1663863045.164852) can0 340#0000000000000000
(1663863045.165844) can0 313#8400000000000000
(1663863045.166800) can0 353#33810000118E0000
(1663863045.167786) can0 315#00000007FF000000
(1663863045.172348) can0 128#0080000000000000
(1663863045.192338) can0 330#0000000200000000
(1663863045.202274) can0 6F6#151D8261A781D499
(1663863045.212312) can0 353#33810000118E0000
(1663863045.222360) can0 511#41026E0000040400
(1663863045.252354) can0 330#0000000200000000
(1663863045.256281) can0 2E6#064E000000000000
(1663863045.257285) can0 2EC#029F0303064E0000
(1663863045.258283) can0 2EF#04E3064E081D0000
(1663863045.259291) can0 2FC#0000000000000046
(1663863045.260227) can0 2F2#0B0C0A0C0947C804
(1663863045.261231) can0 30F#110D070F12020000
(1663863045.262261) can0 311#1F9F9F0A1F1F0701
(1663863045.263265) can0 340#0000000000000000
(1663863045.264212) can0 353#33810000118E0000
(1663863045.272383) can0 128#0080000000000000
(1663863045.303542) can0 2CA#0000000000000000
(1663863045.304490) can0 403#020200252500F400
(1663863045.305481) can0 406#0504000700000000
(1663863045.306424) can0 409#24880008200A4921
(1663863045.307408) can0 541#5502000000000000
(1663863045.312374) can0 330#0000000200000000
(1663863045.313327) can0 353#33810000118E0000
(1663863045.359249) can0 2FC#0000000000000046
(1663863045.362342) can0 340#0000000000000000
(1663863045.363301) can0 353#33810000118E0000
(1663863045.364553) can0 2D4#0000000010100000
(1663863045.372343) can0 128#0080000000000000
(1663863045.373339) can0 330#0000000200000000
(1663863045.394597) can0 555#5C12000000000000
(1663863045.403576) can0 2E1#4000000000000000
(1663863045.404573) can0 2E3#0000000000000000
(1663863045.409260) can0 2E2#0000000000000000
(1663863045.410268) can0 313#8400000000000000
(1663863045.411283) can0 315#00000007FF000000
(1663863045.412323) can0 353#33810000118E0000
(1663863045.432355) can0 330#0000000200000000
(1663863045.452289) can0 6F6#151D8261A781D499
(1663863045.454469) can0 360#0000000000000000
(1663863045.455474) can0 365#0000000000000000
(1663863045.457762) can0 2E6#064E000000000000
(1663863045.458787) can0 2EC#029F0303064E0000
(1663863045.459785) can0 2FC#0000000000000046
(1663863045.460728) can0 2EF#04E3064E081D0000
(1663863045.461720) can0 2F2#0B0C0A0C0947C804
(1663863045.462672) can0 353#33810000118E0000
(1663863045.463606) can0 30F#110D070F12020000
(1663863045.464637) can0 311#1F9F9F0A1F1F0701
(1663863045.472363) can0 128#0080000000000000
(1663863045.473369) can0 340#0000000000000000
(1663863045.482357) can0 640#0000000000000000
(1663863045.489351) can0 55C#0102000000000000
(1663863045.492363) can0 330#0000000200000000
(1663863045.503539) can0 2CA#0000000000000000
(1663863045.512295) can0 353#33810000118E0000
(1663863045.552334) can0 330#0000000200000000
(1663863045.554234) can0 409#24880008200A4921
(1663863045.559383) can0 2FC#0000000000000046
(1663863045.562343) can0 340#0000000000000000
(1663863045.563297) can0 353#33810000118E0000
(1663863045.572340) can0 128#0080000000000000
(1663863045.574393) can0 501#0C026E0000000000
(1663863045.612353) can0 330#0000000200000000
(1663863045.613305) can0 353#33810000118E0000
(1663863045.614591) can0 2D4#0000000010100000
(1663863045.653563) can0 2E1#4000000000000000
(1663863045.654568) can0 2E3#0000000000000000
(1663863045.657750) can0 2E6#064E000000000000
(1663863045.658781) can0 2EC#029F0303064E0000
(1663863045.659773) can0 2E2#0000000000000000
(1663863045.660717) can0 2EF#04E3064E081D0000
(1663863045.661719) can0 2FC#0000000000000046
(1663863045.662676) can0 2F2#0B0C0A0C0947C804
(1663863045.663642) can0 307#0000008000000000
(1663863045.664649) can0 2F4#3000FFFFFFFC0000
(1663863045.665632) can0 313#8400000000000000
(1663863045.666645) can0 2F9#0000000000000000
(1663863045.667631) can0 315#00000007FF000000
(1663863045.668589) can0 309#2020202020202020
(1663863045.669541) can0 353#33810000118E0000
(1663863045.670508) can0 30B#0000020000130804
(1663863045.671555) can0 30D#0000000140160000
(1663863045.672565) can0 128#0080000000000000
(1663863045.673491) can0 30F#110D070F12020000
(1663863045.674478) can0 330#0000000200000000
(1663863045.675443) can0 311#1F9F9F0A1F1F0701
(1663863045.676423) can0 340#0000000000000000
(1663863045.677331) can0 317#5739453836313031
(1663863045.678383) can0 50C#11026E0000000000
(1663863045.679467) can0 6FC#0000000000000000
(1663863045.682267) can0 6F6#151D8261A781D499
(1663863045.703551) can0 2CA#0000000000000000
(1663863045.712314) can0 353#33810000118E0000
(1663863045.732338) can0 330#0000000200000000
(1663863045.759285) can0 2FC#0000000000000046
(1663863045.762335) can0 340#0000000000000000
(1663863045.763287) can0 353#33810000118E0000
(1663863045.772340) can0 128#0080000000000000
(1663863045.773302) can0 511#41026E0000040400
(1663863045.792323) can0 330#0000000200000000
(1663863045.804461) can0 409#24880008200A4921
(1663863045.805433) can0 403#020200242400F400
(1663863045.806424) can0 406#0504000700000000
(1663863045.812287) can0 353#33810000118E0000
(1663863045.852329) can0 330#0000000200000000
(1663863045.857909) can0 2E6#064E000000000000
(1663863045.858928) can0 2EC#029F0303064E0000
(1663863045.859929) can0 2FC#0000000000000046
(1663863045.860872) can0 2EF#04E3064E081D0000
(1663863045.861862) can0 2F2#0B0C0A0C0947C804
(1663863045.862861) can0 340#0000000000000000
(1663863045.863797) can0 30F#110D070F12020000
(1663863045.864787) can0 2D4#0000000010100000
(1663863045.865746) can0 311#1F9F9F0A1F1F0701
(1663863045.866697) can0 353#33810000118E0000
(1663863045.867679) can0 541#5502000000000000
(1663863045.872335) can0 128#0080000000000000
(1663863045.903557) can0 2CA#0000000000000000
(1663863045.904551) can0 2E1#4000000000000000
(1663863045.905558) can0 2E3#0000000000000000
(1663863045.909264) can0 2E2#0000000000000000
(1663863045.910268) can0 313#8400000000000000
(1663863045.911292) can0 315#00000007FF000000
(1663863045.912323) can0 330#0000000200000000
(1663863045.913279) can0 353#33810000118E0000
(1663863045.932289) can0 6F6#15829774A05A0AE6
(1663863045.954595) can0 555#5C12000000000000
(1663863045.959272) can0 2FC#0000000000000046
(1663863045.962334) can0 340#0000000000000000
(1663863045.963291) can0 353#33810000118E0000
(1663863045.965971) can0 360#0000000000000000
(1663863045.966976) can0 365#0000000000000000
(1663863045.972336) can0 128#0080000000000000
(1663863045.973330) can0 330#0000000200000000
(1663863046.012291) can0 353#33810000118E0000
(1663863046.032316) can0 330#0000000200000000
(1663863046.049373) can0 55C#0102000000000000
(1663863046.054792) can0 409#24880008200A4921
(1663863046.057803) can0 2E6#064E000000000000
(1663863046.058826) can0 2EC#029F0303064E0000
(1663863046.059825) can0 2FC#0000000000000046
(1663863046.060770) can0 2EF#04E3064E081D0000
(1663863046.061761) can0 2F2#0B0C0A0C0947C804
(1663863046.062761) can0 340#0000000000000000
(1663863046.063697) can0 30F#110D070F12020000
(1663863046.064649) can0 353#33810000118E0000
(1663863046.065607) can0 311#1F9F9F0A1F1F0701
(1663863046.072335) can0 128#0080000000000000
(1663863046.092345) can0 330#0000000200000000
(1663863046.103580) can0 2CA#0000000000000000
(1663863046.112308) can0 353#33810000118E0000
(1663863046.114599) can0 2D4#0000000010100000
(1663863046.134983) can0 501#0C026E0000000000
(1663863046.152364) can0 330#0000000200000000
(1663863046.153576) can0 2E1#4000000000000000
(1663863046.154604) can0 2E3#0000000000000000
(1663863046.157779) can0 2F4#3000FFFFFFFC0000
(1663863046.158849) can0 2F9#0000000000000000
(1663863046.159840) can0 2E2#0000000000000000
(1663863046.160798) can0 309#2020202020202020
(1663863046.161798) can0 2FC#0000000000000046
(1663863046.162766) can0 30B#0000020000130804
(1663863046.163757) can0 307#0000008000000000
(1663863046.164733) can0 30D#0000000140160000
(1663863046.165717) can0 313#8400000000000000
(1663863046.166668) can0 353#33810000118E0000
(1663863046.167659) can0 315#00000007FF000000
(1663863046.172348) can0 128#0080000000000000
(1663863046.173352) can0 340#0000000000000000
(1663863046.174275) can0 6F6#15829774A05A0AE6
(1663863046.212324) can0 330#0000000200000000
(1663863046.213276) can0 353#33810000118E0000
(1663863046.228192) can0 50C#11026E0000000000
(1663863046.257899) can0 2E6#064E000000000000
(1663863046.258905) can0 2EC#029F0303064E0000
(1663863046.259905) can0 2FC#0000000000000046
(1663863046.260835) can0 2EF#04E3064E081D0000
(1663863046.261826) can0 2F2#0B0C0A0C0947C804
(1663863046.262826) can0 340#0000000000000000
(1663863046.263762) can0 30F#110D070F12020000
(1663863046.264711) can0 353#33810000118E0000
(1663863046.265671) can0 311#1F9F9F0A1F1F0701
(1663863046.272326) can0 128#0080000000000000
(1663863046.273320) can0 330#0000000200000000
(1663863046.303562) can0 2CA#0000000000000000
(1663863046.305013) can0 409#24880008200A4921
(1663863046.305964) can0 403#020200252500F400
(1663863046.306955) can0 406#0504000700000000
(1663863046.312274) can0 353#33810000118E0000
(1663863046.322331) can0 511#41026E0000040400
(1663863046.332315) can0 330#0000000200000000
(1663863046.359286) can0 2FC#0000000000000046
(1663863046.362330) can0 340#0000000000000000
(1663863046.363283) can0 353#33810000118E0000
(1663863046.364577) can0 2D4#0000000010100000
(1663863046.372354) can0 128#0080000000000000
(1663863046.392339) can0 330#0000000200000000
(1663863046.403590) can0 2E1#4000000000000000
(1663863046.404597) can0 2E3#0000000000000000
(1663863046.405595) can0 541#5502000000000000
(1663863046.409302) can0 2E2#0000000000000000
(1663863046.410308) can0 313#8400000000000000
(1663863046.411332) can0 315#00000007FF000000
(1663863046.412299) can0 353#33810000118E0000
(1663863046.413231) can0 6F6#15829774A05A0AE6
(1663863046.452339) can0 330#0000000200000000
(1663863046.458193) can0 2E6#064E000000000000
(1663863046.459216) can0 2EC#029F0303064E0000
(1663863046.460216) can0 2FC#0000000000000046
(1663863046.461160) can0 2EF#04E3064E081D0000
(1663863046.462149) can0 2F2#0B0C0A0C0947C804
(1663863046.463181) can0 340#0000000000000000
(1663863046.464085) can0 30F#110D070F12020000
(1663863046.465036) can0 353#33810000118E0000
(1663863046.465994) can0 311#1F9F9F0A1F1F0701
(1663863046.472346) can0 128#0080000000000000
(1663863046.473371) can0 640#0000000000000000
(1663863046.477511) can0 360#0000000000000000
(1663863046.478516) can0 365#0000000000000000
(1663863046.494605) can0 555#5C12000000000000
(1663863046.503567) can0 2CA#0000000000000000
(1663863046.512314) can0 330#0000000200000000
(1663863046.513268) can0 353#33810000118E0000
(1663863046.555332) can0 409#24880008200A4921
(1663863046.559292) can0 2FC#0000000000000046
(1663863046.562309) can0 340#0000000000000000
(1663863046.563265) can0 353#33810000118E0000
(1663863046.572317) can0 128#0080000000000000
(1663863046.573348) can0 330#0000000200000000
(1663863046.589323) can0 55C#0102000000000000
(1663863046.612222) can0 353#33810000118E0000
(1663863046.614516) can0 2D4#0000000010100000
(1663863046.632242) can0 330#0000000200000000
(1663863046.652178) can0 6F6#15829774A05A0AE6
(1663863046.653496) can0 2E1#4000000000000000
(1663863046.654501) can0 2E3#0000000000000000
(1663863046.657876) can0 2E6#064E000000000000
(1663863046.658897) can0 2EC#029F0303064E0000
(1663863046.659892) can0 2E2#0000000000000000
(1663863046.660833) can0 2EF#04E3064E081D0000
(1663863046.661835) can0 2FC#0000000000000046
(1663863046.662768) can0 2F2#0B0C0A0C0947C804
(1663863046.663764) can0 307#0000008000000000
(1663863046.664766) can0 2F4#3000FFFFFFFC0000
(1663863046.665749) can0 313#8400000000000000
(1663863046.666756) can0 2F9#0000000000000000
(1663863046.667747) can0 315#00000007FF000000
(1663863046.668707) can0 309#2020202020202020
(1663863046.669708) can0 340#0000000000000000
(1663863046.670674) can0 30B#0000020000130804
(1663863046.671625) can0 353#33810000118E0000
(1663863046.672623) can0 128#0080000000000000
(1663863046.673600) can0 30D#0000000140160000
(1663863046.674606) can0 30F#110D070F12020000
(1663863046.675637) can0 311#1F9F9F0A1F1F0701
(1663863046.676611) can0 501#0C026E0000000000
(1663863046.677522) can0 317#5739453836313031
(1663863046.678609) can0 6FC#0000000000000000
(1663863046.692235) can0 330#0000000200000000
(1663863046.703508) can0 2CA#0000000000000000
(1663863046.712201) can0 353#33810000118E0000
(1663863046.752262) can0 330#0000000200000000
(1663863046.759244) can0 2FC#0000000000000046
(1663863046.762253) can0 340#0000000000000000
(1663863046.763205) can0 353#33810000118E0000
(1663863046.768203) can0 50C#11026E0000000000
(1663863046.772249) can0 128#0080000000000000
(1663863046.805527) can0 409#24880008200A4921
(1663863046.806493) can0 403#020200242400F400
(1663863046.807484) can0 406#0504000700000000
(1663863046.812259) can0 330#0000000200000000
(1663863046.813210) can0 353#33810000118E0000
(1663863046.857774) can0 2E6#064E000000000000
(1663863046.858795) can0 2EC#029F0303064E0000
(1663863046.859794) can0 2FC#0000000000000046
(1663863046.860737) can0 2EF#04E3064E081D0000
(1663863046.861728) can0 2F2#0B0C0A0C0947C804
(1663863046.862727) can0 340#0000000000000000
(1663863046.863662) can0 30F#110D070F12020000
(1663863046.864653) can0 2D4#0000000010100000
(1663863046.865612) can0 311#1F9F9F0A1F1F0701
(1663863046.866563) can0 353#33810000118E0000
(1663863046.867522) can0 511#41026E0000040400
(1663863046.872250) can0 128#0080000000000000
(1663863046.873242) can0 330#0000000200000000
(1663863046.892162) can0 6F6#153BA44781A5F1BD
(1663863046.903513) can0 2CA#0000000000000000
(1663863046.904502) can0 2E1#4000000000000000
(1663863046.905509) can0 2E3#0000000000000000
(1663863046.909222) can0 2E2#0000000000000000
(1663863046.910228) can0 313#8400000000000000
(1663863046.911244) can0 315#00000007FF000000
(1663863046.912195) can0 353#33810000118E0000
(1663863046.932235) can0 330#0000000200000000
(1663863046.959237) can0 2FC#0000000000000046
(1663863046.962241) can0 340#0000000000000000
(1663863046.963194) can0 353#33810000118E0000
(1663863046.964176) can0 541#5502000000000000
(1663863046.972247) can0 128#0080000000000000
(1663863046.988928) can0 360#0000000000000000
(1663863046.989932) can0 365#0000000000000000
(1663863046.992228) can0 330#0000000200000000
(1663863047.012197) can0 353#33810000118E0000
(1663863047.052236) can0 330#0000000200000000
(1663863047.054553) can0 555#5C12000000000000
(1663863047.055904) can0 409#24880008200A4921
(1663863047.058383) can0 2E6#064E000000000000
(1663863047.059382) can0 2FC#0000000000000046
(1663863047.060350) can0 2EC#029F0303064E0000
(1663863047.061349) can0 2EF#04E3064E081D0000
(1663863047.062349) can0 340#0000000000000000
(1663863047.063285) can0 2F2#0B0C0A0C0947C804
(1663863047.064234) can0 353#33810000118E0000
(1663863047.065169) can0 30F#110D070F12020000
(1663863047.066199) can0 311#1F9F9F0A1F1F0701
(1663863047.072240) can0 128#0080000000000000
(1663863047.103516) can0 2CA#0000000000000000
(1663863047.112231) can0 330#0000000200000000
(1663863047.113184) can0 353#33810000118E0000
(1663863047.114534) can0 2D4#0000000010100000
(1663863047.132149) can0 6F6#153BA44781A5F1BD
(1663863047.149341) can0 55C#0102000000000000
(1663863047.153518) can0 2E1#4000000000000000
(1663863047.154516) can0 2E3#0000000000000000
(1663863047.158459) can0 2F4#3000FFFFFFFC0000
(1663863047.159450) can0 2E2#0000000000000000
(1663863047.160458) can0 2F9#0000000000000000
(1663863047.161457) can0 2FC#0000000000000046
(1663863047.162417) can0 309#2020202020202020
(1663863047.163410) can0 307#0000008000000000
(1663863047.164374) can0 30B#0000020000130804
(1663863047.165358) can0 313#8400000000000000
(1663863047.166333) can0 30D#0000000140160000
(1663863047.167325) can0 315#00000007FF000000
(1663863047.168328) can0 340#0000000000000000
(1663863047.169275) can0 353#33810000118E0000
(1663863047.172242) can0 128#0080000000000000
(1663863047.173234) can0 330#0000000200000000
(1663863047.212250) can0 353#33810000118E0000
(1663863047.232234) can0 330#0000000200000000
(1663863047.236198) can0 501#0C026E0000000000
(1663863047.258753) can0 2E6#064E000000000000
(1663863047.259738) can0 2FC#0000000000000046
(1663863047.260708) can0 2EC#029F0303064E0000
(1663863047.261709) can0 2EF#04E3064E081D0000
(1663863047.262706) can0 340#0000000000000000
(1663863047.263641) can0 2F2#0B0C0A0C0947C804
(1663863047.264592) can0 353#33810000118E0000
(1663863047.265526) can0 30F#110D070F12020000
(1663863047.266557) can0 311#1F9F9F0A1F1F0701
(1663863047.272236) can0 128#0080000000000000
(1663863047.292300) can0 330#0000000200000000
(1663863047.303587) can0 2CA#0000000000000000
(1663863047.306161) can0 409#24880008200A4921
(1663863047.307113) can0 403#020200252500F400
(1663863047.308103) can0 406#0504000700000000
(1663863047.312256) can0 353#33810000118E0000
(1663863047.328521) can0 50C#11026E0000000000
(1663863047.352300) can0 330#0000000200000000
(1663863047.359321) can0 2FC#0000000000000046
(1663863047.362378) can0 340#0000000000000000
(1663863047.363328) can0 353#33810000118E0000
(1663863047.364615) can0 2D4#0000000010100000
(1663863047.372310) can0 128#0080000000000000
(1663863047.373225) can0 6F6#153BA44781A5F1BD
(1663863047.403595) can0 2E1#4000000000000000
(1663863047.404596) can0 2E3#0000000000000000
(1663863047.409300) can0 2E2#0000000000000000
(1663863047.410314) can0 313#8400000000000000
(1663863047.411330) can0 315#00000007FF000000
(1663863047.412321) can0 330#0000000200000000
(1663863047.413278) can0 353#33810000118E0000
(1663863047.422320) can0 511#41026E0000040400
(1663863047.458919) can0 2E6#064E000000000000
(1663863047.459911) can0 2FC#0000000000000046
(1663863047.460878) can0 2EC#029F0303064E0000
(1663863047.461878) can0 2EF#04E3064E081D0000
(1663863047.462875) can0 340#0000000000000000
(1663863047.463810) can0 2F2#0B0C0A0C0947C804
(1663863047.464763) can0 353#33810000118E0000
(1663863047.465697) can0 30F#110D070F12020000
(1663863047.466718) can0 640#0000000000000000
(1663863047.467663) can0 311#1F9F9F0A1F1F0701
(1663863047.472335) can0 128#0080000000000000
(1663863047.473331) can0 330#0000000200000000
(1663863047.500517) can0 360#0000000000000000
(1663863047.501523) can0 365#0000000000000000
(1663863047.503599) can0 2CA#0000000000000000
(1663863047.504593) can0 541#5502000000000000
(1663863047.512257) can0 353#33810000118E0000
(1663863047.532288) can0 330#0000000200000000
(1663863047.556445) can0 409#24880008200A4921
(1663863047.559330) can0 2FC#0000000000000046
(1663863047.562305) can0 340#0000000000000000
(1663863047.563259) can0 353#33810000118E0000
(1663863047.572304) can0 128#0080000000000000
(1663863047.592297) can0 330#0000000200000000
(1663863047.594642) can0 555#5C12000000000000
(1663863047.612281) can0 353#33810000118E0000
(1663863047.613215) can0 6F6#153BA44781A5F1BD
(1663863047.614636) can0 2D4#0000000010100000
(1663863047.652309) can0 330#0000000200000000
(1663863047.653611) can0 2E1#4000000000000000
(1663863047.654617) can0 2E3#0000000000000000
(1663863047.659216) can0 2E6#064E000000000000
(1663863047.660207) can0 2E2#0000000000000000
(1663863047.661174) can0 2EC#029F0303064E0000
(1663863047.662182) can0 2FC#0000000000000046
(1663863047.663175) can0 2EF#04E3064E081D0000
(1663863047.664114) can0 307#0000008000000000
(1663863047.665050) can0 2F2#0B0C0A0C0947C804
(1663863047.666031) can0 313#8400000000000000
(1663863047.667037) can0 2F4#3000FFFFFFFC0000
(1663863047.668029) can0 315#00000007FF000000
(1663863047.669034) can0 2F9#0000000000000000
(1663863047.670033) can0 340#0000000000000000
(1663863047.670993) can0 309#2020202020202020
(1663863047.671943) can0 353#33810000118E0000
(1663863047.672943) can0 128#0080000000000000
(1663863047.673912) can0 30B#0000020000130804
(1663863047.674958) can0 30D#0000000140160000
(1663863047.675964) can0 30F#110D070F12020000
(1663863047.676996) can0 311#1F9F9F0A1F1F0701
(1663863047.677987) can0 317#5739453836313031
(1663863047.679067) can0 6FC#0000000000000000
(1663863047.689454) can0 55C#0102000000000000
(1663863047.703622) can0 2CA#0000000000000000
(1663863047.712287) can0 330#0000000200000000
(1663863047.713247) can0 353#33810000118E0000
(1663863047.759364) can0 2FC#0000000000000046
(1663863047.762320) can0 340#0000000000000000
(1663863047.763250) can0 353#33810000118E0000
(1663863047.772296) can0 128#0080000000000000
(1663863047.773285) can0 330#0000000200000000
(1663863047.776918) can0 501#0C026E0000000000
(1663863047.806731) can0 409#24880008200A4921
(1663863047.807699) can0 403#020200242400F400
(1663863047.808686) can0 406#0504000700000000
(1663863047.812245) can0 353#33810000118E0000
(1663863047.832286) can0 330#0000000200000000
(1663863047.852220) can0 6F6#15D049AA0E5404E8
(1663863047.859343) can0 2FC#0000000000000046
(1663863047.860320) can0 2E6#064E000000000000
(1663863047.861340) can0 2EC#029F0303064E0000
(1663863047.862339) can0 340#0000000000000000
(1663863047.863283) can0 2EF#04E3064E081D0000
(1663863047.864233) can0 353#33810000118E0000
(1663863047.865224) can0 2D4#0000000010100000
(1663863047.866159) can0 2F2#0B0C0A0C0947C804
(1663863047.867174) can0 30F#110D070F12020000
(1663863047.868204) can0 311#1F9F9F0A1F1F0701
(1663863047.870997) can0 50C#11026E0000000000
(1663863047.872299) can0 128#0080000000000000
(1663863047.892287) can0 330#0000000200000000
(1663863047.903602) can0 2CA#0000000000000000
(1663863047.904592) can0 2E1#4000000000000000
(1663863047.905600) can0 2E3#0000000000000000
(1663863047.909321) can0 2E2#0000000000000000
(1663863047.910329) can0 313#8400000000000000
(1663863047.911373) can0 315#00000007FF000000
(1663863047.912324) can0 353#33810000118E0000
(1663863047.952310) can0 330#0000000200000000
(1663863047.959365) can0 2FC#0000000000000046
(1663863047.962322) can0 340#0000000000000000
(1663863047.963273) can0 353#33810000118E0000
(1663863047.964232) can0 511#41026E0000040400
(1663863047.972319) can0 128#0080000000000000
(1663863048.012074) can0 360#0000000000000000
(1663863048.013085) can0 330#0000000200000000
(1663863048.014001) can0 353#33810000118E0000
(1663863048.014989) can0 365#0000000000000000
(1663863048.057042) can0 409#24880008200A4921
(1663863048.059371) can0 2FC#0000000000000046
(1663863048.061267) can0 2E6#064E000000000000
(1663863048.062292) can0 2EC#029F0303064E0000
(1663863048.063292) can0 340#0000000000000000
(1663863048.064233) can0 2EF#04E3064E081D0000
(1663863048.065184) can0 353#33810000118E0000
(1663863048.066119) can0 2F2#0B0C0A0C0947C804
(1663863048.067103) can0 541#5502000000000000
(1663863048.068038) can0 30F#110D070F12020000
(1663863048.069069) can0 311#1F9F9F0A1F1F0701
(1663863048.072315) can0 128#0080000000000000
(1663863048.073310) can0 330#0000000200000000
(1663863048.092234) can0 6F6#15D049AA0E5404E8
(1663863048.103634) can0 2CA#0000000000000000
(1663863048.112263) can0 353#33810000118E0000
(1663863048.114647) can0 2D4#0000000010100000
(1663863048.132367) can0 330#0000000200000000
(1663863048.153628) can0 2E1#4000000000000000
(1663863048.154633) can0 2E3#0000000000000000
(1663863048.155606) can0 555#5C12000000000000
(1663863048.159366) can0 2E2#0000000000000000
(1663863048.160388) can0 2FC#0000000000000046
(1663863048.161395) can0 2F4#3000FFFFFFFC0000
(1663863048.162387) can0 307#0000008000000000
(1663863048.163397) can0 2F9#0000000000000000
(1663863048.164377) can0 313#8400000000000000
(1663863048.165336) can0 309#2020202020202020
(1663863048.166327) can0 315#00000007FF000000
(1663863048.167293) can0 30B#0000020000130804
(1663863048.168293) can0 340#0000000000000000
(1663863048.169268) can0 30D#0000000140160000
(1663863048.170219) can0 353#33810000118E0000
(1663863048.172314) can0 128#0080000000000000
(1663863048.192300) can0 330#0000000200000000
(1663863048.212276) can0 353#33810000118E0000
(1663863048.249454) can0 55C#0102000000000000
(1663863048.252273) can0 330#0000000200000000
(1663863048.259383) can0 2FC#0000000000000046
(1663863048.260736) can0 2E6#064E000000000000
(1663863048.261741) can0 2EC#029F0303064E0000
(1663863048.262739) can0 340#0000000000000000
(1663863048.263693) can0 2EF#04E3064E081D0000
(1663863048.264634) can0 353#33810000118E0000
(1663863048.265569) can0 2F2#0B0C0A0C0947C804
(1663863048.266584) can0 30F#110D070F12020000
(1663863048.267616) can0 311#1F9F9F0A1F1F0701
(1663863048.272286) can0 128#0080000000000000
(1663863048.303617) can0 2CA#0000000000000000
(1663863048.307307) can0 409#24880008200A4921
(1663863048.308283) can0 403#020200242400F400
(1663863048.309266) can0 406#0504000700000000
(1663863048.312290) can0 330#0000000200000000
(1663863048.313241) can0 353#33810000118E0000
(1663863048.332208) can0 6F6#15D049AA0E5404E8
(1663863048.337527) can0 501#0C026E0000000000
(1663863048.359359) can0 2FC#0000000000000046
(1663863048.362285) can0 340#0000000000000000
(1663863048.363237) can0 353#33810000118E0000
(1663863048.364635) can0 2D4#0000000010100000
(1663863048.372347) can0 128#0080000000000000
(1663863048.373339) can0 330#0000000200000000
(1663863048.403617) can0 2E1#4000000000000000
(1663863048.404618) can0 2E3#0000000000000000
(1663863048.409339) can0 2E2#0000000000000000
(1663863048.410345) can0 313#8400000000000000
(1663863048.411362) can0 315#00000007FF000000
(1663863048.412321) can0 353#33810000118E0000
(1663863048.430759) can0 50C#11026E0000000000
(1663863048.432271) can0 330#0000000200000000
(1663863048.459361) can0 2FC#0000000000000046
(1663863048.460687) can0 2E6#064E000000000000
(1663863048.461710) can0 2EC#029F0303064E0000
(1663863048.462717) can0 340#0000000000000000
(1663863048.463656) can0 2EF#04E3064E081D0000
(1663863048.464599) can0 353#33810000118E0000
(1663863048.465539) can0 2F2#0B0C0A0C0947C804
(1663863048.466547) can0 640#0000000000000000
(1663863048.467481) can0 30F#110D070F12020000
(1663863048.468513) can0 311#1F9F9F0A1F1F0701
(1663863048.472289) can0 128#0080000000000000
(1663863048.492275) can0 330#0000000200000000
(1663863048.503635) can0 2CA#0000000000000000
(1663863048.512237) can0 353#33810000118E0000
(1663863048.522293) can0 511#41026E0000040400
(1663863048.523567) can0 360#0000000000000000
(1663863048.524568) can0 365#0000000000000000
(1663863048.552274) can0 330#0000000200000000
(1663863048.557649) can0 409#24880008200A4921
(1663863048.559368) can0 2FC#0000000000000046
(1663863048.562287) can0 340#0000000000000000
(1663863048.563240) can0 353#33810000118E0000
(1663863048.572308) can0 128#0080000000000000
(1663863048.573230) can0 6F6#15D049AA0E5404E8
(1663863048.603688) can0 541#5502000000000000
(1663863048.612275) can0 330#0000000200000000
(1663863048.613228) can0 353#33810000118E0000
(1663863048.614642) can0 2D4#0000000010100000
(1663863048.653655) can0 2E1#4000000000000000
(1663863048.654650) can0 2E3#0000000000000000
(1663863048.659506) can0 2E2#0000000000000000
(1663863048.660527) can0 2FC#0000000000000046
(1663863048.661551) can0 307#0000008000000000
(1663863048.662526) can0 2E6#064E000000000000
(1663863048.663513) can0 313#8400000000000000
(1663863048.664477) can0 2EC#029F0303064E0000
(1663863048.665470) can0 315#00000007FF000000
(1663863048.666419) can0 2EF#04E3064E081D0000
(1663863048.667412) can0 340#0000000000000000
(1663863048.668355) can0 2F2#0B0C0A0C0947C804
(1663863048.669297) can0 353#33810000118E0000
(1663863048.670304) can0 2F4#3000FFFFFFFC0000
(1663863048.671373) can0 2F9#0000000000000000
(1663863048.672374) can0 128#0080000000000000
(1663863048.673340) can0 309#2020202020202020
(1663863048.674319) can0 330#0000000200000000
(1663863048.675290) can0 30B#0000020000130804
(1663863048.676338) can0 30D#0000000140160000
(1663863048.677346) can0 30F#110D070F12020000
(1663863048.678377) can0 311#1F9F9F0A1F1F0701
(1663863048.679368) can0 317#5739453836313031
(1663863048.680450) can0 6FC#0000000000000000
(1663863048.694688) can0 555#5C12000000000000
(1663863048.703651) can0 2CA#0000000000000000
(1663863048.712262) can0 353#33810000118E0000
(1663863048.732268) can0 330#0000000200000000
(1663863048.759396) can0 2FC#0000000000000046
(1663863048.762302) can0 340#0000000000000000
(1663863048.763230) can0 353#33810000118E0000
(1663863048.772295) can0 128#0080000000000000
(1663863048.789470) can0 55C#0102000000000000
(1663863048.792288) can0 330#0000000200000000
(1663863048.807860) can0 409#24880008200A4921
(1663863048.808832) can0 403#020200242400F400
(1663863048.809823) can0 406#0504000700000000
(1663863048.812223) can0 353#33810000118E0000
(1663863048.813177) can0 6F6#15C15EBD7B5F0B46
(1663863048.852266) can0 330#0000000200000000
(1663863048.859378) can0 2FC#0000000000000046
(1663863048.861627) can0 2E6#064E000000000000
(1663863048.862623) can0 340#0000000000000000
(1663863048.863594) can0 2EC#029F0303064E0000
(1663863048.864540) can0 353#33810000118E0000
(1663863048.865532) can0 2D4#0000000010100000
(1663863048.866474) can0 2EF#04E3064E081D0000
(1663863048.867466) can0 2F2#0B0C0A0C0947C804
(1663863048.868480) can0 30F#110D070F12020000
(1663863048.869512) can0 311#1F9F9F0A1F1F0701
(1663863048.872279) can0 128#0080000000000000
(1663863048.878176) can0 501#0C026E0000000000
(1663863048.903627) can0 2CA#0000000000000000
(1663863048.904623) can0 2E1#4000000000000000
(1663863048.905629) can0 2E3#0000000000000000
(1663863048.909367) can0 2E2#0000000000000000
(1663863048.910381) can0 313#8400000000000000
(1663863048.911395) can0 315#00000007FF000000
(1663863048.912386) can0 330#0000000200000000
(1663863048.913349) can0 353#33810000118E0000
(1663863048.959407) can0 2FC#0000000000000046
(1663863048.962297) can0 340#0000000000000000
(1663863048.963252) can0 353#33810000118E0000
(1663863048.972063) can0 50C#11026E0000000000
(1663863048.973089) can0 128#0080000000000000
(1663863048.974052) can0 330#0000000200000000
(1663863049.012282) can0 353#33810000118E0000
(1663863049.032282) can0 330#0000000200000000
(1663863049.035143) can0 360#0000000000000000
(1663863049.036148) can0 365#0000000000000000
(1663863049.052221) can0 6F6#15C15EBD7B5F0B46
(1663863049.058234) can0 409#24880008200A4921
(1663863049.059460) can0 2FC#0000000000000046
(1663863049.062178) can0 2E6#064E000000000000
(1663863049.063183) can0 340#0000000000000000
(1663863049.064144) can0 2EC#029F0303064E0000
(1663863049.065095) can0 353#33810000118E0000
(1663863049.066039) can0 2EF#04E3064E081D0000
(1663863049.067030) can0 2F2#0B0C0A0C0947C804
(1663863049.068045) can0 30F#110D070F12020000
(1663863049.069076) can0 311#1F9F9F0A1F1F0701
(1663863049.072299) can0 128#0080000000000000
(1663863049.073263) can0 511#41026E0000040400
(1663863049.092341) can0 330#0000000200000000
(1663863049.103661) can0 2CA#0000000000000000
(1663863049.112247) can0 353#33810000118E0000
(1663863049.114672) can0 2D4#0000000010100000
(1663863049.152263) can0 330#0000000200000000
(1663863049.153632) can0 2E1#4000000000000000
(1663863049.154638) can0 2E3#0000000000000000
(1663863049.159374) can0 2E2#0000000000000000
(1663863049.160398) can0 2FC#0000000000000046
(1663863049.161422) can0 307#0000008000000000
(1663863049.162422) can0 340#0000000000000000
(1663863049.163432) can0 2F4#3000FFFFFFFC0000
(1663863049.164411) can0 313#8400000000000000
(1663863049.165418) can0 2F9#0000000000000000
(1663863049.166409) can0 315#00000007FF000000
(1663863049.167369) can0 309#2020202020202020
(1663863049.168320) can0 353#33810000118E0000
(1663863049.169287) can0 30B#0000020000130804
(1663863049.170270) can0 541#5502000000000000
(1663863049.171246) can0 30D#0000000140160000
(1663863049.172310) can0 128#0080000000000000
(1663863049.212264) can0 330#0000000200000000
(1663863049.213214) can0 353#33810000118E0000
(1663863049.254704) can0 555#5C12000000000000
(1663863049.259430) can0 2FC#0000000000000046
(1663863049.261791) can0 2E6#064E000000000000
(1663863049.262781) can0 340#0000000000000000
(1663863049.263733) can0 2EC#029F0303064E0000
(1663863049.264682) can0 353#33810000118E0000
(1663863049.265633) can0 2EF#04E3064E081D0000
(1663863049.266626) can0 2F2#0B0C0A0C0947C804
(1663863049.267641) can0 30F#110D070F12020000
(1663863049.268671) can0 311#1F9F9F0A1F1F0701
(1663863049.272293) can0 128#0080000000000000
(1663863049.273281) can0 330#0000000200000000
(1663863049.292215) can0 6F6#15C15EBD7B5F0B46
(1663863049.303657) can0 2CA#0000000000000000
(1663863049.308454) can0 409#24880008200A4921
(1663863049.309426) can0 403#020200242400F400
(1663863049.310417) can0 406#0504000700000000
(1663863049.312242) can0 353#33810000118E0000
(1663863049.332294) can0 330#0000000200000000
(1663863049.349490) can0 55C#0102000000000000
(1663863049.359397) can0 2FC#0000000000000046
(1663863049.362271) can0 340#0000000000000000
(1663863049.363224) can0 353#33810000118E0000
(1663863049.364661) can0 2D4#0000000010100000
(1663863049.372268) can0 128#0080000000000000
(1663863049.392260) can0 330#0000000200000000
(1663863049.403638) can0 2E1#4000000000000000
(1663863049.404641) can0 2E3#0000000000000000
(1663863049.409387) can0 2E2#0000000000000000
(1663863049.410401) can0 313#8400000000000000
(1663863049.411415) can0 315#00000007FF000000
(1663863049.412367) can0 353#33810000118E0000
(1663863049.438776) can0 501#0C026E0000000000
(1663863049.452282) can0 330#0000000200000000
(1663863049.453292) can0 640#0000000000000000
(1663863049.459401) can0 2FC#0000000000000046
(1663863049.462280) can0 340#0000000000000000
(1663863049.463269) can0 2E6#064E000000000000
(1663863049.464205) can0 353#33810000118E0000
(1663863049.465176) can0 2EC#029F0303064E0000
(1663863049.466173) can0 2EF#04E3064E081D0000
(1663863049.467165) can0 2F2#0B0C0A0C0947C804
(1663863049.468179) can0 30F#110D070F12020000
(1663863049.469210) can0 311#1F9F9F0A1F1F0701
(1663863049.472267) can0 128#0080000000000000
(1663863049.503654) can0 2CA#0000000000000000
(1663863049.512259) can0 330#0000000200000000
(1663863049.513212) can0 353#33810000118E0000
(1663863049.532129) can0 50C#11026E0000000000
(1663863049.533077) can0 6F6#15C15EBD7B5F0B46
(1663863049.546590) can0 360#0000000000000000
(1663863049.547592) can0 365#0000000000000000
(1663863049.558732) can0 409#24880008200A4921
(1663863049.559727) can0 2FC#0000000000000046
(1663863049.562287) can0 340#0000000000000000
(1663863049.563240) can0 353#33810000118E0000
(1663863049.572268) can0 128#0080000000000000
(1663863049.573263) can0 330#0000000200000000
(1663863049.612223) can0 353#33810000118E0000
(1663863049.614678) can0 2D4#0000000010100000
(1663863049.632251) can0 330#0000000200000000
(1663863049.633218) can0 511#41026E0000040400
(1663863049.653640) can0 2E1#4000000000000000
(1663863049.654647) can0 2E3#0000000000000000
(1663863049.659399) can0 2E2#0000000000000000
(1663863049.660422) can0 2FC#0000000000000046
(1663863049.661445) can0 307#0000008000000000
(1663863049.662443) can0 340#0000000000000000
(1663863049.663424) can0 2E6#064E000000000000
(1663863049.664403) can0 313#8400000000000000
(1663863049.665370) can0 2EC#029F0303064E0000
(1663863049.666370) can0 315#00000007FF000000
(1663863049.667304) can0 2EF#04E3064E081D0000
(1663863049.668256) can0 353#33810000118E0000
(1663863049.669191) can0 2F2#0B0C0A0C0947C804
(1663863049.670263) can0 2F4#3000FFFFFFFC0000
(1663863049.671333) can0 2F9#0000000000000000
(1663863049.672333) can0 128#0080000000000000
(1663863049.673297) can0 309#2020202020202020
(1663863049.674332) can0 30B#0000020000130804
(1663863049.675379) can0 30D#0000000140160000
(1663863049.676387) can0 30F#110D070F12020000
(1663863049.677420) can0 311#1F9F9F0A1F1F0701
(1663863049.678408) can0 317#5739453836313031
(1663863049.679488) can0 6FC#0000000000000000
(1663863049.692251) can0 330#0000000200000000
(1663863049.703651) can0 2CA#0000000000000000
(1663863049.712214) can0 353#33810000118E0000
(1663863049.723714) can0 541#5502000000000000
(1663863049.752243) can0 330#0000000200000000
(1663863049.759426) can0 2FC#0000000000000046
(1663863049.762286) can0 340#0000000000000000
(1663863049.763230) can0 353#33810000118E0000
(1663863049.772273) can0 128#0080000000000000
(1663863049.773227) can0 6F6#15C15EBD7B5F0B46
(1663863049.809006) can0 409#24880008200A4921
(1663863049.809977) can0 403#020200242400F400
(1663863049.810967) can0 406#0504000700000000
(1663863049.812247) can0 330#0000000200000000
(1663863049.813204) can0 353#33810000118E0000
(1663863049.814686) can0 555#5C12000000000000
(1663863049.859412) can0 2FC#0000000000000046
(1663863049.862295) can0 340#0000000000000000
(1663863049.863270) can0 2E6#064E000000000000
(1663863049.864229) can0 353#33810000118E0000
(1663863049.865214) can0 2D4#0000000010100000
(1663863049.866181) can0 2EC#029F0303064E0000
(1663863049.867178) can0 2EF#04E3064E081D0000
(1663863049.868172) can0 2F2#0B0C0A0C0947C804
(1663863049.869187) can0 30F#110D070F12020000
(1663863049.870218) can0 311#1F9F9F0A1F1F0701
(1663863049.872259) can0 128#0080000000000000
(1663863049.873250) can0 330#0000000200000000
(1663863049.903663) can0 2CA#0000000000000000
(1663863049.904639) can0 2E1#4000000000000000
(1663863049.905653) can0 2E3#0000000000000000
(1663863049.909397) can0 2E2#0000000000000000
(1663863049.910404) can0 313#8400000000000000
(1663863049.911421) can0 315#00000007FF000000
(1663863049.912371) can0 353#33810000118E0000
(1663863049.913380) can0 55C#0102000000000000
(1663863049.932246) can0 330#0000000200000000
(1663863049.959415) can0 2FC#0000000000000046
(1663863049.962256) can0 340#0000000000000000
(1663863049.963208) can0 353#33810000118E0000
(1663863049.972258) can0 128#0080000000000000
(1663863049.992240) can0 330#0000000200000000
(1663863049.999402) can0 501#0C026E0000000000
(1663863050.012213) can0 353#33810000118E0000
(1663863050.013159) can0 6F6#15FC63804662367B
(1663863050.052240) can0 330#0000000200000000
(1663863050.058201) can0 360#0000000000000000
(1663863050.059202) can0 365#0000000000000000
(1663863050.060199) can0 2FC#0000000000000046
(1663863050.061143) can0 409#24880008200A4921
(1663863050.062275) can0 340#0000000000000000
(1663863050.063231) can0 353#33810000118E0000
(1663863050.064202) can0 2E6#064E000000000000
(1663863050.065224) can0 2EC#029F0303064E0000
(1663863050.066223) can0 2EF#04E3064E081D0000
(1663863050.067213) can0 2F2#0B0C0A0C0947C804
(1663863050.068229) can0 30F#110D070F12020000
(1663863050.069261) can0 311#1F9F9F0A1F1F0701
(1663863050.072276) can0 128#0080000000000000
(1663863050.093805) can0 50C#11026E0000000000
(1663863050.103680) can0 2CA#0000000000000000
(1663863050.112290) can0 330#0000000200000000
(1663863050.113245) can0 353#33810000118E0000
(1663863050.114698) can0 2D4#0000000010100000
