(1663746925.176437) can0 73E#0250FA0000000000
(1663746927.477724) can0 73E#0250FA0000000000
(1663746974.005793) can0 73E#0250FA0000000000
(1663747006.695041) can0 73E#037F021100000000
(1663747022.272602) can0 73E#037F121100000000
(1663747026.394514) can0 73E#037F131100000000
(1663747030.414239) can0 73E#037F201100000000
(1663747034.965756) can0 73E#037F211200000000
(1663747040.059377) can0 73E#037FBF1100000000
(1663747045.776956) can0 73E#037FBA1100000000
(1663747048.528293) can0 73E#037FBB1100000000
(1663747053.611723) can0 73E#037FB31100000000
(1663747058.163255) can0 73E#037FA01100000000
(1663747061.804383) can0 73E#037FA11100000000
(1663747065.384335) can0 73E#037FA21100000000
(1663747069.588177) can0 73E#037FB41100000000
(1663747072.738434) can0 73E#037FB31100000000
(1663747076.686530) can0 73E#037FB11100000000
(1663747080.727315) can0 73E#037FB11100000000
(1663747085.697552) can0 73E#037FB11100000000
(1663747086.781636) can0 73E#037FB11100000000
(1663747098.340486) can0 73E#037F311200000000
(1663747103.259379) can0 73E#037F311200000000
(1663747109.478200) can0 73E#0271020000000000
(1663747114.704773) can0 73E#0271110000000000
(1663747120.903005) can0 73E#037F313100000000
(1663747123.861291) can0 73E#037F313100000000
(1663747129.637854) can0 73E#037F313100000000
(1663747132.655198) can0 73E#037F313100000000
(1663747135.017864) can0 73E#037F313100000000
(1663747139.242151) can0 73E#037F323100000000
(1663747142.024199) can0 73E#037F322200000000
(1663747147.394012) can0 73E#0271020000000000
(1663747148.283950) can0 73E#0372026400000000
(1663747157.213065) can0 73E#037F331200000000
(1663747160.558543) can0 73E#037F341100000000
(1663747163.432365) can0 73E#037F351100000000
(1663747166.653680) can0 73E#037F361100000000
(1663747169.947869) can0 73E#037F371100000000
(1663747172.974727) can0 73E#037F381100000000
(1663747176.718253) can0 73E#037F361100000000
(1663747182.435811) can0 73E#037F361100000000
(1663747191.968470) can0 73E#037F281200000000
(1663747196.397213) can0 73E#037F281200000000
(1663747199.077520) can0 73E#037F281200000000
(1663747201.941094) can0 73E#037F281200000000
(1663747205.203733) can0 73E#037F281200000000
(1663747212.281692) can0 73E#02C5020000000000
(1663747215.974075) can0 73E#037F871100000000
(1663747219.144794) can0 73E#037F891100000000
(1663747222.346203) can0 73E#037F861100000000
(1663747225.844270) can0 73E#037F831100000000
(1663747228.503584) can0 73E#037F841100000000
(1663747230.764040) can0 73E#037F811100000000
(1663747233.700178) can0 73E#037F801100000000
(1663747238.844305) can0 73E#037F401100000000
(1663747242.516233) can0 73E#037F271100000000
(1663747246.362021) can0 73E#037F251100000000
(1663747249.491878) can0 73E#037F241100000000
(1663747251.844251) can0 73E#037F237800000000
(1663747255.935548) can0 73E#037F237800000000
(1663747260.026835) can0 73E#037F237800000000
(1663747264.118119) can0 73E#037F237800000000
(1663747268.209397) can0 73E#037F237800000000
(1663747272.300656) can0 73E#037F237800000000
(1663747276.392826) can0 73E#037F237800000000
(1663747280.483242) can0 73E#037F237800000000
(1663747284.574530) can0 73E#037F237800000000
(1663747288.665813) can0 73E#037F237800000000
(1663747292.757089) can0 73E#037F237800000000
(1663747296.848418) can0 73E#037F237800000000
(1663747300.939659) can0 73E#037F237800000000
(1663747305.030946) can0 73E#037F237800000000
(1663747309.122203) can0 73E#037F237800000000
(1663747316.169484) can0 73E#037F237800000000
(1663747320.260766) can0 73E#037F237800000000
(1663747324.352060) can0 73E#037F237800000000
(1663747328.443338) can0 73E#037F237800000000
(1663747332.534627) can0 73E#037F237800000000
(1663747336.625899) can0 73E#037F237800000000
(1663747340.718151) can0 73E#037F237800000000
(1663747344.808452) can0 73E#037F237800000000
(1663747348.899759) can0 73E#037F237800000000
(1663747352.991043) can0 73E#037F237800000000
(1663747357.082306) can0 73E#037F237800000000
(1663747361.173611) can0 73E#037F237800000000
(1663747365.264897) can0 73E#037F237800000000
(1663747369.356163) can0 73E#037F237800000000
(1663747373.447440) can0 73E#037F237800000000
(1663747380.689035) can0 73E#037F2F1200000000
(1663747380.699238) can0 73E#037F2F1200000000
(1663747380.709490) can0 73E#037F2F1200000000
(1663747380.719694) can0 73E#037F2F1200000000
(1663747380.730766) can0 73E#037F2F1200000000
(1663747380.750925) can0 73E#037F2F1200000000
(1663747380.772014) can0 73E#037F2F1200000000
(1663747380.791476) can0 73E#037F2F1200000000
(1663747380.811927) can0 73E#037F2F1200000000
(1663747380.832318) can0 73E#037F2F1200000000
(1663747380.852774) can0 73E#037F2F1200000000
(1663747380.862980) can0 73E#037F2F1200000000
(1663747380.873232) can0 73E#037F2F1200000000
(1663747380.883435) can0 73E#037F2F1200000000
(1663747380.893667) can0 73E#037F2F1200000000
(1663747380.903869) can0 73E#037F2F1200000000
(1663747380.914121) can0 73E#037F2F1200000000
(1663747380.924322) can0 73E#037F2F1200000000
(1663747380.934574) can0 73E#037F2F1200000000
(1663747380.944784) can0 73E#037F2F1200000000
(1663747380.955036) can0 73E#037F2F1200000000
(1663747380.965239) can0 73E#037F2F1200000000
(1663747380.975490) can0 73E#037F2F1200000000
(1663747380.985692) can0 73E#037F2F1200000000
(1663747380.995943) can0 73E#037F2F1200000000
(1663747381.006620) can0 73E#037F2F1200000000
(1663747381.016417) can0 73E#037F2F1200000000
(1663747381.037382) can0 73E#037F2F1200000000
(1663747381.047065) can0 73E#037F2F1200000000
(1663747381.057318) can0 73E#037F2F1200000000
(1663747381.067672) can0 73E#037F2F1200000000
(1663747381.078731) can0 73E#037F2F1200000000
(1663747381.088368) can0 73E#037F2F1200000000
(1663747381.098228) can0 73E#037F2F1200000000
(1663747381.108432) can0 73E#037F2F1200000000
(1663747381.118683) can0 73E#037F2F1200000000
(1663747381.128884) can0 73E#037F2F1200000000
(1663747381.139147) can0 73E#037F2F1200000000
(1663747381.149350) can0 73E#037F2F1200000000
(1663747381.159600) can0 73E#037F2F1200000000
(1663747381.169839) can0 73E#037F2F1200000000
(1663747381.180057) can0 73E#037F2F1200000000
(1663747381.190266) can0 73E#037F2F1200000000
(1663747381.200510) can0 73E#037F2F1200000000
(1663747381.210712) can0 73E#037F2F1200000000
(1663747381.221587) can0 73E#037F2F1200000000
(1663747381.231177) can0 73E#037F2F1200000000
(1663747381.241421) can0 73E#037F2F1200000000
(1663747381.251629) can0 73E#037F2F1200000000
(1663747381.261880) can0 73E#037F2F1200000000
(1663747381.272078) can0 73E#037F2F1200000000
(1663747381.282340) can0 73E#037F2F1200000000
(1663747381.292543) can0 73E#037F2F1200000000
(1663747381.302790) can0 73E#037F2F1200000000
(1663747381.312999) can0 73E#037F2F1200000000
(1663747381.323259) can0 73E#037F2F1200000000
(1663747381.333451) can0 73E#037F2F1200000000
(1663747381.343699) can0 73E#037F2F1200000000
(1663747381.353907) can0 73E#037F2F1200000000
(1663747381.364163) can0 73E#037F2F1200000000
(1663747381.374369) can0 73E#037F2F1200000000
(1663747381.384614) can0 73E#037F2F1200000000
(1663747381.394827) can0 73E#037F2F1200000000
(1663747381.405074) can0 73E#037F2F1200000000
(1663747381.415284) can0 73E#037F2F1200000000
(1663747381.426434) can0 73E#037F2F1200000000
(1663747381.435731) can0 73E#037F2F1200000000
(1663747381.445991) can0 73E#037F2F1200000000
(1663747381.456193) can0 73E#037F2F1200000000
(1663747381.466451) can0 73E#037F2F1200000000
(1663747381.476663) can0 73E#037F2F1200000000
(1663747381.487495) can0 73E#037F2F1200000000
(1663747381.499642) can0 73E#037F2F1200000000
(1663747381.517564) can0 73E#037F2F1200000000
(1663747381.530609) can0 73E#037F2F1200000000
(1663747381.548271) can0 73E#037F2F1200000000
(1663747381.558476) can0 73E#037F2F1200000000
(1663747381.568731) can0 73E#037F2F1200000000
(1663747381.578942) can0 73E#037F2F1200000000
(1663747381.590340) can0 73E#037F2F1200000000
(1663747381.610178) can0 73E#037F2F1200000000
(1663747381.630385) can0 73E#037F2F1200000000
(1663747381.650588) can0 73E#037F2F1200000000
(1663747381.671121) can0 73E#037F2F1200000000
(1663747381.681210) can0 73E#037F2F1200000000
(1663747381.691463) can0 73E#037F2F1200000000
(1663747381.701667) can0 73E#037F2F1200000000
(1663747381.711919) can0 73E#037F2F1200000000
(1663747381.722123) can0 73E#037F2F1200000000
(1663747381.732375) can0 73E#037F2F1200000000
(1663747381.742578) can0 73E#037F2F1200000000
(1663747381.752830) can0 73E#037F2F1200000000
(1663747381.763032) can0 73E#037F2F1200000000
(1663747381.773290) can0 73E#037F2F1200000000
(1663747381.783495) can0 73E#037F2F1200000000
(1663747381.793757) can0 73E#037F2F1200000000
(1663747381.803945) can0 73E#037F2F1200000000
(1663747381.814204) can0 73E#037F2F1200000000
(1663747381.824970) can0 73E#037F2F1200000000
(1663747381.834661) can0 73E#037F2F1200000000
(1663747381.844862) can0 73E#037F2F1200000000
(1663747381.855114) can0 73E#037F2F1200000000
(1663747381.865315) can0 73E#037F2F1200000000
(1663747381.875573) can0 73E#037F2F1200000000
(1663747381.885775) can0 73E#037F2F1200000000
(1663747381.896027) can0 73E#037F2F1200000000
(1663747381.906237) can0 73E#037F2F1200000000
(1663747381.916538) can0 73E#037F2F1200000000
(1663747381.926690) can0 73E#037F2F1200000000
(1663747381.937438) can0 73E#037F2F1200000000
(1663747381.947146) can0 73E#037F2F1200000000
(1663747381.957395) can0 73E#037F2F1200000000
(1663747381.967606) can0 73E#037F2F1200000000
(1663747381.978705) can0 73E#037F2F1200000000
(1663747381.988059) can0 73E#037F2F1200000000
(1663747381.998320) can0 73E#037F2F1200000000
(1663747382.008513) can0 73E#037F2F1200000000
(1663747382.019067) can0 73E#037F2F1200000000
(1663747382.039220) can0 73E#037F2F1200000000
(1663747382.049434) can0 73E#037F2F1200000000
(1663747382.059696) can0 73E#037F2F1200000000
(1663747382.069885) can0 73E#037F2F1200000000
(1663747382.080133) can0 73E#037F2F1200000000
(1663747382.090337) can0 73E#037F2F1200000000
(1663747382.100594) can0 73E#037F2F1200000000
(1663747382.110795) can0 73E#037F2F1200000000
(1663747382.121051) can0 73E#037F2F1200000000
(1663747382.131253) can0 73E#037F2F1200000000
(1663747382.141500) can0 73E#037F2F1200000000
(1663747382.151709) can0 73E#037F2F1200000000
(1663747382.161963) can0 73E#037F2F1200000000
(1663747382.172198) can0 73E#037F2F1200000000
(1663747382.182423) can0 73E#037F2F1200000000
(1663747382.192631) can0 73E#037F2F1200000000
(1663747382.202883) can0 73E#037F2F1200000000
(1663747382.213084) can0 73E#037F2F1200000000
(1663747382.223503) can0 73E#037F2F1200000000
(1663747382.233536) can0 73E#037F2F1200000000
(1663747382.243791) can0 73E#037F2F1200000000
(1663747382.253996) can0 73E#037F2F1200000000
(1663747382.264246) can0 73E#037F2F1200000000
(1663747382.274446) can0 73E#037F2F1200000000
(1663747382.284701) can0 73E#037F2F1200000000
(1663747382.294912) can0 73E#037F2F1200000000
(1663747382.305163) can0 73E#037F2F1200000000
(1663747382.315358) can0 73E#037F2F1200000000
(1663747382.325635) can0 73E#037F2F1200000000
(1663747382.335814) can0 73E#037F2F1200000000
(1663747382.346080) can0 73E#037F2F1200000000
(1663747382.356286) can0 73E#037F2F1200000000
(1663747382.366539) can0 73E#037F2F1200000000
(1663747382.376744) can0 73E#037F2F1200000000
(1663747382.386996) can0 73E#037F2F1200000000
(1663747382.399626) can0 73E#037F2F1200000000
(1663747382.418024) can0 73E#037F2F1200000000
(1663747382.430849) can0 73E#037F2F1200000000
(1663747382.448355) can0 73E#037F2F1200000000
(1663747382.458559) can0 73E#037F2F1200000000
(1663747382.468812) can0 73E#037F2F1200000000
(1663747382.479020) can0 73E#037F2F1200000000
(1663747382.489271) can0 73E#037F2F1200000000
(1663747382.500318) can0 73E#037F2F1200000000
(1663747382.520520) can0 73E#037F2F1200000000
(1663747382.540727) can0 73E#037F2F1200000000
(1663747382.560976) can0 73E#037F2F1200000000
(1663747382.581364) can0 73E#037F2F1200000000
(1663747382.591576) can0 73E#037F2F1200000000
(1663747382.601755) can0 73E#037F2F1200000000
(1663747382.612007) can0 73E#037F2F1200000000
(1663747382.632464) can0 73E#037F2F1200000000
(1663747382.642667) can0 73E#037F2F1200000000
(1663747382.652920) can0 73E#037F2F1200000000
(1663747382.663125) can0 73E#037F2F1200000000
(1663747382.673408) can0 73E#037F2F1200000000
(1663747382.683580) can0 73E#037F2F1200000000
(1663747382.693832) can0 73E#037F2F1200000000
(1663747382.704035) can0 73E#037F2F1200000000
(1663747382.724502) can0 73E#037F2F1200000000
(1663747382.734748) can0 73E#037F2F1200000000
(1663747382.744996) can0 73E#037F2F1200000000
(1663747382.755197) can0 73E#037F2F1200000000
(1663747382.765405) can0 73E#037F2F1200000000
(1663747382.775654) can0 73E#037F2F1200000000
(1663747382.785866) can0 73E#037F2F1200000000
(1663747389.986544) can0 73E#037F311200000000
(1663747389.999573) can0 73E#037F311200000000
(1663747390.017708) can0 73E#037F311200000000
(1663747390.033455) can0 73E#037F311200000000
(1663747390.047898) can0 73E#037F311200000000
(1663747390.058151) can0 73E#037F311200000000
(1663747390.068355) can0 73E#037F311200000000
(1663747390.078625) can0 73E#037F311200000000
(1663747390.088937) can0 73E#037F311200000000
(1663747390.099065) can0 73E#037F311200000000
(1663747390.109269) can0 73E#037F311200000000
(1663747390.119521) can0 73E#037F311200000000
(1663747390.130561) can0 73E#037F311200000000
(1663747390.150757) can0 73E#037F311200000000
(1663747390.170995) can0 73E#037F311200000000
(1663747390.191183) can0 73E#037F311200000000
(1663747390.211624) can0 73E#037F311200000000
(1663747390.221829) can0 73E#037F311200000000
(1663747390.232004) can0 73E#037F311200000000
(1663747390.243087) can0 73E#037F311200000000
(1663747390.252467) can0 73E#037F311200000000
(1663747390.262719) can0 73E#037F311200000000
(1663747390.272923) can0 73E#037F311200000000
(1663747390.283173) can0 73E#037F311200000000
(1663747390.293377) can0 73E#037F311200000000
(1663747390.303628) can0 73E#037F311200000000
(1663747390.313831) can0 73E#037F311200000000
(1663747390.324080) can0 73E#037F311200000000
(1663747390.334298) can0 73E#037F311200000000
(1663747390.344542) can0 73E#037F311200000000
(1663747390.354748) can0 73E#037F311200000000
(1663747390.364999) can0 73E#037F311200000000
(1663747390.375203) can0 73E#037F311200000000
(1663747390.385456) can0 73E#037F311200000000
(1663747390.395654) can0 73E#037F311200000000
(1663747390.405914) can0 73E#037F311200000000
(1663747390.416116) can0 73E#037F311200000000
(1663747390.426364) can0 73E#037F311200000000
(1663747390.439001) can0 73E#037F311200000000
(1663747390.447440) can0 73E#037F311200000000
(1663747390.457025) can0 73E#037F311200000000
(1663747390.467278) can0 73E#037F311200000000
(1663747390.477639) can0 73E#037F311200000000
(1663747390.487738) can0 73E#037F311200000000
(1663747390.499638) can0 73E#037F311200000000
(1663747390.508192) can0 73E#037F311200000000
(1663747390.518395) can0 73E#037F311200000000
(1663747390.535421) can0 73E#037F311200000000
(1663747390.549110) can0 73E#037F311200000000
(1663747390.559310) can0 73E#037F311200000000
(1663747390.569564) can0 73E#037F311200000000
(1663747390.579771) can0 73E#037F311200000000
(1663747390.590020) can0 73E#037F311200000000
(1663747390.600226) can0 73E#037F311200000000
(1663747390.610471) can0 73E#037F311200000000
(1663747390.620680) can0 73E#037F311200000000
(1663747390.630932) can0 73E#037F311200000000
(1663747390.641838) can0 73E#037F311200000000
(1663747390.651393) can0 73E#037F311200000000
(1663747390.661590) can0 73E#037F311200000000
(1663747390.671848) can0 73E#037F311200000000
(1663747390.682048) can0 73E#037F311200000000
(1663747390.692345) can0 73E#037F311200000000
(1663747390.702503) can0 73E#037F311200000000
(1663747390.712755) can0 73E#037F311200000000
(1663747390.722967) can0 73E#037F311200000000
(1663747390.733217) can0 73E#037F311200000000
(1663747390.743454) can0 73E#037F311200000000
(1663747390.753670) can0 73E#037F311200000000
(1663747390.763873) can0 73E#037F311200000000
(1663747390.774129) can0 73E#037F311200000000
(1663747390.784339) can0 73E#037F311200000000
(1663747390.794587) can0 73E#037F311200000000
(1663747390.804779) can0 73E#037F311200000000
(1663747390.815037) can0 73E#037F311200000000
(1663747390.825242) can0 73E#037F311200000000
(1663747390.835496) can0 73E#037F311200000000
(1663747390.845794) can0 73E#037F311200000000
(1663747390.855952) can0 73E#037F311200000000
(1663747390.866158) can0 73E#037F311200000000
(1663747390.876420) can0 73E#037F311200000000
(1663747390.886632) can0 73E#037F311200000000
(1663747390.900582) can0 73E#037F311200000000
(1663747390.917666) can0 73E#037F311200000000
(1663747390.929552) can0 73E#037F311200000000
(1663747390.947982) can0 73E#037F311200000000
(1663747390.958239) can0 73E#037F311200000000
(1663747390.968439) can0 73E#037F311200000000
(1663747390.978755) can0 73E#037F311200000000
(1663747390.988921) can0 73E#037F311200000000
(1663747390.999978) can0 73E#037F311200000000
(1663747391.020159) can0 73E#037F311200000000
(1663747391.040367) can0 73E#037F311200000000
(1663747391.060565) can0 73E#037F311200000000
(1663747391.081042) can0 73E#037F311200000000
(1663747391.091901) can0 73E#037F311200000000
(1663747391.101433) can0 73E#037F311200000000
(1663747391.111630) can0 73E#037F311200000000
(1663747391.121881) can0 73E#037F311200000000
(1663747391.132092) can0 73E#037F311200000000
(1663747391.142345) can0 73E#037F311200000000
(1663747391.152549) can0 73E#037F311200000000
(1663747391.162799) can0 73E#037F311200000000
(1663747391.173002) can0 73E#037F311200000000
(1663747391.183252) can0 73E#037F311200000000
(1663747391.193495) can0 73E#037F311200000000
(1663747391.203713) can0 73E#037F311200000000
(1663747391.213916) can0 73E#037F311200000000
(1663747391.224166) can0 73E#037F311200000000
(1663747391.234369) can0 73E#037F311200000000
(1663747391.245449) can0 73E#037F311200000000
(1663747391.254832) can0 73E#037F311200000000
(1663747391.265082) can0 73E#037F311200000000
(1663747391.275285) can0 73E#037F311200000000
(1663747391.285539) can0 73E#037F311200000000
(1663747391.295743) can0 73E#037F311200000000
(1663747391.305991) can0 73E#037F311200000000
(1663747391.316202) can0 73E#037F311200000000
(1663747391.326452) can0 73E#037F311200000000
(1663747391.336656) can0 73E#037F311200000000
(1663747391.346905) can0 73E#037F311200000000
(1663747391.357108) can0 73E#037F311200000000
(1663747391.367361) can0 73E#037F311200000000
(1663747391.378573) can0 73E#037F311200000000
(1663747391.387819) can0 73E#037F311200000000
(1663747391.399639) can0 73E#037F311200000000
(1663747391.408273) can0 73E#037F311200000000
(1663747391.418481) can0 73E#037F311200000000
(1663747391.428732) can0 73E#037F311200000000
(1663747391.438961) can0 73E#037F311200000000
(1663747391.449585) can0 73E#037F311200000000
(1663747391.459485) can0 73E#037F311200000000
(1663747391.469644) can0 73E#037F311200000000
(1663747391.479845) can0 73E#037F311200000000
(1663747391.490103) can0 73E#037F311200000000
(1663747391.500306) can0 73E#037F311200000000
(1663747391.510554) can0 73E#037F311200000000
(1663747391.520767) can0 73E#037F311200000000
(1663747391.533522) can0 73E#037F311200000000
(1663747391.541225) can0 73E#037F311200000000
(1663747391.551473) can0 73E#037F311200000000
(1663747391.561677) can0 73E#037F311200000000
(1663747391.571935) can0 73E#037F311200000000
(1663747391.582132) can0 73E#037F311200000000
(1663747391.592385) can0 73E#037F311200000000
(1663747391.602588) can0 73E#037F311200000000
(1663747391.612839) can0 73E#037F311200000000
(1663747391.623050) can0 73E#037F311200000000
(1663747391.633300) can0 73E#037F311200000000
(1663747391.643948) can0 73E#037F311200000000
(1663747391.653747) can0 73E#037F311200000000
(1663747391.663955) can0 73E#037F311200000000
(1663747391.674214) can0 73E#037F311200000000
(1663747391.684419) can0 73E#037F311200000000
(1663747391.694704) can0 73E#037F311200000000
(1663747391.704864) can0 73E#037F311200000000
(1663747391.715119) can0 73E#037F311200000000
(1663747391.725324) can0 73E#037F311200000000
(1663747391.735581) can0 73E#037F311200000000
(1663747391.745784) can0 73E#037F311200000000
(1663747391.758943) can0 73E#037F311200000000
(1663747391.776488) can0 73E#037F311200000000
(1663747391.786705) can0 73E#037F311200000000
(1663747391.799554) can0 73E#037F311200000000
(1663747391.817655) can0 73E#037F311200000000
(1663747391.827621) can0 73E#037F311200000000
(1663747391.838037) can0 73E#037F311200000000
(1663747391.848366) can0 73E#037F311200000000
(1663747391.858315) can0 73E#037F311200000000
(1663747391.868530) can0 73E#037F311200000000
(1663747398.383895) can0 73E#037FF61100000000
(1663747398.414557) can0 73E#037FD51100000000
(1663747398.445278) can0 73E#037F5F1100000000
(1663747398.532233) can0 73E#3000000000000000
(1663747398.619125) can0 73E#037F5A1100000000
(1663747398.704029) can0 73E#3000000000000000
(1663747398.857323) can0 73E#037F3C1200000000
(1663747398.946487) can0 73E#3000000000000000
(1663747398.977602) can0 73E#037FCD1100000000
(1663747398.987823) can0 73E#3000000000000000
(1663747399.047522) can0 73E#3000000000000000
(1663747399.090510) can0 73E#037F201100000000
(1663747399.118259) can0 73E#3000000000000000
(1663747399.188968) can0 73E#037F771200000000
(1663747399.370811) can0 73E#037FD71200000000
(1663747399.380917) can0 73E#037FD01200000000
(1663747399.427544) can0 73E#037F191100000000
(1663747399.552832) can0 73E#3000000000000000
(1663747399.674072) can0 73E#037F661200000000
(1663747399.775184) can0 73E#3000000000000000
(1663747399.876236) can0 73E#3000000000000000
(1663747400.229890) can0 73E#037F891200000000
(1663747400.347708) can0 73E#037FAE1100000000
(1663747400.371611) can0 73E#3000000000000000
(1663747400.533242) can0 73E#3000000000000000
(1663747400.543291) can0 73E#037F0D1200000000
(1663747400.725131) can0 73E#037FA81200000000
(1663747400.735348) can0 73E#3000000000000000
(1663747400.775736) can0 73E#3000000000000000
(1663747400.785761) can0 73E#037F441200000000
(1663747401.206890) can0 73E#037FC21100000000
(1663747401.210872) can0 73E#3000000000000000
(1663747401.291795) can0 73E#3000000000000000
(1663747401.382591) can0 73E#037F851200000000
(1663747401.443223) can0 73E#037FC51200000000
(1663747401.554442) can0 73E#3000000000000000
(1663747401.605771) can0 73E#037FF11100000000
(1663747401.687590) can0 73E#037FD41100000000
(1663747401.878575) can0 73E#3000000000000000
(1663747401.892160) can0 73E#037FC81100000000
(1663747401.929473) can0 73E#3000000000000000
(1663747401.939285) can0 73E#3000000000000000
(1663747409.162216) can0 73E#037F221200000000
(1663747409.184908) can0 73E#037FAC1100000000
(1663747409.193046) can0 73E#3000000000000000
(1663747409.329016) can0 73E#037FB71100000000
(1663747409.387640) can0 73E#3000000000000000
(1663747409.461033) can0 73E#037FC51100000000
(1663747409.651154) can0 73E#3000000000000000
(1663747409.682334) can0 73E#3000000000000000
(1663747410.064551) can0 73E#037FC01100000000
(1663747410.086472) can0 73E#3000000000000000
(1663747410.504326) can0 73E#037F001100000000
(1663747410.803095) can0 73E#037F0F1200000000
(1663747410.823340) can0 73E#3000000000000000
(1663747410.844276) can0 73E#3000000000000000
(1663747410.905057) can0 73E#3000000000000000
(1663747410.954659) can0 73E#037F3F1200000000
(1663747411.045529) can0 73E#037FDE1200000000
(1663747411.056627) can0 73E#037FC71100000000
(1663747411.094859) can0 73E#3000000000000000
(1663747411.137537) can0 73E#3000000000000000
(1663747411.711262) can0 73E#037F7F1100000000
(1663747411.914624) can0 73E#3000000000000000
(1663747411.924726) can0 73E#3000000000000000
(1663747411.995503) can0 73E#3000000000000000
(1663747412.253368) can0 73E#037F5F1100000000
(1663747412.263575) can0 73E#037F581100000000
(1663747412.376117) can0 73E#037F701100000000
(1663747412.379341) can0 73E#3000000000000000
(1663747412.399486) can0 73E#3000000000000000
(1663747412.631881) can0 73E#3000000000000000
(1663747412.754520) can0 73E#037F531100000000
(1663747412.773250) can0 73E#037FBD1200000000
(1663747412.793524) can0 73E#3000000000000000
(1663747412.854161) can0 73E#3000000000000000
(1663747413.015780) can0 73E#037FD81200000000
(1663747413.117865) can0 73E#3000000000000000
(1663747413.511486) can0 73E#037F501100000000
(1663747413.673011) can0 73E#037FB91200000000
(1663747413.905393) can0 73E#037F531200000000
(1663747413.925665) can0 73E#3000000000000000
(1663747414.001182) can0 73E#3000000000000000
(1663747414.063722) can0 73E#037FD21100000000
(1663747414.107507) can0 73E#3000000000000000
(1663747414.117602) can0 73E#3000000000000000
(1663747414.166003) can0 73E#037F451100000000
(1663747414.247869) can0 73E#037F7B1100000000
(1663747414.261379) can0 73E#037FBC1200000000
(1663747414.431259) can0 73E#3000000000000000
(1663747414.613252) can0 73E#037FD11200000000
(1663747414.704477) can0 73E#3000000000000000
(1663747415.008183) can0 73E#3000000000000000
(1663747415.047729) can0 73E#3000000000000000
(1663747415.107008) can0 73E#037FB31100000000
(1663747415.321835) can0 73E#037F071100000000
(1663747415.421742) can0 73E#3000000000000000
(1663747415.452027) can0 73E#3000000000000000
(1663747415.543612) can0 73E#3000000000000000
(1663747415.573874) can0 73E#037F021200000000
(1663747415.685003) can0 73E#3000000000000000
(1663747416.018454) can0 73E#3000000000000000
(1663747416.230524) can0 73E#3000000000000000
(1663747416.291133) can0 73E#037F751200000000
(1663747416.361895) can0 73E#3000000000000000
(1663747416.412465) can0 73E#3000000000000000
(1663747416.446934) can0 73E#037F791100000000
(1663747416.473040) can0 73E#3000000000000000
(1663747416.533577) can0 73E#037F491200000000
(1663747416.563970) can0 73E#3000000000000000
(1663747416.675084) can0 73E#037FEB1200000000
(1663747416.685267) can0 73E#3000000000000000
(1663747416.929253) can0 73E#3000000000000000
(1663747416.937555) can0 73E#037F431200000000
(1663747417.009386) can0 73E#037F8B1100000000
(1663747417.030206) can0 73E#037F681100000000
(1663747417.079370) can0 73E#3000000000000000
(1663747417.108861) can0 73E#3000000000000000
(1663747417.179401) can0 73E#3000000000000000
(1663747417.270053) can0 73E#3000000000000000
(1663747417.431247) can0 73E#3000000000000000
(1663747417.612912) can0 73E#037F711200000000
(1663747417.643263) can0 73E#3000000000000000
(1663747417.663459) can0 73E#3000000000000000
(1663747417.865569) can0 73E#3000000000000000
(1663747417.946924) can0 73E#037F7B1200000000
(1663747417.987354) can0 73E#3000000000000000
(1663747418.114128) can0 73E#037F041100000000
(1663747418.124351) can0 73E#037F511100000000
(1663747418.148927) can0 73E#037F311200000000
(1663747418.169147) can0 73E#3000000000000000
(1663747418.206216) can0 73E#037F3E1200000000
(1663747418.270214) can0 73E#3000000000000000
(1663747418.308563) can0 73E#037F991100000000
(1663747418.352778) can0 73E#037FFA1200000000
(1663747418.441759) can0 73E#037FA41100000000
(1663747418.472127) can0 73E#037F011200000000
(1663747418.492310) can0 73E#037FB91200000000
(1663747418.654010) can0 73E#3000000000000000
(1663747418.684374) can0 73E#3000000000000000
(1663747418.765249) can0 73E#037FC71200000000
(1663747418.825743) can0 73E#037F8A1200000000
(1663747419.060512) can0 73E#3000000000000000
(1663747419.130362) can0 73E#3000000000000000
(1663747419.442639) can0 73E#3000000000000000
(1663747419.483119) can0 73E#3000000000000000
(1663747419.523500) can0 73E#037F251200000000
(1663747419.574151) can0 73E#3000000000000000
(1663747419.899271) can0 73E#037F161200000000
(1663747419.948558) can0 73E#3000000000000000
(1663747420.017392) can0 73E#037FFE1100000000
(1663747420.019396) can0 73E#3000000000000000
(1663747420.119557) can0 73E#037F641200000000
(1663747420.149902) can0 73E#3000000000000000
(1663747420.354125) can0 73E#037F131100000000
(1663747420.425680) can0 73E#037F901100000000
(1663747420.473187) can0 73E#037F441200000000
(1663747420.564158) can0 73E#3000000000000000
(1663747420.691638) can0 73E#037FFA1100000000
(1663747420.766315) can0 73E#3000000000000000
(1663747420.859072) can0 73E#3000000000000000
(1663747420.979372) can0 73E#3000000000000000
(1663747421.029697) can0 73E#037FD71200000000
(1663747421.049634) can0 73E#037F811100000000
(1663747421.140814) can0 73E#3000000000000000
(1663747421.190411) can0 73E#037F8B1200000000
(1663747421.331879) can0 73E#037F251200000000
(1663747421.473370) can0 73E#3000000000000000
(1663747421.581493) can0 73E#037F721100000000
(1663747421.604669) can0 73E#3000000000000000
(1663747421.635004) can0 73E#3000000000000000
(1663747421.655188) can0 73E#3000000000000000
(1663747421.685519) can0 73E#3000000000000000
(1663747421.717294) can0 73E#3000000000000000
(1663747421.725901) can0 73E#3000000000000000
(1663747421.817645) can0 73E#037F081100000000
(1663747421.858125) can0 73E#3000000000000000
(1663747421.908809) can0 73E#037FCC1100000000
(1663747422.109636) can0 73E#037FD91200000000
(1663747422.200628) can0 73E#3000000000000000
(1663747422.210754) can0 73E#3000000000000000
(1663747422.230973) can0 73E#3000000000000000
(1663747422.444044) can0 73E#3000000000000000
(1663747422.525507) can0 73E#037F9E1200000000
(1663747422.624892) can0 73E#037F0C1100000000
(1663747422.737285) can0 73E#037F881100000000
(1663747422.746248) can0 73E#037F561200000000
(1663747422.766463) can0 73E#037F7F1200000000
(1663747422.786696) can0 73E#037F1C1200000000
(1663747422.847278) can0 73E#037F8E1200000000
(1663747422.938218) can0 73E#037F351200000000
(1663747422.952078) can0 73E#037FDA1100000000
(1663747423.261601) can0 73E#3000000000000000
(1663747423.391874) can0 73E#037F9D1100000000
(1663747423.473739) can0 73E#3000000000000000
(1663747423.554562) can0 73E#037F9D1200000000
(1663747423.635368) can0 73E#037F351200000000
(1663747423.738392) can0 73E#3000000000000000
(1663747423.799081) can0 73E#3000000000000000
(1663747423.859396) can0 73E#3000000000000000
(1663747423.878358) can0 73E#3000000000000000
(1663747423.898406) can0 73E#3000000000000000
(1663747424.059787) can0 73E#3000000000000000
(1663747424.130482) can0 73E#037F681200000000
(1663747424.160751) can0 73E#3000000000000000
(1663747424.180878) can0 73E#037F891200000000
(1663747424.211269) can0 73E#3000000000000000
(1663747424.292082) can0 73E#3000000000000000
(1663747424.615351) can0 73E#037FB41200000000
(1663747424.696175) can0 73E#3000000000000000
(1663747424.711341) can0 73E#037FF51100000000
(1663747424.727362) can0 73E#3000000000000000
(1663747424.888149) can0 73E#3000000000000000
(1663747425.020919) can0 73E#3000000000000000
(1663747425.069891) can0 73E#037F011200000000
(1663747425.100386) can0 73E#3000000000000000
(1663747425.140968) can0 73E#037F4D1200000000
(1663747425.150741) can0 73E#3000000000000000
(1663747425.241690) can0 73E#3000000000000000
(1663747425.302211) can0 73E#037FB01200000000
(1663747425.313191) can0 73E#037FC21200000000
(1663747425.335223) can0 73E#037FAD1100000000
(1663747425.352746) can0 73E#037FE51200000000
(1663747425.372973) can0 73E#3000000000000000
(1663747425.463901) can0 73E#3000000000000000
(1663747425.565627) can0 73E#3000000000000000
(1663747425.605276) can0 73E#3000000000000000
(1663747425.635624) can0 73E#3000000000000000
(1663747425.867985) can0 73E#3000000000000000
(1663747426.184210) can0 73E#037FE41100000000
(1663747426.201374) can0 73E#3000000000000000
(1663747426.352964) can0 73E#3000000000000000
(1663747426.363077) can0 73E#3000000000000000
(1663747426.504508) can0 73E#3000000000000000
(1663747426.716581) can0 73E#3000000000000000
(1663747426.730524) can0 73E#037FD81200000000
(1663747426.817609) can0 73E#3000000000000000
(1663747427.043394) can0 73E#037FF91100000000
(1663747427.050035) can0 73E#3000000000000000
(1663747427.080355) can0 73E#3000000000000000
(1663747427.092038) can0 73E#037FD31200000000
(1663747427.171286) can0 73E#3000000000000000
(1663747427.319510) can0 73E#037F0A1100000000
(1663747427.383416) can0 73E#3000000000000000
(1663747427.421845) can0 73E#037F041100000000
(1663747427.536847) can0 73E#037FA51100000000
(1663747427.567291) can0 73E#037F7D1100000000
(1663747427.625783) can0 73E#037F681200000000
(1663747427.686390) can0 73E#037FEB1200000000
(1663747427.698397) can0 73E#037F841200000000
(1663747427.730782) can0 73E#3000000000000000
(1663747427.818341) can0 73E#3000000000000000
(1663747427.888477) can0 73E#3000000000000000
(1663747428.025735) can0 73E#037F251100000000
(1663747428.120751) can0 73E#3000000000000000
(1663747428.171203) can0 73E#037FA11200000000
(1663747428.191620) can0 73E#3000000000000000
(1663747428.231880) can0 73E#3000000000000000
(1663747428.272282) can0 73E#3000000000000000
(1663747428.344190) can0 73E#3000000000000000
(1663747428.383360) can0 73E#037FDA1200000000
(1663747428.495810) can0 73E#037F3E1200000000
(1663747428.780178) can0 73E#3000000000000000
(1663747428.848366) can0 73E#3000000000000000
(1663747428.959247) can0 73E#3000000000000000
(1663747429.019875) can0 73E#3000000000000000
(1663747429.041063) can0 73E#3000000000000000
(1663747429.095158) can0 73E#037FC91200000000
(1663747429.211734) can0 73E#037FCA1200000000
(1663747429.242064) can0 73E#3000000000000000
(1663747429.292683) can0 73E#3000000000000000
(1663747429.302784) can0 73E#3000000000000000
(1663747429.363528) can0 73E#3000000000000000
(1663747429.464436) can0 73E#3000000000000000
(1663747429.525019) can0 73E#3000000000000000
(1663747429.555242) can0 73E#037F911200000000
(1663747429.585600) can0 73E#3000000000000000
(1663747429.636211) can0 73E#3000000000000000
(1663747429.666435) can0 73E#3000000000000000
(1663747429.774279) can0 73E#037F811100000000
(1663747429.868468) can0 73E#3000000000000000
(1663747429.949187) can0 73E#037F371200000000
(1663747430.035474) can0 73E#3000000000000000
(1663747430.100696) can0 73E#037F1A1200000000
(1663747430.262356) can0 73E#037F051200000000
(1663747430.285752) can0 73E#037FEB1100000000
(1663747430.344393) can0 73E#037F1A1200000000
(1663747430.363470) can0 73E#037F771200000000
(1663747430.677625) can0 73E#037FE71200000000
(1663747430.808124) can0 73E#3000000000000000
(1663747430.899041) can0 73E#3000000000000000
(1663747430.930197) can0 73E#037FE71100000000
(1663747431.041401) can0 73E#3000000000000000
(1663747431.121136) can0 73E#037FAF1200000000
(1663747431.171705) can0 73E#3000000000000000
(1663747431.313206) can0 73E#3000000000000000
(1663747431.404086) can0 73E#037FCA1200000000
(1663747431.414250) can0 73E#3000000000000000
(1663747431.523440) can0 73E#037F0F1100000000
(1663747431.584715) can0 73E#037F531100000000
(1663747431.759091) can0 73E#037F0F1200000000
(1663747431.828602) can0 73E#3000000000000000
(1663747431.900173) can0 73E#3000000000000000
(1663747431.930461) can0 73E#037FC71200000000
(1663747431.942749) can0 73E#037FCA1100000000
(1663747431.990196) can0 73E#3000000000000000
(1663747432.229082) can0 73E#037FFF1100000000
(1663747432.362040) can0 73E#037FD41100000000
(1663747432.495345) can0 73E#037FB41200000000
(1663747432.505487) can0 73E#3000000000000000
(1663747432.597412) can0 73E#3000000000000000
(1663747432.658627) can0 73E#037F621100000000
(1663747432.679162) can0 73E#037FA01100000000
(1663747432.698242) can0 73E#037F061200000000
(1663747432.771164) can0 73E#037F511100000000
(1663747432.859008) can0 73E#037F801200000000
(1663747433.016638) can0 73E#037FBB1100000000
(1663747433.072418) can0 73E#3000000000000000
(1663747433.081194) can0 73E#037FFD1200000000
(1663747433.170046) can0 73E#037FE61100000000
(1663747433.202476) can0 73E#3000000000000000
(1663747433.232814) can0 73E#3000000000000000
(1663747433.394422) can0 73E#3000000000000000
(1663747433.737961) can0 73E#3000000000000000
(1663747433.768345) can0 73E#3000000000000000
(1663747433.845329) can0 73E#037FD61100000000
(1663747433.869278) can0 73E#037FF61200000000
(1663747433.909767) can0 73E#3000000000000000
(1663747433.940957) can0 73E#3000000000000000
(1663747433.957642) can0 73E#037F362200000000
(1663747434.121919) can0 73E#3000000000000000
(1663747434.162292) can0 73E#037F2D1100000000
(1663747434.233768) can0 73E#037F571100000000
(1663747434.516077) can0 73E#3000000000000000
(1663747434.536262) can0 73E#3000000000000000
(1663747434.607020) can0 73E#3000000000000000
(1663747434.739203) can0 73E#037F431200000000
(1663747434.788938) can0 73E#3000000000000000
(1663747434.841099) can0 73E#037F7B1200000000
(1663747435.001004) can0 73E#3000000000000000
(1663747435.021161) can0 73E#037FE71200000000
(1663747435.172711) can0 73E#3000000000000000
(1663747435.223280) can0 73E#3000000000000000
(1663747435.253535) can0 73E#037F1E1200000000
(1663747435.283864) can0 73E#037FF91200000000
(1663747435.445537) can0 73E#3000000000000000
(1663747435.686182) can0 73E#037F5D1100000000
(1663747435.727094) can0 73E#037FD61100000000
(1663747435.800144) can0 73E#3000000000000000
(1663747435.809334) can0 73E#037FC51200000000
(1663747435.880037) can0 73E#3000000000000000
(1663747436.074848) can0 73E#037F5D1100000000
(1663747436.122441) can0 73E#037FCC1200000000
(1663747436.158328) can0 73E#037F331200000000
(1663747436.162931) can0 73E#3000000000000000
(1663747436.203250) can0 73E#037F271200000000
(1663747436.218058) can0 73E#037F9C1100000000
(1663747436.324490) can0 73E#3000000000000000
(1663747436.405330) can0 73E#3000000000000000
(1663747436.425541) can0 73E#3000000000000000
(1663747436.688238) can0 73E#3000000000000000
(1663747436.699242) can0 73E#3000000000000000
(1663747436.708425) can0 73E#3000000000000000
(1663747436.748814) can0 73E#3000000000000000
(1663747436.789234) can0 73E#3000000000000000
(1663747436.839669) can0 73E#037F3F1200000000
(1663747436.921022) can0 73E#037F151200000000
(1663747437.015863) can0 73E#037FA81100000000
(1663747437.122518) can0 73E#037F3A1200000000
(1663747437.193205) can0 73E#037F5A1200000000
(1663747437.220437) can0 73E#037F2D1100000000
(1663747437.292045) can0 73E#037F5F1100000000
(1663747437.526918) can0 73E#037FB01200000000
(1663747437.799840) can0 73E#3000000000000000
(1663747437.809967) can0 73E#3000000000000000
(1663747437.820062) can0 73E#3000000000000000
(1663747437.854558) can0 73E#037F431100000000
(1663747437.895477) can0 73E#037F6F1100000000
(1663747437.905736) can0 73E#037F481100000000
(1663747437.991786) can0 73E#3000000000000000
(1663747438.001931) can0 73E#3000000000000000
(1663747438.022018) can0 73E#037FE31200000000
(1663747438.161638) can0 73E#037FC21100000000
(1663747438.183707) can0 73E#3000000000000000
(1663747438.203918) can0 73E#3000000000000000
(1663747438.387181) can0 73E#037F151100000000
(1663747438.446376) can0 73E#037F6D1200000000
(1663747438.477558) can0 73E#3000000000000000
(1663747438.541066) can0 73E#037FF51200000000
(1663747438.618223) can0 73E#3000000000000000
(1663747438.820250) can0 73E#3000000000000000
(1663747439.032432) can0 73E#3000000000000000
(1663747439.062709) can0 73E#3000000000000000
(1663747439.082962) can0 73E#3000000000000000
(1663747439.339190) can0 73E#037FD91100000000
(1663747439.346260) can0 73E#3000000000000000
(1663747439.419522) can0 73E#037FEB1100000000
(1663747439.457622) can0 73E#3000000000000000
(1663747439.476949) can0 73E#3000000000000000
(1663747440.387444) can0 73E#3000000000000000
(1663747440.599182) can0 73E#037FD01200000000
(1663747440.699743) can0 73E#3000000000000000
(1663747440.709780) can0 73E#037F541200000000
(1663747440.963506) can0 73E#3000000000000000
(1663747440.972543) can0 73E#3000000000000000
(1663747441.094906) can0 73E#3000000000000000
(1663747441.285801) can0 73E#3000000000000000
(1663747441.507710) can0 73E#3000000000000000
(1663747441.759829) can0 73E#3000000000000000
(1663747442.032145) can0 73E#3000000000000000
(1663747442.204027) can0 73E#3000000000000000
(1663747442.213463) can0 73E#3000000000000000
(1663747442.284200) can0 73E#3000000000000000
(1663747442.324459) can0 73E#037F621100000000
(1663747442.437144) can0 73E#037F8E1100000000
(1663747442.518330) can0 73E#3000000000000000
(1663747442.569707) can0 73E#3000000000000000
(1663747442.667914) can0 73E#037F6A1200000000
(1663747442.708395) can0 73E#3000000000000000
(1663747442.728541) can0 73E#037F9C1200000000
(1663747443.001449) can0 73E#3000000000000000
(1663747443.132610) can0 73E#037FCE1100000000
(1663747443.152942) can0 73E#3000000000000000
(1663747443.183249) can0 73E#3000000000000000
(1663747443.284254) can0 73E#3000000000000000
(1663747443.304457) can0 73E#3000000000000000
(1663747443.418708) can0 73E#037FC61100000000
(1663747443.599187) can0 73E#3000000000000000
(1663747443.698415) can0 73E#037F5E1200000000
(1663747443.780247) can0 73E#3000000000000000
(1663747443.849948) can0 73E#3000000000000000
(1663747443.870036) can0 73E#037FEE1100000000
(1663747443.981307) can0 73E#3000000000000000
(1663747444.001762) can0 73E#037F941100000000
(1663747444.032240) can0 73E#037F5F1200000000
(1663747444.378706) can0 73E#037FDF1200000000
(1663747444.472258) can0 73E#037FF81100000000
(1663747444.516793) can0 73E#037F1D1200000000
(1663747444.678385) can0 73E#037F521200000000
(1663747444.698678) can0 73E#3000000000000000
(1663747444.729010) can0 73E#037F831100000000
(1663747444.830935) can0 73E#3000000000000000
(1663747444.890673) can0 73E#3000000000000000
(1663747445.011964) can0 73E#3000000000000000
(1663747445.024565) can0 73E#037F9E1100000000
(1663747445.244421) can0 73E#037F331200000000
(1663747445.305042) can0 73E#3000000000000000
(1663747445.355727) can0 73E#3000000000000000
(1663747445.668961) can0 73E#3000000000000000
(1663747445.911378) can0 73E#3000000000000000
(1663747446.164000) can0 73E#3000000000000000
(1663747446.185665) can0 73E#3000000000000000
(1663747446.234674) can0 73E#037FCA1200000000
(1663747446.315577) can0 73E#3000000000000000
(1663747446.335791) can0 73E#3000000000000000
(1663747446.417465) can0 73E#037F121100000000
(1663747446.446923) can0 73E#037FB81200000000
(1663747446.499121) can0 73E#3000000000000000
(1663747446.539133) can0 73E#3000000000000000
(1663747446.568111) can0 73E#037F351200000000
(1663747446.578186) can0 73E#037FD91200000000
(1663747446.669187) can0 73E#037FC41200000000
(1663747446.689486) can0 73E#3000000000000000
(1663747446.937287) can0 73E#037FB21100000000
(1663747446.942365) can0 73E#3000000000000000
(1663747447.002666) can0 73E#3000000000000000
(1663747447.488098) can0 73E#037F1D1200000000
(1663747447.509998) can0 73E#037F7B1100000000
(1663747447.669821) can0 73E#3000000000000000
(1663747447.765734) can0 73E#037F251100000000
(1663747447.770844) can0 73E#3000000000000000
(1663747447.882000) can0 73E#3000000000000000
(1663747447.898702) can0 73E#037F141200000000
(1663747447.902199) can0 73E#3000000000000000
(1663747447.922419) can0 73E#3000000000000000
(1663747447.942727) can0 73E#037F521200000000
(1663747448.033861) can0 73E#3000000000000000
(1663747448.215903) can0 73E#3000000000000000
(1663747448.347249) can0 73E#3000000000000000
(1663747448.367437) can0 73E#3000000000000000
(1663747448.407855) can0 73E#3000000000000000
(1663747448.478593) can0 73E#037F921200000000
(1663747448.829534) can0 73E#037F301100000000
(1663747448.913299) can0 73E#3000000000000000
(1663747448.973906) can0 73E#3000000000000000
(1663747449.135576) can0 73E#3000000000000000
(1663747449.175995) can0 73E#3000000000000000
(1663747449.186088) can0 73E#3000000000000000
(1663747449.216378) can0 73E#037F5B1200000000
(1663747449.246756) can0 73E#3000000000000000
(1663747449.479131) can0 73E#3000000000000000
(1663747449.549788) can0 73E#037F401200000000
(1663747449.660944) can0 73E#037FA21200000000
(1663747449.954094) can0 73E#3000000000000000
(1663747449.984430) can0 73E#3000000000000000
(1663747450.014710) can0 73E#3000000000000000
(1663747450.118229) can0 73E#037FD81100000000
(1663747450.500016) can0 73E#3000000000000000
(1663747450.547823) can0 73E#037F951100000000
(1663747450.558033) can0 73E#037FCC1100000000
(1663747450.661680) can0 73E#3000000000000000
(1663747450.844497) can0 73E#3000000000000000
(1663747450.937058) can0 73E#037FA51100000000
(1663747450.974874) can0 73E#3000000000000000
(1663747451.079673) can0 73E#037F4A1100000000
(1663747451.120633) can0 73E#037F961100000000
(1663747451.227581) can0 73E#3000000000000000
(1663747451.268007) can0 73E#3000000000000000
(1663747451.369164) can0 73E#037FE41200000000
(1663747451.571314) can0 73E#3000000000000000
(1663747451.712766) can0 73E#3000000000000000
(1663747451.724062) can0 73E#037FEA1100000000
(1663747451.743076) can0 73E#3000000000000000
(1663747451.783446) can0 73E#037F7A1200000000
(1663747451.793552) can0 73E#037F7E1200000000
(1663747451.854153) can0 73E#037F4D1200000000
(1663747451.904685) can0 73E#037FBC1200000000
(1663747451.995703) can0 73E#3000000000000000
(1663747452.036084) can0 73E#3000000000000000
(1663747452.057214) can0 73E#3000000000000000
(1663747452.167436) can0 73E#3000000000000000
(1663747452.198013) can0 73E#037F621200000000
(1663747452.218084) can0 73E#037FC81200000000
(1663747452.248199) can0 73E#037F601200000000
(1663747452.470777) can0 73E#037F091100000000
(1663747452.491332) can0 73E#037FD61100000000
(1663747452.593544) can0 73E#037FFD1100000000
(1663747452.602197) can0 73E#3000000000000000
(1663747452.642798) can0 73E#3000000000000000
(1663747452.672987) can0 73E#037F3A1200000000
(1663747452.703397) can0 73E#3000000000000000
(1663747452.713483) can0 73E#3000000000000000
(1663747452.809103) can0 73E#037F521100000000
(1663747452.824610) can0 73E#3000000000000000
(1663747452.855121) can0 73E#3000000000000000
(1663747452.935945) can0 73E#3000000000000000
(1663747453.067256) can0 73E#037FBC1200000000
(1663747453.552682) can0 73E#3000000000000000
(1663747453.633302) can0 73E#037F981200000000
(1663747453.673580) can0 73E#037FC31200000000
(1663747453.713886) can0 73E#037F7D1200000000
(1663747453.744160) can0 73E#3000000000000000
(1663747453.885182) can0 73E#037FFA1200000000
(1663747453.925470) can0 73E#3000000000000000
(1663747453.996997) can0 73E#3000000000000000
(1663747454.038200) can0 73E#3000000000000000
(1663747454.099563) can0 73E#3000000000000000
(1663747454.663017) can0 73E#3000000000000000
(1663747454.680045) can0 73E#037F991100000000
(1663747454.864349) can0 73E#3000000000000000
(1663747454.884698) can0 73E#037FB41100000000
(1663747454.956159) can0 73E#037F071100000000
(1663747455.037031) can0 73E#037FCE1200000000
(1663747455.219881) can0 73E#037F4E1200000000
(1663747455.359582) can0 73E#3000000000000000
(1663747455.642876) can0 73E#3000000000000000
(1663747455.682824) can0 73E#037F341200000000
(1663747455.723411) can0 73E#3000000000000000
(1663747455.763822) can0 73E#3000000000000000
(1663747455.814286) can0 73E#037F451200000000
(1663747455.915328) can0 73E#3000000000000000
(1663747456.027781) can0 73E#3000000000000000
(1663747456.056928) can0 73E#3000000000000000
(1663747456.208523) can0 73E#037FDA1200000000
(1663747456.269309) can0 73E#037FDC1200000000
(1663747456.451201) can0 73E#3000000000000000
(1663747456.471422) can0 73E#3000000000000000
(1663747456.481531) can0 73E#3000000000000000
(1663747456.511674) can0 73E#037F9A1100000000
(1663747456.653370) can0 73E#3000000000000000
(1663747456.794714) can0 73E#037F0E1200000000
(1663747456.804838) can0 73E#037FFD1200000000
(1663747457.057469) can0 73E#3000000000000000
(1663747457.124562) can0 73E#037FFD1100000000
(1663747457.267667) can0 73E#037F3D7800000000
(1663747461.358968) can0 73E#037F3D7800000000
(1663747465.450238) can0 73E#037F3D7800000000
(1663747469.541548) can0 73E#037F3D7800000000
(1663747473.632819) can0 73E#037F3D7800000000
(1663747483.438038) can0 73E#037F2F1200000000
(1663747483.458227) can0 73E#037F2F1200000000
(1663747483.478541) can0 73E#037F2F1200000000
(1663747483.489185) can0 73E#037F2F1200000000
(1663747483.509131) can0 73E#037F2F1200000000
(1663747483.519388) can0 73E#037F2F1200000000
(1663747483.529584) can0 73E#037F2F1200000000
(1663747483.539844) can0 73E#037F2F1200000000
(1663747483.550011) can0 73E#037F2F1200000000
(1663747483.560261) can0 73E#037F2F1200000000
(1663747483.570466) can0 73E#037F2F1200000000
(1663747483.580720) can0 73E#037F2F1200000000
(1663747483.590925) can0 73E#037F2F1200000000
(1663747483.601177) can0 73E#037F2F1200000000
(1663747483.611380) can0 73E#037F2F1200000000
(1663747483.621630) can0 73E#037F2F1200000000
(1663747483.631833) can0 73E#037F2F1200000000
(1663747483.642084) can0 73E#037F2F1200000000
(1663747483.652389) can0 73E#037F2F1200000000
(1663747483.662554) can0 73E#037F2F1200000000
(1663747483.672780) can0 73E#037F2F1200000000
(1663747483.683015) can0 73E#037F2F1200000000
(1663747483.693218) can0 73E#037F2F1200000000
(1663747483.703536) can0 73E#037F2F1200000000
(1663747483.713724) can0 73E#037F2F1200000000
(1663747483.723941) can0 73E#037F2F1200000000
(1663747483.734126) can0 73E#037F2F1200000000
(1663747483.744997) can0 73E#037F2F1200000000
(1663747483.754884) can0 73E#037F2F1200000000
(1663747483.764838) can0 73E#037F2F1200000000
(1663747483.775040) can0 73E#037F2F1200000000
(1663747483.785296) can0 73E#037F2F1200000000
(1663747483.795499) can0 73E#037F2F1200000000
(1663747483.805752) can0 73E#037F2F1200000000
(1663747483.815954) can0 73E#037F2F1200000000
(1663747483.826209) can0 73E#037F2F1200000000
(1663747483.836413) can0 73E#037F2F1200000000
(1663747483.849495) can0 73E#037F2F1200000000
(1663747483.856938) can0 73E#037F2F1200000000
(1663747483.867179) can0 73E#037F2F1200000000
(1663747483.877356) can0 73E#037F2F1200000000
(1663747483.887579) can0 73E#037F2F1200000000
(1663747483.897848) can0 73E#037F2F1200000000
(1663747483.908030) can0 73E#037F2F1200000000
(1663747483.918243) can0 73E#037F2F1200000000
(1663747483.928489) can0 73E#037F2F1200000000
(1663747483.938695) can0