(1663676542.934048) can0 728#F840F840F840F840
(1663676542.934982) can0 720#B2AABBCCDDEE1122
(1663676542.935918) can0 728#F88007E83F40F840
(1663676542.937205) can0 728#F840F840F840F840
(1663676542.938473) can0 728#F88007DC3F40F840
(1663676542.939748) can0 728#F840F840F840F840
(1663676542.940608) can0 720#B2AABBCCDDEE1122
(1663676542.941598) can0 728#F88007D03F40F840
(1663676542.942855) can0 728#F840F840F840F840
(1663676542.944125) can0 728#F88007C43F40F840
(1663676542.945362) can0 728#F840F840F840F840
(1663676542.946634) can0 728#F88007B83F40F840
(1663676542.947913) can0 728#F840F840F840F840
(1663676542.949126) can0 728#F873072850480800
(1663676542.950348) can0 728#FFFFFFFFFFFFFFFF
(1663676542.951612) can0 728#FF80079C3F40F840
(1663676542.952853) can0 728#F840F840F840F840
(1663676542.954127) can0 728#F88007903F40F840
(1663676542.955348) can0 728#F840F840F840F840
(1663676542.956640) can0 728#F88007843F40F840
(1663676542.957854) can0 728#F840F840F840F840
(1663676542.959125) can0 728#F88007783F40F840
(1663676542.960359) can0 728#F840F840F840F840
(1663676542.961239) can0 720#B2AABBCCDDEE1122
(1663676542.962213) can0 728#F880076C3F40F840
(1663676542.963452) can0 728#F840F840F840F840
(1663676542.964732) can0 728#F88007603F40F840
(1663676542.965948) can0 728#F840F840F840F840
(1663676542.967217) can0 728#F88007543F40F840
(1663676542.968452) can0 728#F840F840F840F840
(1663676542.969723) can0 728#F88007483F40F840
(1663676542.970947) can0 728#F840F840F840F840
(1663676542.972210) can0 728#F880073C3F40F840
(1663676542.973453) can0 728#F840F840F840F840
(1663676542.974723) can0 728#F88007303F40F840
(1663676542.975966) can0 728#F840F840F840F840
(1663676542.977214) can0 728#F88007243F40F840
(1663676542.978450) can0 728#F840F840F840F840
(1663676542.979738) can0 728#F88007183F40F840
(1663676542.980957) can0 728#F840F840F840F840
(1663676542.981838) can0 720#B2AABBCCDDEE1122
(1663676542.982812) can0 728#F880070C3F40F840
(1663676542.983693) can0 720#B2AABBCCDDEE1122
(1663676542.984707) can0 728#F840F840F840F840
(1663676542.985589) can0 720#B2AABBCCDDEE1122
(1663676542.986587) can0 728#F88007003F40F840
(1663676542.987852) can0 728#F840F840F840F840
(1663676542.989098) can0 728#F88007F43E40F840
(1663676542.990330) can0 728#F840F840F840F840
(1663676542.991611) can0 728#F88007E83E40F840
(1663676542.992835) can0 728#F840F840F840F840
(1663676542.994107) can0 728#F88007DC3E40F840
(1663676542.995332) can0 728#F840F840F840F840
(1663676542.996627) can0 728#F88007D03E40F840
(1663676542.997836) can0 728#F840F840F840F840
(1663676542.999107) can0 728#F88007C43E40F840
(1663676543.000340) can0 728#F840F840F840F840
(1663676543.001224) can0 720#B2AABBCCDDEE1122
(1663676543.002204) can0 728#F88007B83E40F840
(1663676543.003435) can0 728#F840F840F840F840
(1663676543.004699) can0 728#F88007AC3E40F840
(1663676543.005930) can0 728#F840F840F840F840
(1663676543.007217) can0 728#F88007A03E40F840
(1663676543.008438) can0 728#F840F840F840F840
(1663676543.009734) can0 728#F88007943E40F840
(1663676543.010933) can0 728#F840F840F840F840
(1663676543.012205) can0 728#F88007883E40F840
(1663676543.013437) can0 728#F840F840F840F840
(1663676543.014716) can0 728#F880077C3E40F840
(1663676543.015934) can0 728#F840F840F840F840
(1663676543.017204) can0 728#F88007703E40F840
(1663676543.018434) can0 728#F840F840F840F840
(1663676543.019698) can0 728#F88007643E40F840
(1663676543.020931) can0 728#F840F840F840F840
(1663676543.021816) can0 720#B2AABBCCDDEE1122
(1663676543.022795) can0 728#F88007583E40F840
(1663676543.024034) can0 728#F840F840F840F840
(1663676543.025335) can0 728#F880074C3E40F840
(1663676543.026545) can0 728#F840F840F840F840
(1663676543.027818) can0 728#F88007403E40F840
(1663676543.029040) can0 728#F840F840F840F840
(1663676543.030296) can0 728#F88007343E40F840
(1663676543.031547) can0 728#F840F840F840F840
(1663676543.032441) can0 720#B2AABBCCDDEE1122
(1663676543.033402) can0 728#F88007283E40F840
(1663676543.034298) can0 720#B2AABBCCDDEE1122
(1663676543.035297) can0 728#F840F840F840F840
(1663676543.036559) can0 728#F880071C3E40F840
(1663676543.037735) can0 728#F840F840F840F840
(1663676543.039004) can0 728#F88007103E40F840
(1663676543.040265) can0 728#F840F840F840F840
(1663676543.041515) can0 728#F88007043E40F840
(1663676543.042398) can0 720#B2AABBCCDDEE1122
(1663676543.043408) can0 728#F840F840F840F840
(1663676543.044634) can0 728#F88007F83D40F840
(1663676543.045937) can0 728#F840F840F840F840
(1663676543.047201) can0 728#F88007EC3D40F840
(1663676543.048437) can0 728#F840F840F840F840
(1663676543.049710) can0 728#F88007E03D40F840
(1663676543.050932) can0 728#F840F840F840F840
(1663676543.052196) can0 728#F88007D43D40F840
(1663676543.053436) can0 728#F840F840F840F840
(1663676543.054716) can0 728#F88007C83D40F840
(1663676543.055947) can0 728#F840F840F840F840
(1663676543.057217) can0 728#F88007BC3D40F840
(1663676543.058445) can0 728#F840F840F840F840
(1663676543.059720) can0 728#F88007B03D40F840
(1663676543.060944) can0 728#F840F840F840F840
(1663676543.061825) can0 720#B2AABBCCDDEE1122
(1663676543.062802) can0 728#F88007A43D40F840
(1663676543.064040) can0 728#F840F840F840F840
(1663676543.065311) can0 728#F88007983D40F840
(1663676543.066543) can0 728#F840F840F840F840
(1663676543.067800) can0 728#F880078C3D40F840
(1663676543.069036) can0 728#F840F840F840F840
(1663676543.070300) can0 728#F88007803D40F840
(1663676543.071531) can0 728#F840F840F840F840
(1663676543.072798) can0 728#F88007743D40F840
(1663676543.074044) can0 728#F840F840F840F840
(1663676543.075313) can0 728#F88007683D40F840
(1663676543.076545) can0 728#F840F840F840F840
(1663676543.077796) can0 728#F880075C3D40F840
(1663676543.079064) can0 728#F840F840F840F840
(1663676543.080300) can0 728#F88007503D40F840
(1663676543.081533) can0 728#F840F840F840F840
(1663676543.082418) can0 720#B2AABBCCDDEE1122
(1663676543.083380) can0 728#F88007443D40F840
(1663676543.084266) can0 720#B2AABBCCDDEE1122
(1663676543.085276) can0 728#F840F840F840F840
(1663676543.086179) can0 720#B2AABBCCDDEE1122
(1663676543.087187) can0 728#F88007383D40F840
(1663676543.088439) can0 728#F840F840F840F840
(1663676543.089682) can0 728#F880072C3D40F840
(1663676543.090931) can0 728#F840F840F840F840
(1663676543.092214) can0 728#F88007203D40F840
(1663676543.093427) can0 728#F840F840F840F840
(1663676543.094673) can0 728#F88007143D40F840
(1663676543.095921) can0 728#F840F840F840F840
(1663676543.097190) can0 728#F88007083D40F840
(1663676543.098425) can0 728#F840F840F840F840
(1663676543.099688) can0 728#F88007FC3C40F840
(1663676543.100933) can0 728#F840F840F840F840
(1663676543.102202) can0 728#F88007F03C40F840
(1663676543.103081) can0 720#B2AABBCCDDEE1122
(1663676543.104090) can0 728#F840F840F840F840
(1663676543.105295) can0 728#F88007E43C40F840
(1663676543.106522) can0 728#F840F840F840F840
(1663676543.107833) can0 728#F88007D83C40F840
(1663676543.109127) can0 728#F840F840F840F840
(1663676543.110382) can0 728#F88007CC3C40F840
(1663676543.111622) can0 728#F840F840F840F840
(1663676543.112902) can0 728#F88007C03C40F840
(1663676543.114129) can0 728#F840F840F840F840
(1663676543.115384) can0 728#F88007B43C40F840
(1663676543.116623) can0 728#F840F840F840F840
(1663676543.117890) can0 728#F88007A83C40F840
(1663676543.119128) can0 728#F840F840F840F840
(1663676543.120376) can0 728#F880079C3C40F840
(1663676543.121624) can0 728#F840F840F840F840
(1663676543.122513) can0 720#B2AABBCCDDEE1122
(1663676543.123512) can0 728#F88007903C40F840
(1663676543.124740) can0 728#F840F840F840F840
(1663676543.125985) can0 728#F88007843C40F840
(1663676543.127225) can0 728#F840F840F840F840
(1663676543.128505) can0 728#F88007783C40F840
(1663676543.129728) can0 728#F840F840F840F840
(1663676543.130988) can0 728#F880076C3C40F840
(1663676543.132266) can0 728#F840F840F840F840
(1663676543.133113) can0 720#B2AABBCCDDEE1122
(1663676543.134082) can0 728#F88007603C40F840
(1663676543.134975) can0 720#B2AABBCCDDEE1122
(1663676543.135982) can0 728#F840F840F840F840
(1663676543.137204) can0 728#F88007543C40F840
(1663676543.138425) can0 728#F840F840F840F840
(1663676543.139781) can0 728#F88007483C40F840
(1663676543.140932) can0 728#F840F840F840F840
(1663676543.142081) can0 720#B2AABBCCDDEE1122
(1663676543.143040) can0 728#F880073C3C40F840
(1663676543.144320) can0 728#F840F840F840F840
(1663676543.145585) can0 728#F88007303C40F840
(1663676543.146824) can0 728#F840F840F840F840
(1663676543.148101) can0 728#F88007243C40F840
(1663676543.149338) can0 728#F840F840F840F840
(1663676543.150596) can0 728#F88007183C40F840
(1663676543.151906) can0 728#F840F840F840F840
(1663676543.153082) can0 728#F880070C3C40F840
(1663676543.154343) can0 728#F840F840F840F840
(1663676543.155601) can0 728#F88007003C40F840
(1663676543.156831) can0 728#F840F840F840F840
(1663676543.158120) can0 728#F88007F43B40F840
(1663676543.159327) can0 728#F840F840F840F840
(1663676543.160591) can0 728#F88007E83B40F840
(1663676543.161823) can0 728#F840F840F840F840
(1663676543.162712) can0 720#B2AABBCCDDEE1122
(1663676543.163688) can0 728#F88007DC3B40F840
(1663676543.164919) can0 728#F840F840F840F840
(1663676543.166191) can0 728#F88007D03B40F840
(1663676543.167423) can0 728#F840F840F840F840
(1663676543.168679) can0 728#F88007C43B40F840
(1663676543.169927) can0 728#F840F840F840F840
(1663676543.171183) can0 728#F88007B83B40F840
(1663676543.172425) can0 728#F840F840F840F840
(1663676543.173689) can0 728#F88007AC3B40F840
(1663676543.174958) can0 728#F840F840F840F840
(1663676543.176194) can0 728#F88007A03B40F840
(1663676543.177431) can0 728#F840F840F840F840
(1663676543.178686) can0 728#F88007943B40F840
(1663676543.179970) can0 728#F840F840F840F840
(1663676543.181207) can0 728#F88007883B40F840
(1663676543.182423) can0 728#F840F840F840F840
(1663676543.183309) can0 720#B2AABBCCDDEE1122
(1663676543.184295) can0 728#F880077C3B40F840
(1663676543.185192) can0 720#B2AABBCCDDEE1122
(1663676543.186215) can0 728#F840F840F840F840
(1663676543.187115) can0 720#B2AABBCCDDEE1122
(1663676543.188045) can0 728#F88007703B40F840
(1663676543.189314) can0 728#F840F840F840F840
(1663676543.190560) can0 728#F88007643B40F840
(1663676543.191810) can0 728#F840F840F840F840
(1663676543.193091) can0 728#F88007583B40F840
(1663676543.194314) can0 728#F840F840F840F840
(1663676543.195572) can0 728#F880074C3B40F840
(1663676543.196810) can0 728#F840F840F840F840
(1663676543.198086) can0 728#F88007403B40F840
(1663676543.199317) can0 728#F840F840F840F840
(1663676543.200566) can0 728#F88007343B40F840
(1663676543.201813) can0 728#F840F840F840F840
(1663676543.202699) can0 720#B2AABBCCDDEE1122
(1663676543.203668) can0 728#F88007283B40F840
(1663676543.204907) can0 728#F840F840F840F840
(1663676543.206162) can0 728#F880071C3B40F840
(1663676543.207414) can0 728#F840F840F840F840
(1663676543.208666) can0 728#F88007103B40F840
(1663676543.209913) can0 728#F840F840F840F840
(1663676543.211179) can0 728#F88007043B40F840
(1663676543.212410) can0 728#F840F840F840F840
(1663676543.213684) can0 728#F88007F83A40F840
(1663676543.214944) can0 728#F840F840F840F840
(1663676543.216202) can0 728#F8203E00F080FF00
(1663676543.217469) can0 728#01403EFF03273E71
(1663676543.218649) can0 728#000742274F010067
(1663676543.219881) can0 728#470100403E000027
(1663676543.221073) can0 728#3E20FF0747000047
(1663676543.222275) can0 728#070000403EFF0327
(1663676543.223162) can0 720#B2AABBCCDDEE1122
(1663676543.224138) can0 728#3E00004747000040
(1663676543.225396) can0 728#3EFF03273E010007
(1663676543.226578) can0 728#3700004707000020
(1663676543.227758) can0 728#0E2000E141FA0561
(1663676543.228946) can0 728#32D205200E1900E1
(1663676543.230147) can0 728#49920D403EFF0327
(1663676543.231385) can0 728#3E68004707000080
(1663676543.232546) can0 728#FF0E014026FF0324
(1663676543.233435) can0 720#B2AABBCCDDEE1122
(1663676543.234386) can0 728#26D409402E010025
(1663676543.235274) can0 720#B2AABBCCDDEE1122
(1663676543.236218) can0 728#2E2C88401EFF0323
(1663676543.237442) can0 728#1EC82F1C0A411900
(1663676543.238657) can0 728#E0403EFF03273E71
(1663676543.239857) can0 728#000A426747010080
(1663676543.241065) can0 728#FF04001FE8042600
(1663676543.242267) can0 728#4004260040400EFF
(1663676543.243154) can0 720#B2AABBCCDDEE1122
(1663676543.244098) can0 728#03010ED409A20501
(1663676543.245337) can0 728#F05D5600002A56C2
(1663676543.246545) can0 728#19EAA7200080A6FF
(1663676543.247797) can0 728#0080AEFFFF80FFFE
(1663676543.249057) can0 728#06403EFF03273E71
(1663676543.250275) can0 728#000F426747010000
(1663676543.251481) can0 728#3A0042004A00B200
(1663676543.252633) can0 728#BA00C200CA00D25D
(1663676543.253849) can0 728#3600002636B20080
(1663676543.255041) can0 728#FF7A11403EFF0327
(1663676543.256249) can0 728#3E71002046290067
(1663676543.257444) can0 728#470100850520A6FF
(1663676543.258688) can0 728#003506FFFF000040
(1663676543.259888) can0 728#3E0000273E00F028
(1663676543.261040) can0 728#06FB8F0000674764
(1663676543.262273) can0 728#007F005C1A63FF01
(1663676543.263161) can0 720#B2AABBCCDDEE1122
(1663676543.264121) can0 728#005C1A633F01005C
(1663676543.265378) can0 728#1A63470100BFFFD0
(1663676543.266552) can0 728#FF23470100441A23
(1663676543.267769) can0 728#3F0100441A23FF01
(1663676543.268997) can0 728#00441A7F00010000
(1663676543.270225) can0 728#00000000002C0800
(1663676543.271531) can0 728#0000000000000000
(1663676543.272819) can0 728#0000000000000000
(1663676543.274150) can0 728#0000000000000000
(1663676543.275415) can0 728#00000000FF7F0020
(1663676543.276655) can0 728#4600406800E08F01
(1663676543.277847) can0 728#F1608F00F1E07F03
(1663676543.279047) can0 728#F1607F02F1E06F05
(1663676543.280239) can0 728#F1606F04F1E05F07
(1663676543.281431) can0 728#F1605F06F1E08F09
(1663676543.282632) can0 728#F1608F08F1E07F0B
(1663676543.283521) can0 720#B2AABBCCDDEE1122
(1663676543.284463) can0 728#F1607F0AF17F0080
(1663676543.285351) can0 720#B2AABBCCDDEE1122
(1663676543.286301) can0 728#8F21F7408F20F780
(1663676543.287185) can0 720#B2AABBCCDDEE1122
(1663676543.288149) can0 728#8701F7408700F7C0
(1663676543.289382) can0 728#0702F7806F05F740
(1663676543.290565) can0 728#6F04F7806707F740
(1663676543.291788) can0 728#6706F7C01720F4C0
(1663676543.292972) can0 728#1740F4807F29F440
(1663676543.294157) can0 728#7F28F4807749F440
(1663676543.295363) can0 728#7748F4806F2BF440
(1663676543.296587) can0 728#6F2AF480674BF440
(1663676543.297773) can0 728#674AF4805F31F440
(1663676543.299002) can0 728#5F30F4805751F440
(1663676543.300195) can0 728#5750F47F007F007F
(1663676543.301372) can0 728#00805F29F8806F23
(1663676543.302550) can0 728#F886006232D12DE2
(1663676543.303439) can0 720#B2AABBCCDDEE1122
(1663676543.304356) can0 728#056332B215653283
(1663676543.305565) can0 728#25F525CB5EEF0040
(1663676543.306790) can0 728#0702F82016550040
(1663676543.307990) can0 728#1700F8405F28F880
(1663676543.309159) can0 728#6703F8E061DAF585
(1663676543.310376) can0 728#1DCB5EEF00400702
(1663676543.311573) can0 728#F820165500401700
(1663676543.312789) can0 728#F8405F28F8807703
(1663676543.313957) can0 728#F8E071DAF5950D20
(1663676543.315154) can0 728#867200CD6EF7008D
(1663676543.316380) can0 728#6E08000312D50500
(1663676543.317565) can0 728#82CD6EF700001240
(1663676543.318780) can0 728#0702F82056550040
(1663676543.320034) can0 728#5700F8406F22F880
(1663676543.321172) can0 728#7F03F8E079DAF540
(1663676543.322393) can0 728#0702F82056550040
(1663676543.323286) can0 720#B2AABBCCDDEE1122
(1663676543.324227) can0 728#5700F8401732F880
(1663676543.325496) can0 728#7703F8E071DAF540
(1663676543.326708) can0 728#0702F82016550040
(1663676543.327887) can0 728#1700F8408738F880
(1663676543.329060) can0 728#6F03F8E069DAF57F
(1663676543.330259) can0 728#0086005C326132DB
(1663676543.331516) can0 728#0520162000401730
(1663676543.332760) can0 728#F87F000002013202
(1663676543.333604) can0 720#B2AABBCCDDEE1122
(1663676543.334591) can0 728#3A80FFC002400702
(1663676543.335486) can0 720#B2AABBCCDDEE1122
(1663676543.336415) can0 728#F820165500401700
(1663676543.337613) can0 728#F8011240173CF880
(1663676543.338768) can0 728#8F3DF8E089DAFD80
(1663676543.340026) can0 728#8703F8E0818AF520
(1663676543.341200) can0 728#FE20F8DF37000020
(1663676543.342368) can0 728#1655004017AAFC03
(1663676543.343250) can0 720#B2AABBCCDDEE1122
(1663676543.344198) can0 728#124017A2FC807FA3
(1663676543.345366) can0 728#FC637AEAF5160200
(1663676543.346591) can0 728#02BFFFB2FF400702
(1663676543.347868) can0 728#F820165500401700
(1663676543.348980) can0 728#F80812401726F880
(1663676543.350164) can0 728#8F03F8E089CAF540
(1663676543.351393) can0 728#0702F82016550040
(1663676543.352661) can0 728#1700F82016730040
(1663676543.353781) can0 728#1736F8808703F8E0
(1663676543.354981) can0 728#81BAF52016FF0040
(1663676543.356180) can0 728#17B0FC0112401770
(1663676543.357435) can0 728#F8807F71F8617AEA
(1663676543.358549) can0 728#F5160286006332C3
(1663676543.359757) can0 728#056532C305E50500
(1663676543.360960) can0 728#12E50520161100B5
(1663676543.362198) can0 728#052016770040176E
(1663676543.363408) can0 728#F07F00000220FE20
(1663676543.364300) can0 720#B2AABBCCDDEE1122
(1663676543.365280) can0 728#F8DF1F0000160200
(1663676543.366560) can0 728#02C0DF20F8B20D20
(1663676543.367786) can0 728#FE20F8DF9F000000
(1663676543.368999) can0 728#8724F8D07E020062
(1663676543.370169) can0 728#7ABAFD1602008F28
(1663676543.371367) can0 728#F88600D1060300EA
(1663676543.372573) can0 728#1D6532FA0D400702
(1663676543.373780) can0 728#F820165500401700
(1663676543.374994) can0 728#F80312401728F880
(1663676543.376159) can0 728#7F03F8E079CAF5E5
(1663676543.377383) can0 728#0D400702F8201655
(1663676543.378594) can0 728#00401700F8031240
(1663676543.379790) can0 728#1728F8807703F8E0
(1663676543.381113) can0 728#71CAF57F000002C0
(1663676543.382179) can0 728#FF22F88600AA4580
(1663676543.383070) can0 720#B2AABBCCDDEE1122
(1663676543.384000) can0 728#8723F85C32907E80
(1663676543.384882) can0 720#B2AABBCCDDEE1122
(1663676543.385833) can0 728#006132EB0D20162B
(1663676543.387029) can0 720#B2AABBCCDDEE1122
(1663676543.387661) can0 728#0040172CF82016DF
(1663676543.388892) can0 728#0040172EF80E1240
(1663676543.390092) can0 728#172AF8907EE00040
(1663676543.391282) can0 728#0702F82016550040
(1663676543.392498) can0 728#1700F8407F22F880
(1663676543.393646) can0 728#6F03F8E069DAF520
(1663676543.394893) can0 728#FE2AF1DF37000020
(1663676543.396062) can0 728#FE06F6DFBF000020
(1663676543.397262) can0 728#FE2AF1DFBF000000
(1663676543.398464) can0 728#1706F620FE06F6C2
(1663676543.399654) can0 728#16F800401706F6DF
(1663676543.400868) can0 728#3F00002016BF1260
(1663676543.402053) can0 728#1704F620FE2AF1DF
(1663676543.403245) can0 728#370000C0FF2AF1E2
(1663676543.404133) can0 720#B2AABBCCDDEE1122
(1663676543.405092) can0 728#FD16020A0206E89D
(1663676543.406368) can0 728#0001324037FCF140
(1663676543.407575) can0 728#07FEF1023A80FF98
(1663676543.408756) can0 728#00001720F8E0E9E2
(1663676543.409932) can0 728#254086FF03B0876B
(1663676543.411171) can0 728#00E081AA0D821603
(1663676543.412372) can0 728#00401720F820FE20
(1663676543.413613) can0 728#F8DF9F0000F505C2
(1663676543.414876) can0 728#16FC008216020040
(1663676543.416159) can0 728#1720F8807FFFF18F
(1663676543.417279) can0 728#16020002504057FC
(1663676543.418792) can0 728#F14017FEF1000000
(1663676543.419719) can0 728#0000000000000000
(1663676543.421023) can0 728#00851D8216030040
(1663676543.422174) can0 728#1720F820FE20F8DF
(1663676543.423377) can0 728#9F00008077FFF18E
(1663676543.424309) can0 720#B2AABBCCDDEE1122
(1663676543.425240) can0 728#16020002504057FC
(1663676543.426477) can0 728#F14017FEF1000000
(1663676543.427709) can0 728#0000000000000000
(1663676543.428983) can0 728#000132023A80FF6C
(1663676543.430159) can0 728#0020024056FF03AA
(1663676543.431332) can0 728#5769007F00860087
(1663676543.432548) can0 728#0022066A00FF0361
(1663676543.433436) can0 720#B2AABBCCDDEE1122
(1663676543.434372) can0 728#3AD105E20D623AE2
(1663676543.435260) can0 720#B2AABBCCDDEE1122
(1663676543.436212) can0 728#15B525028F020001
(1663676543.437452) can0 728#7AE67FC0002F6851
(1663676543.438629) can0 728#69426F0200951D02
(1663676543.439860) can0 728#5700000182E687C0
(1663676543.441044) can0 728#0030704A71427700
(1663676543.442288) can0 728#00F50D025F010001
(1663676543.443456) can0 728#8AE68FC00031784B
(1663676543.444384) can0 720#B2AABBCCDDEE1122
(1663676543.445290) can0 728#79427F01008F00E0
(1663676543.446457) can0 728#79BA05BF0700FE7F
(1663676543.447687) can0 728#008600870022066A
(1663676543.448850) can0 728#00FF03613AD105D2
(1663676543.450030) can0 728#0D623AC215D51D82
(1663676543.451250) can0 728#570300017AE67FC0
(1663676543.452456) can0 728#000F5142570200C5
(1663676543.453701) can0 728#15826701000152E6
(1663676543.454876) can0 728#57C0000A61426700
(1663676543.456064) can0 728#00B50DA257010001
(1663676543.457242) can0 728#6AE66FC0000D5142
(1663676543.458500) can0 728#570100BF07BCFD7F
(1663676543.459666) can0 728#000A028600463600
(1663676543.460830) can0 728#0086EF2D081D7081
(1663676543.462057) can0 728#72D9050032003ABF
(1663676543.463261) can0 728#FF9AFF1D508252D9
(1663676543.464119) can0 720#B2AABBCCDDEE1122
(1663676543.465075) can0 728#050032013ABFFF8C
(1663676543.466264) can0 728#FF83EAD905003202
(1663676543.467483) can0 728#3ABFFF80FF20020A
(1663676543.468661) can0 728#0286004636000086
(1663676543.469820) can0 728#EF2D081D708172D1
(1663676543.471052) can0 728#050032003ABFFF08
(1663676543.489020) can0 720#B2AABBCCDDEE1122
(1663676543.490098) can0 720#B2AABBCCDDEE1122
(1663676543.490783) can0 728#05500000
(1663676543.491675) can0 720#B2AABBCCDDEE1122
(1663676543.492422) can0 728#05500000
(1663676543.494118) can0 728#05500000
(1663676543.504229) can0 720#B2AABBCCDDEE1122
(1663676543.505917) can0 728#05500000
(1663676543.524406) can0 720#B2AABBCCDDEE1122
(1663676543.526128) can0 728#05500000
(1663676543.533389) can0 720#B2AABBCCDDEE1122
(1663676543.534460) can0 720#B2AABBCCDDEE1122
(1663676543.535150) can0 728#05500000
(1663676543.536822) can0 728#05500000
(1663676543.544452) can0 720#B2AABBCCDDEE1122
(1663676543.546221) can0 728#05500000
(1663676543.564547) can0 720#B2AABBCCDDEE1122
(1663676543.566320) can0 728#05500000
(1663676543.583485) can0 720#B2AABBCCDDEE1122
(1663676543.584523) can0 720#B2AABBCCDDEE1122
(1663676543.585220) can0 728#05500000
(1663676543.586113) can0 720#B2AABBCCDDEE1122
(1663676543.586915) can0 728#05500000
(1663676543.588620) can0 728#05500000
(1663676543.604739) can0 720#B2AABBCCDDEE1122
(1663676543.606423) can0 728#05500000
(1663676543.624843) can0 720#B2AABBCCDDEE1122
(1663676543.626517) can0 728#05500000
(1663676543.633690) can0 720#B2AABBCCDDEE1122
(1663676543.634742) can0 720#B2AABBCCDDEE1122
(1663676543.635419) can0 728#05500000
(1663676543.637146) can0 728#05500000
(1663676543.644912) can0 720#B2AABBCCDDEE1122
(1663676543.646618) can0 728#05500000
(1663676543.665031) can0 720#B2AABBCCDDEE1122
(1663676543.666713) can0 728#05500000
(1663676543.683764) can0 720#B2AABBCCDDEE1122
(1663676543.684829) can0 720#B2AABBCCDDEE1122
(1663676543.685522) can0 728#05500000
(1663676543.686414) can0 720#B2AABBCCDDEE1122
(1663676543.687220) can0 728#05500000
(1663676543.688920) can0 728#05500000
(1663676543.705145) can0 720#B2AABBCCDDEE1122
(1663676543.706912) can0 728#05500000
(1663676543.725282) can0 720#B2AABBCCDDEE1122
(1663676543.727017) can0 728#05500000
(1663676543.733838) can0 720#B2AABBCCDDEE1122
(1663676543.734861) can0 720#B2AABBCCDDEE1122
(1663676543.735693) can0 728#05500000
(1663676543.737316) can0 728#05500000
(1663676543.745401) can0 720#B2AABBCCDDEE1122
(1663676543.747207) can0 728#05500000
(1663676543.765452) can0 720#B2AABBCCDDEE1122
(1663676543.767218) can0 728#05500000
(1663676543.783980) can0 720#B2AABBCCDDEE1122
(1663676543.785077) can0 720#B2AABBCCDDEE1122
(1663676543.785765) can0 728#05500000
(1663676543.786658) can0 720#B2AABBCCDDEE1122
(1663676543.787423) can0 728#05500000
(1663676543.789125) can0 728#05500000
(1663676543.805607) can0 720#B2AABBCCDDEE1122
(1663676543.807320) can0 728#05500000
(1663676543.825688) can0 720#B2AABBCCDDEE1122
(1663676543.827415) can0 728#05500000
(1663676543.834029) can0 720#B2AABBCCDDEE1122
(1663676543.835082) can0 720#B2AABBCCDDEE1122
(1663676543.835772) can0 728#05500000
(1663676543.837412) can0 728#05500000
(1663676543.845770) can0 720#B2AABBCCDDEE1122
(1663676543.847517) can0 728#05500000
(1663676543.865847) can0 720#B2AABBCCDDEE1122
(1663676543.867618) can0 728#05500000
(1663676543.884102) can0 720#B2AABBCCDDEE1122
(1663676543.885130) can0 720#B2AABBCCDDEE1122
(1663676543.885826) can0 728#05500000
(1663676543.886714) can0 720#B2AABBCCDDEE1122
(1663676543.887519) can0 728#05500000
(1663676543.889212) can0 728#05500000
(1663676543.906005) can0 720#B2AABBCCDDEE1122
(1663676543.907719) can0 728#05500000
(1663676543.926094) can0 720#B2AABBCCDDEE1122
(1663676543.927817) can0 728#05500000
(1663676543.934195) can0 720#B2AABBCCDDEE1122
(1663676543.935216) can0 720#B2AABBCCDDEE1122
(1663676543.935915) can0 728#05500000
(1663676543.937614) can0 728#05500000
(1663676543.946160) can0 720#B2AABBCCDDEE1122
(1663676543.947907) can0 728#05500000
(1663676543.966248) can0 720#B2AABBCCDDEE1122
(1663676543.968017) can0 728#05500000
