(1663676547.809804) can0 728#F840F840F840F840
(1663676547.811137) can0 728#F88007DC3F40F840
(1663676547.812348) can0 728#F840F840F840F840
(1663676547.813579) can0 728#F88007D03F40F840
(1663676547.814843) can0 728#F840F840F840F840
(1663676547.816073) can0 728#F88007C43F40F840
(1663676547.817305) can0 728#F840F840F840F840
(1663676547.818599) can0 728#F88007B83F40F840
(1663676547.819820) can0 728#F840F840F840F840
(1663676547.821097) can0 728#F873072850480800
(1663676547.822311) can0 728#FFFFFFFFFFFFFFFF
(1663676547.823585) can0 728#FF80079C3F40F840
(1663676547.824829) can0 728#F840F840F840F840
(1663676547.825976) can0 720#B2AABBCCDDEE1122
(1663676547.826963) can0 728#F88007903F40F840
(1663676547.828181) can0 728#F840F840F840F840
(1663676547.829448) can0 728#F88007843F40F840
(1663676547.830692) can0 728#F840F840F840F840
(1663676547.831954) can0 728#F88007783F40F840
(1663676547.833205) can0 728#F840F840F840F840
(1663676547.834455) can0 728#F880076C3F40F840
(1663676547.835677) can0 728#F840F840F840F840
(1663676547.836958) can0 728#F88007603F40F840
(1663676547.838172) can0 728#F840F840F840F840
(1663676547.839442) can0 728#F88007543F40F840
(1663676547.840677) can0 728#F840F840F840F840
(1663676547.841951) can0 728#F88007483F40F840
(1663676547.842832) can0 720#B2AABBCCDDEE1122
(1663676547.843838) can0 728#F840F840F840F840
(1663676547.845051) can0 728#F880073C3F40F840
(1663676547.845923) can0 720#B2AABBCCDDEE1122
(1663676547.846930) can0 728#F840F840F840F840
(1663676547.848171) can0 728#F88007303F40F840
(1663676547.849029) can0 720#B2AABBCCDDEE1122
(1663676547.850036) can0 728#F840F840F840F840
(1663676547.851239) can0 728#F88007243F40F840
(1663676547.852474) can0 728#F840F840F840F840
(1663676547.853745) can0 728#F88007183F40F840
(1663676547.854969) can0 728#F840F840F840F840
(1663676547.856235) can0 728#F880070C3F40F840
(1663676547.857476) can0 728#F840F840F840F840
(1663676547.858754) can0 728#F88007003F40F840
(1663676547.859970) can0 728#F840F840F840F840
(1663676547.861242) can0 728#F88007F43E40F840
(1663676547.862476) can0 728#F840F840F840F840
(1663676547.863746) can0 728#F88007E83E40F840
(1663676547.864969) can0 728#F840F840F840F840
(1663676547.866063) can0 720#B2AABBCCDDEE1122
(1663676547.867032) can0 728#F88007DC3E40F840
(1663676547.868287) can0 728#F840F840F840F840
(1663676547.869552) can0 728#F88007D03E40F840
(1663676547.870856) can0 728#F840F840F840F840
(1663676547.872061) can0 728#F88007C43E40F840
(1663676547.873279) can0 728#F840F840F840F840
(1663676547.874544) can0 728#F88007B83E40F840
(1663676547.875772) can0 728#F840F840F840F840
(1663676547.877081) can0 728#F88007AC3E40F840
(1663676547.878274) can0 728#F840F840F840F840
(1663676547.879574) can0 728#F88007A03E40F840
(1663676547.880770) can0 728#F840F840F840F840
(1663676547.882033) can0 728#F88007943E40F840
(1663676547.883310) can0 728#F840F840F840F840
(1663676547.884548) can0 728#F88007883E40F840
(1663676547.885771) can0 728#F840F840F840F840
(1663676547.886658) can0 720#B2AABBCCDDEE1122
(1663676547.887669) can0 728#F880077C3E40F840
(1663676547.888876) can0 728#F840F840F840F840
(1663676547.890138) can0 728#F88007703E40F840
(1663676547.891371) can0 728#F840F840F840F840
(1663676547.892461) can0 720#B2AABBCCDDEE1122
(1663676547.893430) can0 728#F88007643E40F840
(1663676547.894675) can0 728#F840F840F840F840
(1663676547.895936) can0 728#F88007583E40F840
(1663676547.897178) can0 728#F840F840F840F840
(1663676547.898434) can0 728#F880074C3E40F840
(1663676547.899322) can0 720#B2AABBCCDDEE1122
(1663676547.900333) can0 728#F840F840F840F840
(1663676547.901544) can0 728#F88007403E40F840
(1663676547.902768) can0 728#F840F840F840F840
(1663676547.904034) can0 728#F88007343E40F840
(1663676547.905338) can0 728#F840F840F840F840
(1663676547.906241) can0 720#B2AABBCCDDEE1122
(1663676547.907178) can0 728#F88007283E40F840
(1663676547.908485) can0 728#F840F840F840F840
(1663676547.909744) can0 728#F880071C3E40F840
(1663676547.910989) can0 728#F840F840F840F840
(1663676547.912245) can0 728#F88007103E40F840
(1663676547.913475) can0 728#F840F840F840F840
(1663676547.914743) can0 728#F88007043E40F840
(1663676547.915973) can0 728#F840F840F840F840
(1663676547.917260) can0 728#F88007F83D40F840
(1663676547.918574) can0 728#F840F840F840F840
(1663676547.919869) can0 728#F88007EC3D40F840
(1663676547.921072) can0 728#F840F840F840F840
(1663676547.922336) can0 728#F88007E03D40F840
(1663676547.923571) can0 728#F840F840F840F840
(1663676547.924915) can0 728#F88007D43D40F840
(1663676547.926079) can0 728#F840F840F840F840
(1663676547.926966) can0 720#B2AABBCCDDEE1122
(1663676547.927984) can0 728#F88007C83D40F840
(1663676547.929181) can0 728#F840F840F840F840
(1663676547.930436) can0 728#F88007BC3D40F840
(1663676547.931703) can0 728#F840F840F840F840
(1663676547.932956) can0 728#F88007B03D40F840
(1663676547.934182) can0 728#F840F840F840F840
(1663676547.935444) can0 728#F88007A43D40F840
(1663676547.936736) can0 728#F840F840F840F840
(1663676547.937962) can0 728#F88007983D40F840
(1663676547.939177) can0 728#F840F840F840F840
(1663676547.940513) can0 728#F880078C3D40F840
(1663676547.941748) can0 728#F840F840F840F840
(1663676547.942604) can0 720#B2AABBCCDDEE1122
(1663676547.943570) can0 728#F88007803D40F840
(1663676547.944982) can0 728#F840F840F840F840
(1663676547.946132) can0 728#F88007743D40F840
(1663676547.947018) can0 720#B2AABBCCDDEE1122
(1663676547.948027) can0 728#F840F840F840F840
(1663676547.948913) can0 720#B2AABBCCDDEE1122
(1663676547.949896) can0 728#F88007683D40F840
(1663676547.951192) can0 728#F840F840F840F840
(1663676547.952446) can0 728#F880075C3D40F840
(1663676547.953702) can0 728#F840F840F840F840
(1663676547.954947) can0 728#F88007503D40F840
(1663676547.956181) can0 728#F840F840F840F840
(1663676547.957442) can0 728#F88007443D40F840
(1663676547.958682) can0 728#F840F840F840F840
(1663676547.959945) can0 728#F88007383D40F840
(1663676547.961204) can0 728#F840F840F840F840
(1663676547.962433) can0 728#F880072C3D40F840
(1663676547.963681) can0 728#F840F840F840F840
(1663676547.964987) can0 728#F88007203D40F840
(1663676547.966185) can0 728#F840F840F840F840
(1663676547.967108) can0 720#B2AABBCCDDEE1122
(1663676547.968033) can0 728#F88007143D40F840
(1663676547.969297) can0 728#F840F840F840F840
(1663676547.970553) can0 728#F88007083D40F840
(1663676547.971788) can0 728#F840F840F840F840
(1663676547.973040) can0 728#F88007FC3C40F840
(1663676547.974281) can0 728#F840F840F840F840
(1663676547.975545) can0 728#F88007F03C40F840
(1663676547.976776) can0 728#F840F840F840F840
(1663676547.978041) can0 728#F88007E43C40F840
(1663676547.979281) can0 728#F840F840F840F840
(1663676547.980568) can0 728#F88007D83C40F840
(1663676547.981880) can0 728#F840F840F840F840
(1663676547.983138) can0 728#F88007CC3C40F840
(1663676547.984376) can0 728#F840F840F840F840
(1663676547.985663) can0 728#F88007C03C40F840
(1663676547.986764) can0 720#B2AABBCCDDEE1122
(1663676547.987772) can0 728#F840F840F840F840
(1663676547.989035) can0 728#F88007B43C40F840
(1663676547.990278) can0 728#F840F840F840F840
(1663676547.991548) can0 728#F88007A83C40F840
(1663676547.992778) can0 728#F840F840F840F840
(1663676547.993719) can0 720#B2AABBCCDDEE1122
(1663676547.994670) can0 728#F880079C3C40F840
(1663676547.995886) can0 728#F840F840F840F840
(1663676547.997198) can0 728#F88007903C40F840
(1663676547.998389) can0 728#F840F840F840F840
(1663676547.999288) can0 720#B2AABBCCDDEE1122
(1663676548.000245) can0 728#F88007843C40F840
(1663676548.001491) can0 728#F840F840F840F840
(1663676548.002814) can0 728#F88007783C40F840
(1663676548.003982) can0 728#F840F840F840F840
(1663676548.005237) can0 728#F880076C3C40F840
(1663676548.006494) can0 728#F840F840F840F840
(1663676548.007381) can0 720#B2AABBCCDDEE1122
(1663676548.008342) can0 728#F88007603C40F840
(1663676548.009582) can0 728#F840F840F840F840
(1663676548.010842) can0 728#F88007543C40F840
(1663676548.012085) can0 728#F840F840F840F840
(1663676548.013357) can0 728#F88007483C40F840
(1663676548.014589) can0 728#F840F840F840F840
(1663676548.015854) can0 728#F880073C3C40F840
(1663676548.017112) can0 728#F840F840F840F840
(1663676548.018346) can0 728#F88007303C40F840
(1663676548.019582) can0 728#F840F840F840F840
(1663676548.020837) can0 728#F88007243C40F840
(1663676548.022085) can0 728#F840F840F840F840
(1663676548.023350) can0 728#F88007183C40F840
(1663676548.024581) can0 728#F840F840F840F840
(1663676548.025845) can0 728#F880070C3C40F840
(1663676548.026941) can0 720#B2AABBCCDDEE1122
(1663676548.027948) can0 728#F840F840F840F840
(1663676548.029154) can0 728#F88007003C40F840
(1663676548.030395) can0 728#F840F840F840F840
(1663676548.031653) can0 728#F88007F43B40F840
(1663676548.032882) can0 728#F840F840F840F840
(1663676548.034176) can0 728#F88007E83B40F840
(1663676548.035469) can0 728#F840F840F840F840
(1663676548.036658) can0 728#F88007DC3B40F840
(1663676548.037891) can0 728#F840F840F840F840
(1663676548.039150) can0 728#F88007D03B40F840
(1663676548.040379) can0 728#F840F840F840F840
(1663676548.041656) can0 728#F88007C43B40F840
(1663676548.042885) can0 728#F840F840F840F840
(1663676548.043771) can0 720#B2AABBCCDDEE1122
(1663676548.044742) can0 728#F88007B83B40F840
(1663676548.045986) can0 728#F840F840F840F840
(1663676548.047135) can0 720#B2AABBCCDDEE1122
(1663676548.048084) can0 728#F88007AC3B40F840
(1663676548.048971) can0 720#B2AABBCCDDEE1122
(1663676548.050045) can0 728#F840F840F840F840
(1663676548.051244) can0 728#F88007A03B40F840
(1663676548.052484) can0 728#F840F840F840F840
(1663676548.053731) can0 728#F88007943B40F840
(1663676548.055019) can0 728#F840F840F840F840
(1663676548.056244) can0 728#F88007883B40F840
(1663676548.057492) can0 728#F840F840F840F840
(1663676548.058752) can0 728#F880077C3B40F840
(1663676548.060043) can0 728#F840F840F840F840
(1663676548.061258) can0 728#F88007703B40F840
(1663676548.062490) can0 728#F840F840F840F840
(1663676548.063750) can0 728#F88007643B40F840
(1663676548.064981) can0 728#F840F840F840F840
(1663676548.066408) can0 728#F88007583B40F840
(1663676548.067231) can0 720#B2AABBCCDDEE1122
(1663676548.068262) can0 728#F840F840F840F840
(1663676548.069469) can0 728#F880074C3B40F840
(1663676548.070699) can0 728#F840F840F840F840
(1663676548.071966) can0 728#F88007403B40F840
(1663676548.073178) can0 728#F840F840F840F840
(1663676548.074434) can0 728#F88007343B40F840
(1663676548.075688) can0 728#F840F840F840F840
(1663676548.076937) can0 728#F88007283B40F840
(1663676548.078178) can0 728#F840F840F840F840
(1663676548.079437) can0 728#F880071C3B40F840
(1663676548.080706) can0 728#F840F840F840F840
(1663676548.081938) can0 728#F88007103B40F840
(1663676548.083177) can0 728#F840F840F840F840
(1663676548.084448) can0 728#F88007043B40F840
(1663676548.085683) can0 728#F840F840F840F840
(1663676548.086953) can0 728#F88007F83A40F840
(1663676548.087832) can0 720#B2AABBCCDDEE1122
(1663676548.088841) can0 728#F840F840F840F840
(1663676548.090077) can0 728#F8203E00F080FF00
(1663676548.091328) can0 728#01403EFF03273E71
(1663676548.092613) can0 728#000742274F010067
(1663676548.093406) can0 720#B2AABBCCDDEE1122
(1663676548.094377) can0 728#470100403E000027
(1663676548.095649) can0 728#3E20FF0747000047
(1663676548.096841) can0 728#070000403EFF0327
(1663676548.098045) can0 728#3E00004747000040
(1663676548.098936) can0 720#B2AABBCCDDEE1122
(1663676548.099910) can0 728#3EFF03273E010007
(1663676548.101179) can0 728#3700004707000020
(1663676548.102349) can0 728#0E2000E141FA0561
(1663676548.103514) can0 728#32D205200E1900E1
(1663676548.104714) can0 728#49920D403EFF0327
(1663676548.105966) can0 728#3E68004707000080
(1663676548.107148) can0 728#FF0E014026FF0324
(1663676548.107999) can0 720#B2AABBCCDDEE1122
(1663676548.109045) can0 728#26D409402E010025
(1663676548.110130) can0 728#2E2C88401EFF0323
(1663676548.111310) can0 728#1EC82F1C0A411900
(1663676548.112518) can0 728#E0403EFF03273E71
(1663676548.113768) can0 728#000A426747010080
(1663676548.114988) can0 728#FF04001FE8042600
(1663676548.116139) can0 728#4004260040400EFF
(1663676548.117333) can0 728#03010ED409A20501
(1663676548.118532) can0 728#F05D5600002A56C2
(1663676548.119713) can0 728#19EAA7200080A6FF
(1663676548.120959) can0 728#0080AEFFFF80FFFE
(1663676548.122128) can0 728#06403EFF03273E71
(1663676548.123335) can0 728#000F426747010000
(1663676548.124543) can0 728#3A0042004A00B200
(1663676548.125695) can0 728#BA00C200CA00D25D
(1663676548.126921) can0 728#3600002636B20080
(1663676548.127814) can0 720#B2AABBCCDDEE1122
(1663676548.128753) can0 728#FF7A11403EFF0327
(1663676548.129920) can0 728#3E71002046290067
(1663676548.131135) can0 728#470100850520A6FF
(1663676548.132353) can0 728#003506FFFF000040
(1663676548.133551) can0 728#3E0000273E00F028
(1663676548.134711) can0 728#06FB8F0000674764
(1663676548.135941) can0 728#007F005C1A63FF01
(1663676548.137189) can0 728#005C1A633F01005C
(1663676548.138347) can0 728#1A63470100BFFFD0
(1663676548.139542) can0 728#FF23470100441A23
(1663676548.140755) can0 728#3F0100441A23FF01
(1663676548.141990) can0 728#00441A7F00010000
(1663676548.143177) can0 728#00000000002C0800
(1663676548.144065) can0 720#B2AABBCCDDEE1122
(1663676548.145081) can0 728#0000000000000000
(1663676548.146437) can0 728#0000000000000000
