(1663746260.542370) can0 726#6237C119C61DA737
(1663746260.552679) can0 726#BFDD34234DFD4278
(1663746260.562934) can0 726#9995F51774BE2647
(1663746260.573163) can0 726#933C4C13D8979B55
(1663746260.583442) can0 726#399BF925D406DA16
(1663746260.593691) can0 726#8B8DA83B0DF5BA6C
(1663746260.604108) can0 726#0BAAB56DBD86E771
(1663746260.608192) can0 72E#037FAA1200000000
(1663746260.620122) can0 726#D4733979557EDF4B
(1663746260.624543) can0 726#689BEC6FBAE5904F
(1663746260.635223) can0 726#354C895CE168F613
(1663746260.644971) can0 726#95EEDB051D2FA80E
(1663746260.655180) can0 726#CF7C1961BE8B280C
(1663746260.666183) can0 726#6024A12C7B26163E
(1663746260.675602) can0 726#5575721712329452
(1663746260.685833) can0 726#88D3F62EA46FDA3A
(1663746260.696026) can0 726#18F48A70EA0AB848
(1663746260.698318) can0 72E#300A140000000000
(1663746260.710400) can0 726#6B8D8172D7D1BF13
(1663746260.720141) can0 726#3808FB400423770A
(1663746260.726771) can0 726#4B90E65ACB444754
(1663746260.737039) can0 726#DCBA1260842BE000
(1663746260.747236) can0 726#9F4B216B6848BB1B
(1663746260.757459) can0 726#91209B6DAAF5D658
(1663746260.767708) can0 726#25CFA20D6594D466
(1663746260.777935) can0 726#0074B6248D6A8F7D
(1663746260.788187) can0 726#1F7A653635C03F01
(1663746260.798412) can0 72E#300A140000000000
(1663746260.799327) can0 726#6ED38511B468413C
(1663746260.808660) can0 726#52EFE70F3E509F72
(1663746260.819122) can0 726#73F46948B213893C
(1663746260.829096) can0 726#B976B530C869DC5F
(1663746260.839328) can0 726#C4451D0F414AAC5F
(1663746260.849550) can0 726#6CD9B61ADC39A87F
(1663746260.859783) can0 726#2C556428D766380D
(1663746260.869377) can0 72E#037F657200000000
(1663746260.871311) can0 726#B30B6813645D5F69
(1663746260.880274) can0 726#DB89AF17FE9B4E6E
(1663746260.890508) can0 726#2FA2A63DB844C277
(1663746260.901127) can0 726#82C72E6FCFEDC728
(1663746260.911021) can0 726#208D7D1313E8C95C
(1663746260.921223) can0 726#79E39E01455C2021
(1663746260.931458) can0 726#787C9E4379575526
(1663746260.941661) can0 726#D3C6AF1E98F6037A
(1663746260.951888) can0 726#AE179527419A3530
(1663746260.962139) can0 726#4C5F453600077D37
(1663746260.972355) can0 726#7FEAD422BF53AF7E
(1663746260.982562) can0 726#B31A067439618A53
(1663746260.992791) can0 726#87BD8B5E77602303
(1663746261.003004) can0 726#7AAB3633F4964279
(1663746261.013263) can0 726#549ACB02A6009B5B
(1663746261.023487) can0 726#CBFD7A0607A63316
(1663746261.033705) can0 726#0A5EFA44A7872A1E
(1663746261.038884) can0 72E#037F5E1200000000
(1663746261.043963) can0 726#064282043A00A102
(1663746261.048847) can0 72E#037F421100000000
(1663746261.054198) can0 726#5FCCEC158809B173
(1663746261.066240) can0 726#09EE682B7F596A29
(1663746261.068646) can0 72E#037FEE1200000000
(1663746261.074667) can0 726#9CF17A5082D1072D
(1663746261.084737) can0 726#C4B58A4A146E1914
(1663746261.095429) can0 726#FC285D53977C3A69
(1663746261.107113) can0 726#AC641D0EAA40F27A
(1663746261.121128) can0 726#D9167019F9C36244
(1663746261.125163) can0 726#AB476F325801453C
(1663746261.135266) can0 726#B81712435E627526
(1663746261.145378) can0 726#9162CF0F40D59D21
(1663746261.155505) can0 726#D5C298290C0E0643
(1663746261.166221) can0 726#346CE01A295D642C
(1663746261.175676) can0 726#B20EA11EFF695B21
(1663746261.185799) can0 726#31039842BD6C9B63
(1663746261.195874) can0 726#A6F1853F37451A47
(1663746261.208932) can0 726#F76C3C6605BE7255
(1663746261.217176) can0 726#BF4ECB3A005BA511
(1663746261.226211) can0 726#8417DD7E5B40460B
(1663746261.236399) can0 726#822CAD3E49CD6749
(1663746261.246382) can0 726#70AE5F1F7E550A12
(1663746261.256486) can0 726#E049A2321C137D2D
(1663746261.266596) can0 726#2996FC0CB960124C
(1663746261.276699) can0 726#15D7DF71D4DD6B3F
(1663746261.278918) can0 72E#300A140000000000
(1663746261.286787) can0 726#12625708CEEEF134
(1663746261.288959) can0 72E#300A140000000000
(1663746261.296903) can0 726#3240E165A3C42618
(1663746261.307208) can0 726#0EC48F5607037A0F
(1663746261.309140) can0 72E#037FC41200000000
(1663746261.317183) can0 726#AFD22C5B42307071
(1663746261.327244) can0 726#3160DE3B62E1CD79
(1663746261.337346) can0 726#419ACB126263767E
(1663746261.347432) can0 726#1F4E695DE88B5152
(1663746261.348936) can0 72E#300A140000000000
(1663746261.357542) can0 726#99A8904516BBA543
(1663746261.368190) can0 726#ED49C42758F75B00
(1663746261.377724) can0 726#16164B557261A126
(1663746261.387867) can0 726#B437A20B9842F813
(1663746261.397961) can0 726#BB2E097024E6012B
(1663746261.408113) can0 726#179802269B78AB22
(1663746261.418221) can0 726#40F97E58402EFF32
(1663746261.428290) can0 726#55D9BD6E56D05E4A
(1663746261.438399) can0 726#140C6B72673B1577
(1663746261.439372) can0 72E#037F697200000000
(1663746261.448523) can0 726#24BF507F464C4C58
(1663746261.449500) can0 72E#300A140000000000
(1663746261.458676) can0 726#0A003C0F3283E055
(1663746261.468729) can0 726#4D4FC667BAD2686A
(1663746261.469711) can0 72E#037F001200000000
(1663746261.478862) can0 726#74B350477EAFA423
(1663746261.488964) can0 726#1CB43664B54D1C5A
(1663746261.499046) can0 72E#300A140000000000
(1663746261.499959) can0 726#E0121B223B02A041
(1663746261.509400) can0 726#9DD96D2C79BBAB67
(1663746261.522015) can0 726#51BD45058B233254
(1663746261.529361) can0 726#D2B2076867D3905A
(1663746261.539446) can0 726#FD84D37A86EAA973
(1663746261.550242) can0 726#FF15896EB8B3DC6A
(1663746261.559644) can0 726#AAD0AB1E16AE8B14
(1663746261.569745) can0 726#532C880DEAC92A77
(1663746261.579855) can0 726#56DC8A47A805467C
(1663746261.589212) can0 72E#037F367200000000
(1663746261.590101) can0 726#409A89416AE8F539
(1663746261.600074) can0 726#0F415B736459DA40
(1663746261.609134) can0 72E#037F411200000000
(1663746261.610347) can0 726#B03442121A419702
(1663746261.620393) can0 726#96DCBA16FE83087A
(1663746261.630355) can0 726#D413006D0A900B5E
(1663746261.640465) can0 726#7C33AD1DF0C73651
(1663746261.650577) can0 726#C0DD27385D46C83F
(1663746261.660654) can0 726#2BCAD6125DB79564
(1663746261.670779) can0 726#D60174277C871C18
(1663746261.680859) can0 726#E8DAC738A8B47B0F
(1663746261.690971) can0 726#E35AAD72E55F9B33
(1663746261.701098) can0 726#2E9F2503E2703661
(1663746261.711740) can0 726#9D13781ED86FD121
(1663746261.724258) can0 726#F91EC275F13F002C
(1663746261.731402) can0 726#C339FC184FFB4C3D
(1663746261.741577) can0 726#9945462803D4855A
(1663746261.751582) can0 726#BAE34277A986A11B
(1663746261.761687) can0 726#682D601B6A188509
(1663746261.771811) can0 726#C3C7381EFE091B32
(1663746261.781931) can0 726#689C8D0397DB380B
(1663746261.792008) can0 726#099A2610E5CF3A21
(1663746261.799288) can0 72E#037F9A1200000000
(1663746261.802111) can0 726#87A36F5CC9774E48
(1663746261.812236) can0 726#42160361B26D466F
(1663746261.822349) can0 726#262FE42C18187708
(1663746261.832439) can0 726#2EF562070F0AAC65
(1663746261.842547) can0 726#C1CCF2171150107A
(1663746261.852623) can0 726#F4694719EF6B181B
(1663746261.862741) can0 726#F3C0465B927DBF37
(1663746261.872839) can0 726#C8DBE93CECDF0851
(1663746261.882938) can0 726#83BDBF638B15E655
(1663746261.893072) can0 726#3CDB550E1C03060C
(1663746261.903152) can0 726#8EE96B30F6BE9805
(1663746261.913248) can0 726#C589A727F616CC4B
(1663746261.923388) can0 726#60D71D0F8851E045
(1663746261.933461) can0 726#F520E77DC973AB12
(1663746261.943571) can0 726#1F2D1951FEBA0D0E
(1663746261.949449) can0 72E#300A140000000000
(1663746261.953665) can0 726#AE43E633A6D0882D
(1663746261.963759) can0 726#C7325C56F059E914
(1663746261.973875) can0 726#583ECF1CED614003
(1663746261.983959) can0 726#0872601D86333224
(1663746261.989462) can0 72E#037F721200000000
(1663746261.994066) can0 726#FC6BEC68C93E5335
(1663746262.004172) can0 726#9783421EF1D53302
(1663746262.018147) can0 726#B9AA6B508B448979
(1663746262.024392) can0 726#8353F3398186550D
(1663746262.034472) can0 726#7724924A0611B31D
(1663746262.044602) can0 726#0C9C3B63B3FFE758
(1663746262.049526) can0 72E#037F9C1200000000
(1663746262.054690) can0 726#2214B9299A85A713
(1663746262.066241) can0 726#A9BE805EE89D6051
(1663746262.075248) can0 726#919C735F0A969E6D
(1663746262.084988) can0 726#70EF401786BD5A5D
(1663746262.095106) can0 726#D3094A00901C5A68
(1663746262.106332) can0 726#8478686B814D3034
(1663746262.120123) can0 726#36EDE2154BABC441
(1663746262.125386) can0 726#71A719498F2BB232
(1663746262.135506) can0 726#380D054579197A66
(1663746262.145612) can0 726#155FE4563579F12D
(1663746262.149624) can0 72E#300A140000000000
(1663746262.155692) can0 726#4358CD1BADE22675
(1663746262.166196) can0 726#264F2530FC02396C
(1663746262.169637) can0 72E#037FE47200000000
(1663746262.175921) can0 726#3827B06EA9A2186A
(1663746262.186007) can0 726#7D898E79AF4B4239
(1663746262.196159) can0 726#AFB3CB078925CA5C
(1663746262.208372) can0 726#634B2A12D1C78431
(1663746262.218175) can0 726#23AB71700C0AAB70
(1663746262.226420) can0 726#B965E502B447E54F
(1663746262.236507) can0 726#16A0495E2A55261A
(1663746262.239704) can0 72E#300A140000000000
(1663746262.246623) can0 726#3A05402DE9A9935E
(1663746262.256740) can0 726#BA718002BE7DA818
(1663746262.266866) can0 726#6AF7C312F05E6318
(1663746262.276958) can0 726#09296D5ADB9EDD5B
(1663746262.279770) can0 72E#037F291200000000
(1663746262.287076) can0 726#7F8A154B4236721F
(1663746262.297170) can0 726#55B8574295E9F921
(1663746262.307368) can0 726#77AF634D9810255E
(1663746262.318159) can0 726#42CC20179DFE887D
(1663746262.327468) can0 726#94135E4A7AF3D005
(1663746262.337552) can0 726#46A1A167119DEC43
(1663746262.347702) can0 726#293F133FF5546D6F
(1663746262.357766) can0 726#9AC2B6208C8A3D51
(1663746262.368282) can0 726#C61CF220BD6D2811
(1663746262.377988) can0 726#9994E8418082D723
(1663746262.388080) can0 726#72B50D61AF343220
(1663746262.398170) can0 726#AAD7FD3DACBA4D0E
(1663746262.408339) can0 726#99DEC57E64497E40
(1663746262.418431) can0 726#6B38F62603D68911
(1663746262.428513) can0 726#54A8E15874616301
(1663746262.438612) can0 726#DF74676DD432F723
(1663746262.448728) can0 726#B697D520342DBF2F
(1663746262.458795) can0 726#691CF1452D47396E
(1663746262.468932) can0 726#CC3DE40DABE8115D
(1663746262.479014) can0 726#CA45C26B60514258
(1663746262.489107) can0 726#25DCE26210E76353
(1663746262.499197) can0 726#71EE2E1C4E1BF621
(1663746262.509389) can0 726#053CD1420BB1E53C
(1663746262.519395) can0 726#DBA53373CC58C363
(1663746262.523257) can0 72E#037F3C1100000000
(1663746262.529536) can0 726#C81E0E4E743A1C35
(1663746262.539636) can0 726#4CDB9A073AD41B2F
(1663746262.549718) can0 726#236F4E55F6B29845
(1663746262.559807) can0 726#E78E693DBC4D1454
(1663746262.569963) can0 726#5AFC160652C75F64
(1663746262.580051) can0 726#C0239E65AEA4F85E
(1663746262.590146) can0 726#C628C3659F980553
(1663746262.600290) can0 726#82D7EF027DC09806
(1663746262.610370) can0 726#D3C5C402EBF3E048
(1663746262.621130) can0 726#AA07D2749F03A910
(1663746262.630556) can0 726#96DCF225754D9460
(1663746262.640658) can0 726#FF54EB68BBB8D508
(1663746262.650779) can0 726#8534F83370431A05
(1663746262.660857) can0 726#0AD4CB2A8B70C976
(1663746262.670086) can0 72E#037FD41200000000
(1663746262.671002) can0 726#7BF4FF41E579FF1D
(1663746262.681639) can0 726#57C98C5A43130E10
(1663746262.691181) can0 726#59B41B53A3A42762
(1663746262.701293) can0 726#7EE7293F7C236A28
(1663746262.712329) can0 726#9957C0276576937C
(1663746262.722101) can0 726#39717E7CF353D72D
(1663746262.731595) can0 726#B73DF360F9941C62
(1663746262.741685) can0 726#A1F8CF0C7D66B646
(1663746262.751795) can0 726#982D223524D0BF0F
(1663746262.761908) can0 726#FA264F4D6BF3E637
(1663746262.772001) can0 726#0FC4A058A52E2142
(1663746262.780211) can0 72E#037FC41200000000
(1663746262.782102) can0 726#0AF78F48A6A0937E
(1663746262.790237) can0 72E#037FF71200000000
(1663746262.792237) can0 726#1A7CB522094C7B31
(1663746262.800258) can0 72E#300A140000000000
(1663746262.802313) can0 726#615969079FB0AD56
(1663746262.812400) can0 726#798F95366B2D3532
(1663746262.822537) can0 726#2A21774DF4839578
(1663746262.830210) can0 72E#037FB57200000000
(1663746262.832634) can0 726#50A7345081EA0328
(1663746262.842721) can0 726#3797A308A95B5023
(1663746262.852808) can0 726#248F2B0AB57ECD47
(1663746262.862928) can0 726#267FBA4BBDE6EB31
(1663746262.873032) can0 726#1AF560445FF03848
(1663746262.880336) can0 72E#300A140000000000
(1663746262.883121) can0 726#B03AC35FD1325425
(1663746262.893209) can0 726#5885552A5233936C
(1663746262.903319) can0 726#4F990A6CF0B2775F
(1663746262.913449) can0 726#7603537C49C05939
(1663746262.923541) can0 726#5BA65E1785C7F354
(1663746262.933636) can0 726#EEEE7A7B659DEE5F
(1663746262.943747) can0 726#2B688753086B301E
(1663746262.950318) can0 72E#037F607200000000
(1663746262.953867) can0 726#6EE969118DC1F05A
(1663746262.963947) can0 726#A81BDE74E778FF47
(1663746262.974032) can0 726#F8EE250DD23C5542
(1663746262.984144) can0 726#DBFC944049965A5D
(1663746262.994223) can0 726#5427596A12943849
(1663746263.004362) can0 726#F2F1AA0078B68474
(1663746263.017153) can0 726#C81206111871654C
(1663746263.024567) can0 726#369D7026E2076755
(1663746263.035238) can0 726#77619E14E6D73306
(1663746263.044810) can0 726#B43ABB7ACFE6F33E
(1663746263.055276) can0 726#380BC77203D4C566
(1663746263.066235) can0 726#BF996B1EAE0E1A6F
(1663746263.075152) can0 726#4C941F201A40CA35
(1663746263.085429) can0 726#34D60D443B839A1B
(1663746263.095372) can0 726#7FDDB8155F3E9517
(1663746263.105467) can0 726#43EECA39EDC62227
(1663746263.120128) can0 726#ECFF8572EB09A92E
(1663746263.125773) can0 726#D43F226FE5EEAB7F
(1663746263.135762) can0 726#BE46FE70AF3CB72F
(1663746263.145855) can0 726#2E85065D126E575B
(1663746263.156162) can0 726#C2D0EF782077B15D
(1663746263.166223) can0 726#8A24DC4F8AE3F509
(1663746263.176188) can0 726#39E8162AC0C14C76
(1663746263.186284) can0 726#6CEB5C5FB049B53E
(1663746263.196395) can0 726#A799807C2026185A
(1663746263.206495) can0 726#8030A97DDFA4476F
(1663746263.218165) can0 726#23FADD403FCA141C
(1663746263.226688) can0 726#8EB3615E708EFD60
(1663746263.236776) can0 726#5A0ADF51C2896F22
(1663746263.246875) can0 726#AB11987CD9E79767
(1663746263.256982) can0 726#21C8043AEEFF6236
(1663746263.267224) can0 726#C7AEBA0E0EC88A2C
(1663746263.277189) can0 726#DA090C659BEEDC7D
(1663746263.287279) can0 726#F3B6362C98500A56
(1663746263.297367) can0 726#4B2B942D213C3D09
(1663746263.307484) can0 726#AABE61310DFC8326
(1663746263.317604) can0 726#41B3EE6634E33D01
(1663746263.327718) can0 726#97DF79307A9B0511
(1663746263.337791) can0 726#F5A48A7703CBD60F
(1663746263.347915) can0 726#2BE5BA4F9C3E0B74
(1663746263.357979) can0 726#24F1EE69AB15644D
(1663746263.368249) can0 726#7BE3526347EBCC2A
(1663746263.378186) can0 726#EADF78690997B441
(1663746263.388279) can0 726#B779CA0B44EA573B
(1663746263.398392) can0 726#CB202464628B6208
(1663746263.408548) can0 726#1ED2EF22EDE8281E
(1663746263.410768) can0 72E#300A140000000000
(1663746263.418636) can0 726#518BC53EE580AA31
(1663746263.428741) can0 726#FBB0B34A2B95D123
(1663746263.438849) can0 726#806F872FEE67EA76
(1663746263.448943) can0 726#C3E5DB79CB9A1B5D
(1663746263.459031) can0 726#0FA427006DA43D2B
(1663746263.460766) can0 72E#037FA41200000000
(1663746263.469135) can0 726#D8969F0350571667
(1663746263.479216) can0 726#A1877B2C6F761934
(1663746263.489343) can0 726#CBF21B78962C0624
(1663746263.499465) can0 726#7341F043F6D7D647
(1663746263.510246) can0 726#326B11189732DF2D
(1663746263.520341) can0 726#A1ED3A15AE4E647B
(1663746263.529743) can0 726#DE1DAC588BCDB37E
(1663746263.539856) can0 726#B7E5183D96977664
(1663746263.549980) can0 726#D0B70B3A83063D21
(1663746263.560062) can0 726#F822D96CEE89FB5C
(1663746263.570152) can0 726#70EF653F49AE9E2B
(1663746263.580264) can0 726#D30AA60E6BA0190A
(1663746263.590370) can0 726#7443704F537A2D3E
(1663746263.600477) can0 726#5908040137294C49
(1663746263.610585) can0 726#1F15491B68AC2B01
(1663746263.621079) can0 726#A4CD8974F7ABE81E
(1663746263.630794) can0 726#B803426846550521
(1663746263.640900) can0 726#6722025383F65D60
(1663746263.650999) can0 726#DC810B45DA63F216
(1663746263.661094) can0 726#79CE34280FED1C5D
(1663746263.671194) can0 726#7196D1441ABC6F3D
(1663746263.681316) can0 726#BD3B81584FB47D1D
(1663746263.691403) can0 726#A689233C74219A15
(1663746263.701519) can0 726#E54BF40176412F76
(1663746263.711825) can0 726#F727D736DE6ECD6E
(1663746263.722617) can0 726#64CB2A5367173D76
(1663746263.731845) can0 726#271D6C1A37D6D061
(1663746263.741941) can0 726#D2B756009C60DC69
(1663746263.752039) can0 726#8A50FE1F2BC05A01
(1663746263.762124) can0 726#D3892833A965473B
(1663746263.772257) can0 726#936C86027857B227
(1663746263.782330) can0 726#A111305A4C70C86A
(1663746263.792449) can0 726#BEACB7480834322D
(1663746263.802542) can0 726#CF66264B9A2EC30D
(1663746263.812656) can0 726#E297244449355B73
(1663746263.822777) can0 726#A91BE06A532EF608
(1663746263.832885) can0 726#63F1CA3066576143
(1663746263.842987) can0 726#A2E27326097BEE6C
(1663746263.853099) can0 726#DB78FB58882E6828
(1663746263.863219) can0 726#7FBC1D63D2A0D20F
(1663746263.873286) can0 726#669D3517E3874836
(1663746263.883397) can0 726#3AB80F068DBAA131
(1663746263.893511) can0 726#1A5E19180C706606
(1663746263.901182) can0 72E#300A140000000000
(1663746263.903615) can0 726#291B7E1BA5AE1738
(1663746263.911371) can0 72E#037F197200000000
(1663746263.914311) can0 726#3830C107FDA4A64E
(1663746263.923834) can0 726#4E145F73CB9C470A
(1663746263.933949) can0 726#75FC5876EF258F4D
(1663746263.944054) can0 726#170D107533A9103F
(1663746263.951244) can0 72E#300A140000000000
(1663746263.954160) can0 726#F759C17AE7733640
(1663746263.966176) can0 726#CDD7D34CD9F1E53E
(1663746263.974349) can0 726#30A9913377F3B337
(1663746263.984446) can0 726#2C20DC47939A5C64
(1663746263.992712) can0 72E#037F107200000000
(1663746263.995222) can0 726#DD4A157BCF02506E
(1663746264.004649) can0 726#9D154B51B8C31054
(1663746264.017168) can0 726#5731B8161CD26834
(1663746264.024845) can0 726#8B64E363BDCEED2D
(1663746264.034969) can0 726#005AB16AC51CF369
(1663746264.045080) can0 726#4A898F5F1AB8CA02
(1663746264.055234) can0 726#D18C597074A40D7B
(1663746264.066176) can0 726#BF66E23A09BD1A78
(1663746264.075373) can0 726#7149B4490E7B412E
(1663746264.085487) can0 726#D5596202E6450D40
(1663746264.095603) can0 726#FDA0D07BEC667277
(1663746264.105734) can0 726#19EF1D7FF5FA9176
(1663746264.112203) can0 72E#300A140000000000
(1663746264.124715) can0 726#D3DAA837E6C6F14B
(1663746264.125878) can0 726#CEEC773503843A6B
(1663746264.136007) can0 726#5DBAA503FB0C547D
(1663746264.146093) can0 726#971E974F3B05BB7E
(1663746264.156204) can0 726#CA0FA46B3434E220
(1663746264.166466) can0 726#F3C8CB5221415C02
(1663746264.176439) can0 726#50064B557E2DAF36
(1663746264.186536) can0 726#DE0F4A305060FC3F
(1663746264.196591) can0 726#434AA2202899D90F
(1663746264.201555) can0 72E#037F1D7200000000
(1663746264.206716) can0 726#6B18C74215D7FB10
(1663746264.217479) can0 726#9C3DE70A2A7FA97D
(1663746264.226912) can0 726#1E9416090D879B54
(1663746264.231482) can0 72E#300A140000000000
(1663746264.237046) can0 726#38FAEA2BF3ED780B
(1663746264.247103) can0 726#F3CCA814369BBB27
(1663746264.257213) can0 726#E054EB020CBCC613
(1663746264.267429) can0 726#2B964D1EB32F943A
(1663746264.271493) can0 72E#037F167200000000
(1663746264.277441) can0 726#F382B85FF982C553
(1663746264.287513) can0 726#B7B3CE25503D5E63
(1663746264.297600) can0 726#F48F19514ED26575
(1663746264.307708) can0 726#8B421962BE9FBD3C
(1663746264.318551) can0 726#820648167F0BE534
(1663746264.327936) can0 726#DFE0193FD20C936B
(1663746264.338051) can0 726#FD38946BBDF0636F
(1663746264.348153) can0 726#236D8F2B4183360C
(1663746264.358243) can0 726#E6893D7F8E85566E
(1663746264.369223) can0 726#565A321D82C7240A
(1663746264.378457) can0 726#B804006C74EE4826
(1663746264.388557) can0 726#904EC05EF1FEEA17
(1663746264.398650) can0 726#68DCC131831B6973
(1663746264.408740) can0 726#279AA63F4831AD34
(1663746264.418864) can0 726#90D72F075230F45D
(1663746264.428997) can0 726#FB60416F835AE866
(1663746264.439085) can0 726#4BB3B931B2141015
(1663746264.449161) can0 726#D397464A4043D302
(1663746264.459292) can0 726#00E7750A5FDA5F2C
(1663746264.469377) can0 726#FEE2903F82EDBD20
(1663746264.479456) can0 726#DEE54461DEC3AA7E
(1663746264.489555) can0 726#55FA500CDB1ED94C
(1663746264.499676) can0 726#9BB40E6E7867E037
(1663746264.509772) can0 726#1CA20F59813E4C6D
(1663746264.511752) can0 72E#300A140000000000
(1663746264.519867) can0 726#06ED362672FC4176
(1663746264.524869) can0 72E#037FED1100000000
(1663746264.530013) can0 726#04067177BEF13612
(1663746264.532120) can0 72E#037F061100000000
(1663746264.540073) can0 726#E7EA8A1C94543156
(1663746264.550214) can0 726#AFF0212A4FC74C4E
(1663746264.560284) can0 726#17709A49D68AC869
(1663746264.561840) can0 72E#300A140000000000
(1663746264.570424) can0 726#97F8F902A747CA50
(1663746264.580540) can0 726#28BBBC4792593B72
(1663746264.581774) can0 72E#037F9A7200000000
(1663746264.590619) can0 726#2AA2B237746E7679
(1663746264.600756) can0 726#456E4B07FE39F901
(1663746264.610840) can0 726#B4B1497C4555C111
(1663746264.621099) can0 726#5D14592EB294DA3B
(1663746264.631044) can0 726#C8427F323BFA9D0F
(1663746264.641159) can0 726#9058853A1D3DD03E
(1663746264.651267) can0 726#1619775C2C0D9428
(1663746264.661344) can0 726#95A4B07633BB8635
(1663746264.662327) can0 72E#300A140000000000
(1663746264.671460) can0 726#AD4BE0159B91E71C
(1663746264.681575) can0 726#A5B7C82BB151510D
(1663746264.691678) can0 726#59831E2F8CA25348
(1663746264.701789) can0 726#45A6826309744059
(1663746264.712397) can0 726#DB69A0165D161D2D
(1663746264.722157) can0 726#DFFE084372629A19
(1663746264.732096) can0 726#045EE77D08BAC50A
(1663746264.742154) can0 72E#037F5E1100000000
(1663746264.743058) can0 726#05BCD50B2F009A35
(1663746264.752172) can0 72E#037FBC1100000000
(1663746264.753085) can0 726#7C283C044A2A2113
(1663746264.762422) can0 726#2D3A933730DA8500
(1663746264.772892) can0 726#8F7FE2248A4EEC65
(1663746264.782626) can0 726#E26E603C57C26157
(1663746264.792715) can0 726#C5488A7573C7E576
(1663746264.802834) can0 726#74FF3116DB610152
(1663746264.812941) can0 726#9FD4791F09A4E20C
(1663746264.823041) can0 726#0E1D88074C205A35
(1663746264.831979) can0 72E#037F1D1200000000
(1663746264.833221) can0 726#A435CA29B4D45033
(1663746264.843348) can0 726#FE71AB42FEB8E858
(1663746264.853438) can0 726#4077A47B43182E26
(1663746264.863540) can0 726#072D29321CE14412
(1663746264.872309) can0 72E#037F2D1100000000
(1663746264.873683) can0 726#A02E4B53E62B3275
(1663746264.883776) can0 726#8E43DF2BA58C3251
(1663746264.893910) can0 726#EEE5F77F93FFB437
(1663746264.903998) can0 726#D48CCC066A0E3404
(1663746264.918552) can0 726#DD29D64A01C75F3E
(1663746264.924206) can0 726#9AE8B9046DA9B86F
(1663746264.934313) can0 726#8B154C247D571A41
(1663746264.944416) can0 726#C46B1A47505ED619
(1663746264.956233) can0 726#F01E0038396B4C5D
(1663746264.966190) can0 726#2BC0D76B8FF37957
(1663746264.974713) can0 726#420F2F6A3ADD5F73
(1663746264.984818) can0 726#DB13D40CE744F913
(1663746264.994901) can0 726#EEB1B026D9857F4F
(1663746265.005236) can0 726#E5FDE16C2E295522
(1663746265.018159) can0 726#1D9EAD75EC2A0B1F
(1663746265.022196) can0 72E#300A140000000000
(1663746265.025986) can0 726#4A0A9A34BDCCF848
(1663746265.035346) can0 726#D2563D14D94D7960
(1663746265.045489) can0 726#62592B1AC13C3514
(1663746265.055585) can0 726#6C4D2E1836E6F720
(1663746265.066182) can0 726#2B4B69184A770463
(1663746265.072222) can0 72E#037FAD7200000000
(1663746265.076132) can0 726#37AD575FC633231D
(1663746265.085893) can0 726#B720BD52C2C2A303
(1663746265.095988) can0 726#438B3D5E7B8CD719
(1663746265.106271) can0 726#12217A1D33AA3D16
(1663746265.123178) can0 726#B4F723773EE15109
(1663746265.124159) can0 72E#300A140000000000
(1663746265.126324) can0 726#C29DB76DF7065361
(1663746265.136401) can0 726#78BEB17C9DB18B7A
(1663746265.146514) can0 726#DE4B4C7566706223
(1663746265.156618) can0 726#77370B4AC3492E62
(1663746265.166717) can0 726#9499B74594D5B83F
(1663746265.176823) can0 726#AF743901DFA3517A
(1663746265.186910) can0 726#51A2B10881CB7615
(1663746265.197019) can0 726#B8F1CA5AB4FBDC22
(1663746265.207231) can0 726#4208AC29243FF972
(1663746265.212866) can0 72E#037F7A7200000000
(1663746265.218568) can0 726#EAE1D4436E531542
(1663746265.227323) can0 726#6EB6FD55228F2C23
(1663746265.237425) can0 726#3487385F25D7BA28
(1663746265.247534) can0 726#E451D0267712763D
(1663746265.257611) can0 726#A1639242F7724A44
(1663746265.267722) can0 726#AABCB353555BB639
(1663746265.277903) can0 726#35549C4D6C5A6B41
(1663746265.288062) can0 726#4C62091BAD124E4A
(1663746265.298141) can0 726#090CF73B2AAE5510
(1663746265.302421) can0 72E#037F0C1200000000
(1663746265.308288) can0 726#1383B06D80430206
(1663746265.312993) can0 72E#300A140000000000
(1663746265.322485) can0 726#EDF78372A71C6833
(1663746265.328456) can0 726#1419BB459C6CBD73
(1663746265.338556) can0 726#86C0B92D66BB6C4E
(1663746265.348788) can0 726#1E3834093EB28408
(1663746265.352417) can0 72E#300A140000000000
(1663746265.358704) can0 726#1AB749716040E032
(1663746265.362506) can0 72E#300A140000000000
(1663746265.369191) can0 726#63F17D7B04991E35
(1663746265.378797) can0 726#CE93F574D1A77B51
(1663746265.388892) can0 726#26284B58021B2E54
(1663746265.392440) can0 72E#037F497200000000
(1663746265.398990) can0 726#F77E367A0B7A1B7F
(1663746265.409058) can0 726#792DA41198E2C83C
(1663746265.419136) can0 726#02ED654323EA5765
(1663746265.422706) can0 72E#037FED1100000000
(1663746265.429225) can0 726#ED3D7F7637410211
(1663746265.439301) can0 726#8F44C3263AA08811
(1663746265.449356) can0 726#E453505B9950BA62
(1663746265.459450) can0 726#644EDE21F7D60049
(1663746265.469504) can0 726#1994BC6852466214
(1663746265.472522) can0 72E#300A140000000000
(1663746265.479601) can0 726#9EF3687C2EAD772E
(1663746265.489678) can0 726#EEB21F0825B4222A
(1663746265.499743) can0 726#9468E47C0CEB5311
(1663746265.509812) can0 726#6366A732AE1F2E6E
(1663746265.519895) can0 726#6D2B3444C657252E
(1663746265.529954) can0 726#B2B84C233BBF2939
(1663746265.540053) can0 726#98FFA07FD9E0977B
(1663746265.550122) can0 726#3EDA570D8F7ED779
(1663746265.560208) can0 726#E45AB37AB707FC1E
(1663746265.562808) can0 72E#037FBC7200000000
(1663746265.570285) can0 726#2761A036E647193E
(1663746265.580365) can0 726#DBF15304149F1F2D
(1663746265.590416) can0 726#1D891B4F6A36172B
(1663746265.592629) can0 72E#300A140000000000
(1663746265.600527) can0 726#4E3FA83E01DD6B2A
(1663746265.610594) can0 726#0387D10DB38D8660
(1663746265.612875) can0 72E#037F871100000000
(1663746265.620659) can0 726#F8B36C731D1B8E76
(1663746265.630741) can0 726#05D4E87496A7D56F
(1663746265.632829) can0 72E#037FD41100000000
(1663746265.641327) can0 726#4BC80525F386087D
(1663746265.650903) can0 726#BB5BF819DF30EA21
(1663746265.661000) can0 726#00725C0E1FC29F4C
(1663746265.671077) can0 726#8D5018106D9D9052
(1663746265.681123) can0 726#E519C57A3F096533
(1663746265.691235) can0 726#A85CBA0B7D19667A
(1663746265.701308) can0 726#18EAFC2EE6361219
(1663746265.702725) can0 72E#300A140000000000
(1663746265.711406) can0 726#0C983D74FC44B029
(1663746265.712768) can0 72E#037F981200000000
(1663746265.721631) can0 726#9E3E0E3833F9DD2A
(1663746265.731532) can0 726#E28CC9677930623C
(1663746265.741697) can0 726#4898FD57FF15E536
(1663746265.751684) can0 726#E366796796D7A516
(1663746265.761788) can0 726#00F35061E7ED4A75
(1663746265.771841) can0 726#49652C77F8A6BD54
(1663746265.781921) can0 726#0409D96B4E39156C
(1663746265.792000) can0 726#8F4E93444FD1DE10
(1663746265.792985) can0 72E#037F091100000000
(1663746265.802077) can0 726#42C01D694AAA8B5E
(1663746265.812164) can0 726#2E02C93242327A77
(1663746265.822217) can0 726#696C2B2BBB52E142
(1663746265.832339) can0 726#AFCF0A4A4F86F025
(1663746265.842394) can0 726#FA5B4676572CC555
(1663746265.852466) can0 726#CC9F562013464325
(1663746265.862566) can0 726#3E63D76ED9379414
(1663746265.872625) can0 726#0F8BF34EDCA1E526
(1663746265.882715) can0 726#0C31723FF217BD36
(1663746265.883676) can0 72E#037F8B1200000000
(1663746265.892773) can0 726#55D2476354C96F17
(1663746265.893731) can0 72E#037F311200000000
(1663746265.902875) can0 726#F12DA26D3839C14A
(1663746265.913154) can0 726#EBA0152EF220F34E
(1663746265.923070) can0 726#1F270C4034064225
(1663746265.932960) can0 72E#300A140000000000
(1663746265.933863) can0 726#EAC7B0232330E52B
(1663746265.943206) can0 726#833F571179164468
(1663746265.953282) can0 726#7201C43CC5FF747A
(1663746265.963369) can0 726#C4C0CF46A0038D6F
(1663746265.973415) can0 726#0732EF712D2DFB71
(1663746265.983214) can0 72E#037F321200000000
(1663746265.984117) can0 726#5B566E32B601FA3B
(1663746265.993571) can0 726#7CB3EB1756B2B428
(1663746266.003659) can0 726#0D2EBF1149534238
(1663746266.012979) can0 72E#037F2E1200000000
(1663746266.013906) can0 726#69F8F74D4B919600
(1663746266.026015) can0 726#228BD64C7883EB1C
(1663746266.033899) can0 726#27337C272EBC480C
(1663746266.043972) can0 726#6A9BA8537C05C40A
(1663746266.054111) can0 726#8385B8235CC94A41
(1663746266.066189) can0 726#B53E85556E26CE51
(1663746266.074345) can0 726#4EEA3D10D4659115
(1663746266.084488) can0 726#A22C107738B2EE33
(1663746266.095207) can0 726#F8957641256C6708
(1663746266.106245) can0 726#B2C8321C6A973A7E
(1663746266.122693) can0 726#EA6BDC0276890263
(1663746266.124888) can0 726#0B9BC76DF19DCB74
(1663746266.135745) can0 726#A3B6FD5466F13520
(1663746266.145112) can0 726#A79FC530206AE96C
(1663746266.155198) can0 726#BCA3EA48B5CD8442
(1663746266.166158) can0 726#69BD2B25259CE216
(1663746266.175431) can0 726#005F1B438B480272
(1663746266.185528) can0 726#9E1FCE332892976A
(1663746266.195654) can0 726#B9044B7E08BB7607
(1663746266.206193) can0 726#A4975B753C8A0322
(1663746266.220061) can0 726#6484C14859D6E04A
(1663746266.225935) can0 726#AAB0D173B26EFF58
(1663746266.236044) can0 726#2E3C72604DDDE16A
(1663746266.246149) can0 726#EB20EE0C26D2E821
(1663746266.256256) can0 726#724949739DE92029
(1663746266.266410) can0 726#906923205DB52576
(1663746266.276470) can0 726#1373230C9B04EB0D
(1663746266.283380) can0 72E#300A140000000000
(1663746266.286564) can0 726#4E53F16AB6292161
(1663746266.296689) can0 726#02F6202EF6F2B61B
(1663746266.303514) can0 72E#037FF61100000000
(1663746266.306785) can0 726#D6930A4EBE990B77
(1663746266.318044) can0 726#ABC03B5E3F513673
(1663746266.326993) can0 726#E435EE0DAB1F5721
(1663746266.337095) can0 726#CA9938658255BC41
(1663746266.347205) can0 726#D3B1EE0B849E8363
(1663746266.357314) can0 726#8A10334978494A01
(1663746266.368245) can0 726#C0288705EF94F411
(1663746266.377508) can0 726#D11F2B4C6BD95879
(1663746266.387622) can0 726#A103F46AFF5B9D2C
(1663746266.397691) can0 726#B8B63A648C24E277
(1663746266.407809) can0 726#252E864E2A008457
(1663746266.417935) can0 726#290E0321B697A96E
(1663746266.428043) can0 726#87B5A94D3C81262D
(1663746266.438151) can0 726#519C947CD6089B38
(1663746266.448231) can0 726#F3AA470E5392B52A
(1663746266.458347) can0 726#CCFB5154C93E525C
(1663746266.468439) can0 726#122CC12177BC8D32
(1663746266.473484) can0 72E#300A140000000000
(1663746266.478557) can0 726#0990884FF661AF2F
(1663746266.483533) can0 72E#037F901200000000
(1663746266.488658) can0 726#22DCE453D329C134
(1663746266.498796) can0 726#78B76B71F68DD35F
(1663746266.508930) can0 726#57C8441802C89E3A
(1663746266.521808) can0 726#6ED71D6118F1CB1D
(1663746266.529102) can0 726#F15C934C3FF7482D
(1663746266.539219) can0 726#83CA241793608737
(1663746266.549332) can0 726#3F53E6593B815F7B
(1663746266.559450) can0 726#1F85692F64816C28
(1663746266.563570) can0 72E#300A140000000000
(1663746266.569519) can0 726#6581E35249936C50
(1663746266.579629) can0 726#1A191617ED368D20
(1663746266.583590) can0 72E#300A140000000000
(1663746266.589728) can0 726#8514937D6CB5AA13
(1663746266.599844) can0 726#C33F285978BFDA0B
(1663746266.609980) can0 726#BF47603E8F3B7A2D
(1663746266.620048) can0 726#42FE2C68D1732160
(1663746266.630170) can0 726#06F807604B8EB537
(1663746266.633810) can0 72E#037FF81100000000
(1663746266.640255) can0 726#C7D5D00F28D4EC33
(1663746266.650375) can0 726#1EB8766C3F8D3C01
(1663746266.653674) can0 72E#300A140000000000
(1663746266.660526) can0 726#1E62C0137680BB04
(1663746266.664242) can0 72E#300A140000000000
(1663746266.670602) can0 726#4255DB3B8C39DE74
(1663746266.680715) can0 726#8E71872233B26E08
(1663746266.690818) can0 726#CC302722113CAC39
(1663746266.700943) can0 726#C612F63F0B840D7C
(1663746266.711039) can0 726#4CBD0B35E6975F6F
(1663746266.721156) can0 726#6F057A24B13EEF07
(1663746266.731248) can0 726#2F2BCC3F8A1E903B
(1663746266.733737) can0 72E#037FC07200000000
(1663746266.741798) can0 726#9E757C28B43F5F3D
(1663746266.751450) can0 726#F6D33A4F61B5A401
(1663746266.761589) can0 726#2DFF3949B51B9B0D
(1663746266.771684) can0 726#F0F01E2F6FFD6631
(1663746266.781795) can0 726#878FBC6DF6E8260F
(1663746266.791878) can0 726#BA8B1C694E658D7D
(1663746266.801984) can0 726#1FBD1343D8439355
(1663746266.803839) can0 72E#300A140000000000
(1663746266.812098) can0 726#8EF2C97E3D1FD456
(1663746266.822197) can0 726#4EC44E5AD047A53A
(1663746266.832288) can0 726#CA58B24BDC35D67C
(1663746266.842408) can0 726#03FA13439689D96D
(1663746266.844002) can0 72E#037FFA1100000000
(1663746266.852535) can0 726#ED718236CA0C0A03
(1663746266.862631) can0 726#A10DE769392F8E6B
(1663746266.872720) can0 726#B0A469721013610E
(1663746266.882837) can0 726#EB6D7D73DFCF3532
(1663746266.892939) can0 726#9A31F14989E3F91B
(1663746266.903069) can0 726#930F956F90052C19
(1663746266.913155) can0 726#EB989E1DC00ECF38
(1663746266.923263) can0 726#4621C726DB89BD4C
(1663746266.933382) can0 726#2F0C366ACDB08314
(1663746266.943462) can0 726#D272E45BE9975253
(1663746266.953584) can0 726#1B161112F12FF81E
(1663746266.963675) can0 726#C2DBE528A908DB10
(1663746266.973802) can0 726#2E4FCC7510A03403
(1663746266.983892) can0 726#7950804BF8A77E41
(1663746266.993994) can0 726#EDD50A007D4A940E
(1663746267.004080) can0 726#8E31582FDA478D36
(1663746267.014192) can0 726#47579E112F3F3F19
(1663746267.026919) can0 726#14771B22F7FB0704
(1663746267.034120) can0 72E#300A140000000000
(1663746267.035035) can0 726#4052A027FFE49815
(1663746267.044514) can0 726#D6CB3D36DA839171
(1663746267.055196) can0 726#88C8923169DBD225
(1663746267.066165) can0 726#6B89BD0A7361314F
(1663746267.074807) can0 726#2AEAA15EB1AA8431
(1663746267.084039) can0 72E#037F1B7200000000
(1663746267.085886) can0 726#4FEBEE1B59F6D748
(1663746267.095027) can0 726#7E5B0846215ED377
(1663746267.106219) can0 726#438E2A1C99711958
(1663746267.124848) can0 726#128ECB16056A1045
(1663746267.126704) can0 726#437AF46840DD970C
(1663746267.134108) can0 72E#300A140000000000
(1663746267.135495) can0 726#150A4548BCCA7434
(1663746267.144148) can0 72E#300A140000000000
(1663746267.145753) can0 726#3985164E02E04F48
(1663746267.155975) can0 726#39150943C7B66E7D
(1663746267.166194) can0 726#DD27DD7E806CA754
(1663746267.177237) can0 726#F7F5AD16F19EF820
(1663746267.186677) can0 726#7768AF5837484E3E
(1663746267.196908) can0 726#F08391364D34ED0E
(1663746267.207234) can0 726#11CCDF2F784C2468
(1663746267.214153) can0 72E#300A140000000000
(1663746267.218996) can0 726#B70FC0347C559D3A
(1663746267.227588) can0 726#ECAD5537E1F96113
(1663746267.237801) can0 726#2D00226C3B994453
(1663746267.244156) can0 72E#037FDF7200000000
(1663746267.248028) can0 726#3AF0395CAB5B2A32
(1663746267.258258) can0 726#5CF7174B7D7E6478
(1663746267.268453) can0 726#45CD430A6E85E361
(1663746267.278741) can0 726#82E8743D88473873
(1663746267.289025) can0 726#AE627B6E98F2B905
(1663746267.299240) can0 726#4412AD27E7E7913C
(1663746267.309433) can0 726#9AD2094E7E27B66A
(1663746267.320095) can0 726#AF9E003A77FAE64C
(1663746267.329886) can0 726#FE935D3FA694AE50
(1663746267.340153) can0 726#6899DF6D76FC0C18
(1663746267.350376) can0 726#DDDCFC0E581D7124
(1663746267.360572) can0 726#C330FA26EEA8DC3E
(1663746267.370798) can0 726#D169950C7A40BA5B
(1663746267.381022) can0 726#6BFE7979BD17EB43
(1663746267.391258) can0 726#5B3A1C6F98FE9B65
(1663746267.401473) can0 726#F8B02F17962A564B
(1663746267.411693) can0 726#445AC61754A84762
(1663746267.422079) can0 726#13A9BA4389270A22
(1663746267.424338) can0 72E#300A140000000000
(1663746267.432326) can0 726#C22D2B4496912F01
(1663746267.442546) can0 726#116F42157090A632
(1663746267.444384) can0 72E#300A140000000000
(1663746267.452774) can0 726#2E84E9065581EF3C
(1663746267.454453) can0 72E#037F427200000000
(1663746267.463000) can0 726#5878386FC856F354
(1663746267.473204) can0 726#D3A8A52707173929
(1663746267.483442) can0 726#4051DA21D23C0367
(1663746267.493665) can0 726#ADABE779A8EAB90F
(1663746267.503920) can0 726#4839107F8A88E408
(1663746267.514137) can0 726#01082B340B6A0A26
(1663746267.524359) can0 726#7831C147D271C040
(1663746267.535213) can0 726#86AAC401E32F3B41
(1663746267.544799) can0 726#8F89AB04E1E4E070
(1663746267.555030) can0 726#7C2ED726873ADB1B
(1663746267.567129) can0 726#770F373CC0889D3E
(1663746267.575475) can0 726#DBE2227E8BB8F17F
(1663746267.585699) can0 726#49B0A7609D104E42
(1663746267.595919) can0 726#214A21015A1FEA75
(1663746267.606157) can0 726#0DA1F4744FCE0A08
(1663746267.618152) can0 726#AFA0D93265192D64
(1663746267.620115) can0 72E#037FA11200000000
(1663746267.626732) can0 726#1725FE5C83497F5A
(1663746267.634530) can0 72E#300A140000000000
(1663746267.636990) can0 726#6C30660D5776D87E
(1663746267.647184) can0 726#5586824119DC4D07
(1663746267.657421) can0 726#0061920E9DBF9240
(1663746267.667618) can0 726#A36432100169BD42
(1663746267.677828) can0 726#A8299D661C96F357
(1663746267.688068) can0 726#D3DA7D032ED46168
(1663746267.698409) can0 726#FFC52E1962642908
(1663746267.709015) can0 726#10B942597BF40540
(1663746267.721855) can0 726#E99E042487C87915
(1663746267.723842) can0 72E#300A140000000000
(1663746267.729842) can0 726#3B7DA37EC4812722
(1663746267.739283) can0 726#12816B15842D4B5F
(1663746267.744617) can0 72E#300A140000000000
(1663746267.749376) can0 726#6192756433CB8C16
(1663746267.759467) can0 726#DE4C35556E336A59
(1663746267.769571) can0 726#8299971E8EED0E08
(1663746267.779668) can0 726#D44C973D9ABE957B
(1663746267.789796) can0 726#11378E62407DFD4A
(1663746267.794675) can0 72E#300A140000000000
(1663746267.799881) can0 726#F1346E7A66BD1024
(1663746267.809996) can0 726#5A594B52F1950009
(1663746267.820097) can0 726#037DA364FDBD7D62
(1663746267.824934) can0 72E#037F7D1100000000
(1663746267.830196) can0 726#F2FEBD4BABA6404B
(1663746267.840294) can0 726#1954713AC5D93B4F
(1663746267.844716) can0 72E#300A140000000000
(1663746267.850411) can0 726#DA7AA233191AA053
(1663746267.860524) can0 726#273E6557EA33E50C
(1663746267.866245) can0 72E#037F717200000000
(1663746267.871171) can0 726#940EA61310DD697B
(1663746267.880722) can0 726#71FC5E22D08B4912
(1663746267.890817) can0 726#D45E911D847DCA37
(1663746267.900942) can0 726#54B9947135F10602
(1663746267.911028) can0 726#B748574E3306CA46
(1663746267.921123) can0 726#A424715B3AE2EE6C
(1663746267.931281) can0 726#C1F3D84E78710819
(1663746267.941363) can0 726#D4A08468D22A6731
(1663746267.951464) can0 726#B8EE0564C5D5F262
(1663746267.961550) can0 726#38E8775512485136
(1663746267.971663) can0 726#B76BF36B3B651B3A
(1663746267.981785) can0 726#1006CF18A96AB137
(1663746267.984803) can0 72E#037FCF7500000000
(1663746267.991887) can0 726#E60B5C05295A4053
(1663746268.001988) can0 726#6F44ED06C086FE38
(1663746268.012081) can0 726#4274E0269682525E
(1663746268.022173) can0 726#AABAE345D782863A
(1663746268.032274) can0 726#A75FBC591CB74268
(1663746268.042531) can0 726#A70ED04C7BBE4D77
(1663746268.052640) can0 726#A0340D20FBC7643E
(1663746268.062720) can0 726#B1AF5479577D646E
(1663746268.072837) can0 726#2ECE2E0555D4C554
(1663746268.082973) can0 726#915F535BEFC10754
(1663746268.093030) can0 726#CD45CE6D6500D843
(1663746268.103148) can0 726#C1EC6E058534D451
(1663746268.113242) can0 726#2BD6CA26F9D4E65A
(1663746268.123950) can0 726#987C2508E241BE12
(1663746268.133464) can0 726#343A0215A882F420
(1663746268.143543) can0 726#8BAC6F4A1B465E1A
(1663746268.153654) can0 726#D1DC3474FAF05C51
(1663746268.163750) can0 726#DBCC5C531451151B
(1663746268.173869) can0 726#9173AF2F86874019
(1663746268.183943) can0 726#EBD39B5538D36B09
(1663746268.194087) can0 726#A23E830192E26B22
(1663746268.204181) can0 726#B391B90042739021
(1663746268.217142) can0 726#8DAAD06064410E7A
(1663746268.225242) can0 726#99F0F40FBC78FF65
(1663746268.234466) can0 726#B915D44E2B50486B
(1663746268.244567) can0 726#AB3A073A865BA23C
(1663746268.255214) can0 726#9050202F6D27763F
(1663746268.266158) can0 726#0C90760EBB26EB55
(1663746268.274900) can0 726#66FC5C1AA40C9C16
(1663746268.276818) can0 72E#037F901200000000
(1663746268.285003) can0 726#9D68A9689B365F2F
(1663746268.295089) can0 726#4C8F903729151933
(1663746268.306257) can0 726#B67CBD491D6CC52B
(1663746268.319041) can0 726#2306760491491A1D
(1663746268.325384) can0 726#31BDDA46B4792534
(1663746268.335498) can0 726#17D15A361C91761C
(1663746268.345154) can0 72E#300A140000000000
(1663746268.346053) can0 726#EC4C913DB90FDE37
(1663746268.355732) can0 726#AE73E23EA0DE4A3E
(1663746268.366165) can0 726#FB826E593C1EB31F
(1663746268.375897) can0 726#0420593895736369
(1663746268.385417) can0 72E#037F201100000000
(1663746268.386334) can0 726#F896B205BE352D07
(1663746268.396133) can0 726#C0C3AB54A3D1B93F
(1663746268.406220) can0 726#4491CF435014CC03
(1663746268.416401) can0 726#10F92F7F50214652
(1663746268.425249) can0 72E#300A140000000000
(1663746268.426839) can0 726#0C3BB75977F58C19
(1663746268.437067) can0 726#F42DE268A9A36042
(1663746268.438045) can0 72E#037F3B1200000000
(1663746268.447043) can0 726#122CEC4840BD7220
(1663746268.455693) can0 72E#300A140000000000
(1663746268.457563) can0 726#D2B87975C8A8A912
(1663746268.467254) can0 726#5E29384CF6BEEF79
(1663746268.477373) can0 726#59F2C32F8FE61213
(1663746268.487452) can0 726#AA38152E71C31E66
(1663746268.497566) can0 726#AC77892F9785A66B
(1663746268.507672) can0 726#2AD3FC1D5AEB6B6E
(1663746268.517147) can0 72E#037FEC7200000000
(1663746268.519027) can0 726#3764F12926566B77
(1663746268.528320) can0 726#96091F0E3B844A62
(1663746268.537970) can0 726#BBC9CE608EA0D113
(1663746268.548087) can0 726#F9B977697B8D7A35
(1663746268.558184) can0 726#32728B533E4B472D
(1663746268.568283) can0 726#CBA14639426BBB52
(1663746268.578428) can0 726#8E6C8D7FD7DCFD12
(1663746268.588508) can0 726#B960486C839A6F68
(1663746268.598600) can0 726#81805E55CB8C3435
(1663746268.608703) can0 726#C357E2085339D84A
(1663746268.620063) can0 726#9335DE4721811A55
(1663746268.628930) can0 726#49F8C744ED27A277
(1663746268.639008) can0 726#B1672D68F430DD72
(1663746268.649121) can0 726#5EEBC05D5DDFB617
(1663746268.659223) can0 726#8BB6835E88BEBD7B
(1663746268.669347) can0 726#B7CA2206C21A7508
(1663746268.679424) can0 726#AE1429734ED44114
(1663746268.689540) can0 726#FD9EBF6A69DEF753
(1663746268.699642) can0 726#DC741328F7583754
(1663746268.709740) can0 726#E46B72090EE79E7B
(1663746268.720668) can0 726#35A47E01B00DB942
(1663746268.730643) can0 726#51525A4EC3100C01
(1663746268.740026) can0 726#87EAB6550AB3A23A
(1663746268.750131) can0 726#46AB7B69086B152B
(1663746268.760250) can0 726#D63FD76F0A035E72
(1663746268.770351) can0 726#5CA4ED756975B537
(1663746268.780461) can0 726#2B847847A59CB53A
(1663746268.790582) can0 726#569D572FDCEBA52F
(1663746268.800675) can0 726#99CD922DB488180D
(1663746268.810794) can0 726#39CB5C472484160C
(1663746268.820920) can0 726#3D47D608F1957F4D
(1663746268.830991) can0 726#E69E8B14EB5BFF7B
(1663746268.841120) can0 726#3F6AC161E43D4B7F
(1663746268.851208) can0 726#553AF74F1BDFD409
(1663746268.861308) can0 726#DB96825339A66959
(1663746268.871442) can0 726#2AC67305103B0155
(1663746268.881507) can0 726#E9B3221C7B18CE53
(1663746268.891617) can0 726#D34B0D56719ED971
(1663746268.901745) can0 726#85CB700E1AF7883F
(1663746268.911839) can0 726#7909EF1C5B0B487E
(1663746268.922872) can0 726#24FAE631D5ADDC12
(1663746268.932109) can0 726#C580FD354F7E5F79
(1663746268.942190) can0 726#7B4A924D1B1E5565
(1663746268.952325) can0 726#2C6A05291418257B
(1663746268.962394) can0 726#D0A66D7265356270
(1663746268.972505) can0 726#399C3B070DEE437B
(1663746268.982617) can0 726#56CBE13D1F3BC71B
(1663746268.992710) can0 726#F84943779535A31F
(1663746269.002800) can0 726#0379121B4D843A47
(1663746269.005958) can0 72E#037F791100000000
(1663746269.012949) can0 726#B1147829DE0F956E
(1663746269.023037) can0 726#872AA420DBDAEB2E
(1663746269.033127) can0 726#EE4A964370DEC63C
(1663746269.043241) can0 726#56F3B902C296A319
(1663746269.053360) can0 726#E17CA02EDBBE2A11
(1663746269.063455) can0 726#DC8D2C595B868F4B
(1663746269.073601) can0 726#37CA720F0088130B
(1663746269.083695) can0 726#30346C5EFC4A7045
(1663746269.093788) can0 726#4F067304AB7EFE2B
(1663746269.103893) can0 726#1769C52A7B70782D
(1663746269.106857) can0 72E#300A140000000000
(1663746269.113988) can0 726#C0962327E70F331D
(1663746269.125511) can0 726#E1A5DA1DF9325F2E
(1663746269.134194) can0 726#F4FD76183771BC5B
(1663746269.144298) can0 726#186E264AED47BA0F
(1663746269.145877) can0 72E#300A140000000000
(1663746269.156099) can0 726#CDA65F7B1CE73865
(1663746269.166133) can0 726#3ACCF4567EBBD724
(1663746269.174637) can0 726#FAF6CD53C1F69877
(1663746269.184749) can0 726#5996C353E9416417
(1663746269.194840) can0 726#32D55F34AF897D56
(1663746269.206197) can0 726#ABD8073113520063
(1663746269.218104) can0 726#8A48A8678766340A
(1663746269.225954) can0 726#6ED88F2EC1121B77
(1663746269.235275) can0 726#87EE47159F0CFC0C
(1663746269.236238) can0 72E#037F267200000000
(1663746269.245335) can0 726#BD5D8B3CD6F4BA19
(1663746269.255463) can0 726#4A8BFA38D5C65067
(1663746269.266109) can0 726#526533470A221E60
(1663746269.275668) can0 726#BCD68304330B0E65
(1663746269.285786) can0 726#03557D0EB1D4FA1C
(1663746269.295899) can0 726#6A7CCA401CC3A358
(1663746269.296871) can0 72E#037F551100000000
(1663746269.307157) can0 726#9E1CB52C37232A3C
(1663746269.316108) can0 726#38AADC3DD8E8A903
(1663746269.326182) can0 726#B5DE016132A1AA11
(1663746269.336292) can0 726#9ADF427B0E75C534
(1663746269.346405) can0 726#1BE30E29CCB4A22F
(1663746269.356064) can0 72E#300A140000000000
(1663746269.356956) can0 726#BDFE420BC6BB165A
(1663746269.367156) can0 726#DF06A3124847EB72
(1663746269.376749) can0 726#4D224B644EDF3241
(1663746269.386853) can0 726#095A066AD4109379
(1663746269.396150) can0 72E#037F5A1200000000
(1663746269.397034) can0 726#EDEB2E4EC7B79126
(1663746269.407063) can0 726#AB054E1337772907
(1663746269.417172) can0 726#9C7EE20DFD6A815A
(1663746269.427276) can0 726#4299476758556612
(1663746269.437389) can0 726#30768F3F45EEC475
(1663746269.447498) can0 726#092A612F9AF25900
(1663746269.456225) can0 72E#037F2A1200000000
(1663746269.458116) can0 726#61B1684EA746165C
(1663746269.467666) can0 726#D215843C995B450C
(1663746269.477828) can0 726#802FC05F87F4851D
(1663746269.487907) can0 726#CCFCEF1D1A0F035B
(1663746269.498002) can0 726#96694B52E7DFFE46
(1663746269.508072) can0 726#E6C3A50A53688E5D
(1663746269.519104) can0 726#AE9B1521C5CA481D
(1663746269.529208) can0 726#9BAF7950FBBD6005
(1663746269.538402) can0 726#13AA7B5EA509803A
(1663746269.546248) can0 72E#300A140000000000
(1663746269.548551) can0 726#D0CEF37E0096AA2C
(1663746269.558618) can0 726#6CC111617BD44112
(1663746269.568734) can0 726#380DD4330840F46E
(1663746269.578828) can0 726#783FC36C7AA61B1B
(1663746269.588949) can0 726#60955A01A8B5522C
(1663746269.599054) can0 726#BF94E0106ABFBB30
(1663746269.609135) can0 726#42A8AC2C2146495F
(1663746269.619385) can0 726#1106D20C14BE3069
(1663746269.626308) can0 72E#300A140000000000
(1663746269.629342) can0 726#BAA18E6B9135926C
(1663746269.639458) can0 726#9CB2B606869E7E09
(1663746269.649544) can0 726#AB449547321C0259
(1663746269.659666) can0 726#6E7E7D5091083B52
(1663746269.669742) can0 726#858490361C1A9371
(1663746269.679878) can0 726#57D3836F21340A07
(1663746269.689992) can0 726#17D8F3766A7DFF4D
(1663746269.696375) can0 72E#300A140000000000
(1663746269.700071) can0 726#C63D8A41E7A6E775
(1663746269.710152) can0 726#6B13AA7A32FF9B22
(1663746269.720394) can0 726#627B2908A3207E2E
(1663746269.730537) can0 726#3A3F9011DABAEC74
(1663746269.740484) can0 726#1DC799499AD4EA12
(1663746269.746406) can0 72E#300A140000000000
(1663746269.750597) can0 726#82703F21DC5B7A5A
(1663746269.760679) can0 726#0494A643C518EC4D
(1663746269.766600) can0 72E#037F941100000000
(1663746269.770801) can0 726#FDA1C339169A7850
(1663746269.780901) can0 726#D9D61C37B8435225
(1663746269.791016) can0 726#A7CF0A3D7589D33D
(1663746269.801143) can0 726#3EE2D02E5314A004
(1663746269.811227) can0 726#A7A5D516AC604E7F
(1663746269.821319) can0 726#E41CDB562D2A664D
(1663746269.831442) can0 726#C87AE1703BF05E46
(1663746269.841538) can0 726#4E5E7054E052D567
(1663746269.851634) can0 726#A66D5E14149CFA15
(1663746269.861753) can0 726#C7F9BC5D1181080F
(1663746269.871840) can0 726#469B96382A75E665
(1663746269.881959) can0 726#B4A1863D80DA264A
(1663746269.892074) can0 726#0430D35AD1682007
(1663746269.896725) can0 72E#037F301100000000
(1663746269.902178) can0 726#1AAF115D87A0127C
(1663746269.906621) can0 72E#300A140000000000
(1663746269.912264) can0 726#ADC49A611F43B820
(1663746269.922582) can0 726#4CB9FE49AB665E1B
(1663746269.932512) can0 726#35DD307125901B01
(1663746269.942590) can0 726#63AAB040DCAC3B2E
(1663746269.952695) can0 726#9B19EF3EA18C816F
(1663746269.962804) can0 726#2FC1DB3242BFC455
(1663746269.967164) can0 72E#037F117200000000
(1663746269.972884) can0 726#4EEDCF6E14DEB609
(1663746269.983005) can0 726#6FE92A231668B15F
(1663746269.993090) can0 726#4FCE1550BD479B77
(1663746270.003203) can0 726#F6BA8647F53B7464
(1663746270.013320) can0 726#D1E3950DBEB44325
(1663746270.023415) can0 726#06BD7C73177F2C46
(1663746270.029628) can0 72E#037FBD1100000000
(1663746270.033532) can0 726#E8292A0BBA5E0331
(1663746270.043613) can0 726#97595310EC59FD65
(1663746270.053724) can0 726#8BC72338B208656D
(1663746270.063846) can0 726#73FA0F62398CBE19
(1663746270.073917) can0 726#D14B1D0EBFB30E2C
(1663746270.084047) can0 726#E4F21C3506294E7F
(1663746270.094142) can0 726#E5432A2D479DCD75
(1663746270.106175) can0 726#E2D5892D805D196C
(1663746270.125779) can0 726#E8294F6512976560
(1663746270.127617) can0 726#C21CDE4136171F54
(1663746270.134562) can0 726#26751C6A32060965
(1663746270.144666) can0 726#4D7FD0337543323A
(1663746270.154770) can0 726#EF4DA45C433A577B
(1663746270.166174) can0 726#6B7FA61EC1313A6A
(1663746270.175228) can0 726#01EF9A20713C2312
(1663746270.185087) can0 726#D8B06630E918C52B
(1663746270.195198) can0 726#2C9B2643700ABA40
(1663746270.206169) can0 726#D672C211B7624A7B
(1663746270.217110) can0 726#22131F2E496DD273
(1663746270.225481) can0 726#F0EE0815F35E3C3C
(1663746270.235576) can0 726#0921E11FD4E1254A
(1663746270.236813) can0 72E#037F211200000000
(1663746270.245691) can0 726#F9878A3BEE640B4D
(1663746270.255810) can0 726#1B7FF33FDB5D1469
(1663746270.256901) can0 72E#300A140000000000
(1663746270.266118) can0 726#6EC2243904A94225
(1663746270.276005) can0 726#EDF4794930DF027B
(1663746270.286121) can0 726#3AC06179136A9633
(1663746270.296200) can0 726#62E50B60873F322D
(1663746270.306414) can0 726#89ADC86D5233B03C
(1663746270.316388) can0 726#CB798928F42C6F0C
(1663746270.326503) can0 726#1365EA26CC682449
(1663746270.336582) can0 726#6569921EEB155157
(1663746270.337567) can0 72E#300A140000000000
(1663746270.346715) can0 726#B681E9749104B961
(1663746270.356815) can0 726#5B200B188CF4AB06
(1663746270.367149) can0 726#4967035D7D332A46
(1663746270.377017) can0 726#D5617E7A39560C72
(1663746270.387142) can0 726#70926602DE825F1A
(1663746270.397243) can0 726#0E38323C691AF13D
(1663746270.406972) can0 72E#037F381200000000
(1663746270.407856) can0 726#CCE76A6729B7257C
(1663746270.417437) can0 726#457805273AAA8F20
(1663746270.427583) can0 726#2D606821326D7F70
(1663746270.437690) can0 726#6B89921B6820CA1A
(1663746270.447750) can0 726#46D71524CD6E9E7B
(1663746270.457885) can0 726#EF5FFC47CF84DE11
(1663746270.467975) can0 726#1FA24E38BAD98570
(1663746270.477063) can0 72E#300A140000000000
(1663746270.478242) can0 726#C3B14D1E3207395F
(1663746270.488199) can0 726#8742AA39281BE03C
(1663746270.498250) can0 726#1E1D8A363DC4932E
(1663746270.507092) can0 72E#300A140000000000
(1663746270.508370) can0 726#BA1F991E793D954E
(1663746270.518477) can0 726#C9B83F3503879C7B
(1663746270.530093) can0 726#F770BF149E1ABE2F
(1663746270.538677) can0 726#3CDDA86D67032617
(1663746270.548776) can0 726#7D9D1D4A4A15DB29
(1663746270.558870) can0 726#D11D175549858831
(1663746270.569028) can0 726#74CC002616961C7C
(1663746270.579063) can0 726#842F1852A12C6947
(1663746270.589205) can0 726#48039C6CEFB8AA6D
(1663746270.597316) can0 72E#037F8A7200000000
(1663746270.599348) can0 726#094D33628EDAB110
(1663746270.607208) can0 72E#037F4D1200000000
(1663746270.609420) can0 726#BC274969F9AC2F2A
(1663746270.619497) can0 726#5D5F9022DCC99721
(1663746270.629603) can0 726#B386B51A2011DE40
(1663746270.639717) can0 726#0ED1D0003AC95F54
(1663746270.647184) can0 72E#037FD11200000000
(1663746270.649818) can0 726#492CBE7D2CEE5A37
(1663746270.659949) can0 726#778DF302034C571C
(1663746270.670043) can0 726#A62BF00540463338
(1663746270.680141) can0 726#06D3F3179D9CAF1A
(1663746270.687415) can0 72E#037FD31100000000
(1663746270.690274) can0 726#DF60F16742B09C05
(1663746270.700371) can0 726#04A0D5315CFE0E32
(1663746270.708237) can0 72E#037FA01100000000
(1663746270.710497) can0 726#8DC5772FD5BDEC06
(1663746270.720778) can0 726#A583976301927855
(1663746270.730889) can0 726#EB53090329B3AF35
(1663746270.740769) can0 726#A2BEE11C3457A56F
(1663746270.750889) can0 726#186C5A23AC0B157F
(1663746270.757314) can0 72E#300A140000000000
(1663746270.760978) can0 726#C2315700D593A30C
(1663746270.771085) can0 726#A5B844292091E722
(1663746270.781195) can0 726#B15D3B2E583FFA43
(1663746270.791318) can0 726#40A2C563BF2E0C2F
(1663746270.801398) can0 726#93085A1889CE8361
(1663746270.811511) can0 726#EC1C67660A964D1B
(1663746270.821605) can0 726#8C1ADB7D9248576C
(1663746270.831712) can0 726#4BDC805392EDCE15
(1663746270.841827) can0 726#2FE506072A3D723B
(1663746270.847377) can0 72E#037F5A7200000000
(1663746270.851909) can0 726#D59D6B1B3385DC38
(1663746270.862028) can0 726#863B816D6263E34A
(1663746270.872131) can0 726#0943C93F2BBF1851
(1663746270.877393) can0 72E#037F431200000000
(1663746270.882246) can0 726#63F55B20F496D242
(1663746270.892350) can0 726#5572C80605B43D3D
(1663746270.902432) can0 726#28EE77326DDE222A
(1663746270.912549) can0 726#B1BF523CEB1FCF32
(1663746270.922694) can0 726#4272C63656789765
(1663746270.932791) can0 726#0BB1B655F3CF0165
(1663746270.937449) can0 72E#037FB11200000000
(1663746270.942879) can0 726#AFB791294B537C39
(1663746270.952981) can0 726#B3FE0D1442C0EB41
(1663746270.963080) can0 726#D521001B9F1B757A
(1663746270.973158) can0 726#4C56395D613CDB18
(1663746270.983264) can0 726#3164CC669732BA30
(1663746270.993363) can0 726#F429AA2E6049D36D
(1663746271.003462) can0 726#C16F2C6CC9C7154A
(1663746271.013549) can0 726#93CEAF2647ABAD59
(1663746271.023680) can0 726#2B2BF9149C117966
(1663746271.033764) can0 726#736AC62A8E205535
(1663746271.043866) can0 726#91A84B29C8DC8E31
(1663746271.053968) can0 726#93D49272B996C35B
(1663746271.064086) can0 726#35BBB15B4594E52E
(1663746271.075176) can0 726#A4B6920E782D7812
(1663746271.085110) can0 726#9B0C7D14AF674964
(1663746271.094418) can0 726#6BFD79774AC40E3E
(1663746271.106164) can0 726#FBBAC51D1EFC870B
(1663746271.118081) can0 726#8C84FA7FD0DCC538
(1663746271.124688) can0 726#BD17FD05D9DA335D
(1663746271.135153) can0 726#3119A151EE7BC96C
(1663746271.144918) can0 726#700DEE0D25434B00
(1663746271.155005) can0 726#4EC59C5A327D1A7A
(1663746271.166127) can0 726#EE0A614AE2934C01
(1663746271.175218) can0 726#7928C85319365A5F
(1663746271.185330) can0 726#7EA5C567EC928E7E
(1663746271.195431) can0 726#A756AF140F4E1111
(1663746271.208169) can0 726#B46F1D303B2B4207
(1663746271.216087) can0 726#C9E4D46CEA2ACF0B
(1663746271.225722) can0 726#80BF27366D9B677B
(1663746271.235815) can0 726#6258471E1BCCA44A
(1663746271.245938) can0 726#1D03B15FCD55C115
(1663746271.247760) can0 72E#300A140000000000
(1663746271.256048) can0 726#6690B30818BE767D
(1663746271.267113) can0 726#EC514921F214AE08
(1663746271.276237) can0 726#E89A3C36A9694627
(1663746271.286347) can0 726#CBEFE16519B4DD07
(1663746271.296428) can0 726#98E50F143CFDCF73
(1663746271.306536) can0 726#3FF72808E6AAAC6E
(1663746271.318045) can0 726#6E7AEA6D2D028A52
(1663746271.326742) can0 726#C83EF96FE7A2B241
(1663746271.336838) can0 726#4738E43147E4BE57
(1663746271.337897) can0 72E#037FB17200000000
(1663746271.346942) can0 726#D4354140EE8E9346
(1663746271.357019) can0 726#5632D06888A55E70
(1663746271.367154) can0 726#29BAD54D1F17A555
(1663746271.377235) can0 726#72D02D7CA979FD03
(1663746271.387317) can0 726#8DB20C51D428751A
(1663746271.397429) can0 726#C545A24EAAB5BD30
(1663746271.407557) can0 726#A27E36302BD65557
(1663746271.417629) can0 726#C273342E8ED07F51
(1663746271.427794) can0 726#1DEB0360AA0E7164
(1663746271.437842) can0 726#373AC678E9DAE545
(1663746271.438827) can0 72E#300A140000000000
(1663746271.447959) can0 726#C3C24E6CCF1FD60C
(1663746271.458055) can0 726#25D8B53902BA7774
(1663746271.467928) can0 72E#037F037200000000
(1663746271.468832) can0 726#B6CA827B9352A027
(1663746271.478283) can0 726#30BC01477E097C6B
(1663746271.488344) can0 726#7AF5526977F4E578
(1663746271.498441) can0 726#C5ED3A434E2B9429
(1663746271.508562) can0 726#6583793F1C200B2C
(1663746271.518646) can0 726#D7D0F2198F3D4F0D
(1663746271.530958) can0 726#3B37B00149A12016
(1663746271.538867) can0 726#38B74C11C8E9BC52
(1663746271.549033) can0 726#1ECA9530FDFCEE5F
(1663746271.558036) can0 72E#300A140000000000
(1663746271.559232) can0 726#729F7A03C048CC60
(1663746271.569176) can0 726#28D344373413AF31
(1663746271.578041) can0 72E#037F957200000000
(1663746271.579319) can0 726#4E194C3246BE4817
(1663746271.589413) can0 726#DE2120168553122B
(1663746271.599557) can0 726#2F992E5DA2E46E02
(1663746271.609642) can0 726#5573E8375471E416
(1663746271.620053) can0 726#A49EE6760B3E6B33
(1663746271.629878) can0 726#E7C3843ED45AE83D
(1663746271.639969) can0 726#8947E71E61B9D727
(1663746271.650039) can0 726#4B4FCE364F352262
(1663746271.660142) can0 726#B0E46B51B1D24776
(1663746271.670251) can0 726#6B552D0E87B55E6B
(1663746271.680369) can0 726#40109703A68CDD0F
(1663746271.690497) can0 726#D0567F0178C7E314
(1663746271.700585) can0 726#6F769A62EE201532
(1663746271.710669) can0 726#76C4D274E1151566
(1663746271.721312) can0 726#AE69E1129E97172C
(1663746271.731456) can0 726#1629C417FC822D45
(1663746271.738191) can0 72E#300A140000000000
(1663746271.741977) can0 726#E4556043F44AE42D
(1663746271.751141) can0 726#82D63F7013EF8E20
(1663746271.761977) can0 726#962F5330D7492828
(1663746271.771320) can0 726#676073373BCE3927
(1663746271.781455) can0 726#E287935B4E24F875
(1663746271.791557) can0 726#0F2922656BCF7A7A
(1663746271.798215) can0 72E#037F291200000000
(1663746271.801654) can0 726#B0DDCF1D5B78F01B
(1663746271.811759) can0 726#BA049D5C60C23B6F
(1663746271.821877) can0 726#0C4B3812255ACA6A
(1663746271.828237) can0 72E#037F4B1200000000
(1663746271.831975) can0 726#E7779A5A4C5BCF15
(1663746271.842074) can0 726#CCE6A77AB7CE195C
(1663746271.852179) can0 726#C422B32A3B5D425D
(1663746271.862296) can0 726#A6EF2E0E3AE7851F
(1663746271.872414) can0 726#1C73574354591021
(1663746271.878324) can0 72E#300A140000000000
(1663746271.882511) can0 726#D97E9D4B329C1B5B
(1663746271.892604) can0 726#51DC3D66BDD4FD0E
(1663746271.902755) can0 726#27E7FF08D3B27D56
(1663746271.908358) can0 72E#037F577200000000
(1663746271.912828) can0 726#D1C38C2FBD165339
(1663746271.923754) can0 726#AAFCA57E38240067
(1663746271.933143) can0 726#F8E48C608C84395A
(1663746271.943249) can0 726#8748F85C080EAF45
(1663746271.953330) can0 726#F753B4543726C87A
(1663746271.963430) can0 726#63869F61B2585131
(1663746271.973551) can0 726#97E8036A6FD1D773
(1663746271.983651) can0 726#D7B21B1C7E609E44
(1663746271.993730) can0 726#BB2CA709A399C316
(1663746272.003898) can0 726#352FB8207F4F5A34
(1663746272.013954) can0 726#DEF60574DB1EE72E
(1663746272.024062) can0 726#BA36E053FB695D37
(1663746272.034201) can0 726#3078F74F93B57D1F
(1663746272.045151) can0 726#2D06791281543536
(1663746272.054378) can0 726#508A7B2E54ED781B
(1663746272.066108) can0 726#5407B30C214E085E
(1663746272.074599) can0 726#1204CC54FE03590B
(1663746272.078499) can0 72E#300A140000000000
(1663746272.084695) can0 726#5A7208450AE95835
(1663746272.096159) can0 726#8A889265E1BA0022
(1663746272.105775) can0 726#12F7077B81DC463A
(1663746272.108533) can0 72E#300A140000000000
(1663746272.118064) can0 726#18E1C81C757DA75C
(1663746272.126715) can0 726#3335986BAFC9CC06
(1663746272.128652) can0 72E#300A140000000000
(1663746272.135251) can0 726#E44E7F500BE8B307
(1663746272.145346) can0 726#2D2A6B4B9F7B265A
(1663746272.148552) can0 72E#037FC87200000000
(1663746272.155510) can0 726#AE81771E6259236C
(1663746272.166130) can0 726#1FCB800E8D787D12
(1663746272.168589) can0 72E#300A140000000000
(1663746272.175740) can0 726#3E780A1BD9016162
(1663746272.185845) can0 726#88E2DA496EF0016B
(1663746272.195944) can0 726#6CB7DE01B5E8535C
(1663746272.206196) can0 726#EF443721BC415A30
(1663746272.217073) can0 726#0AD6CC77434CEA2D
(1663746272.218607) can0 72E#037FD61200000000
(1663746272.226530) can0 726#DE8F620E1CDA984C
(1663746272.236374) can0 726#4150433938026B53
(1663746272.246475) can0 726#26C3F101CBD8D51E
(1663746272.256589) can0 726#19BD6B7539BAF97C
(1663746272.258691) can0 72E#300A140000000000
(1663746272.266680) can0 726#4CB51C59319E3412
(1663746272.276784) can0 726#AE37A15980EAB444
(1663746272.286959) can0 726#E06701199386202A
(1663746272.297029) can0 726#8BD2684C0D926C64
(1663746272.307179) can0 726#320247043954E06A
(1663746272.317257) can0 726#6FEB8F5051CDC712
(1663746272.327800) can0 726#C6CC5D7DAD639A6B
(1663746272.337456) can0 726#2ACF28754EAF3847
(1663746272.347587) can0 726#1B549C5696860777
(1663746272.348742) can0 72E#300A140000000000
(1663746272.357685) can0 726#04988C230A99D377
(1663746272.359026) can0 72E#037F981100000000
(1663746272.368133) can0 726#53C861270E6E591B
(1663746272.377894) can0 726#4DE5BD253158C435
(1663746272.388033) can0 726#2A48F2678E35015F
(1663746272.398106) can0 726#695A2F09500BE469
(1663746272.408236) can0 726#590ED77D82179B7E
(1663746272.418311) can0 726#89C5DD66A6C3F356
(1663746272.428533) can0 726#B3B5CF1038FD7E40
(1663746272.438589) can0 726#26AEA81B931DD129
(1663746272.448696) can0 726#CB839F6AB1801168
(1663746272.458787) can0 726#A0AF3D0EFD85E66E
(1663746272.468890) can0 726#EAD4F1520F9BCD5E
(1663746272.478994) can0 726#4F53AE01B1A14F50
(1663746272.489092) can0 726#BDFE674A7922D776
(1663746272.499979) can0 726#FF508817D8520421
(1663746272.509333) can0 726#10A9DE6D03E9143B
(1663746272.518930) can0 72E#300A140000000000
(1663746272.519795) can0 726#E3EBD71863714015
(1663746272.531931) can0 726#11576E5630D1953E
(1663746272.539045) can0 72E#300A140000000000
(1663746272.539952) can0 726#94C9044B3B9F603E
(1663746272.549773) can0 726#BF06971DFD233454
(1663746272.559854) can0 726#8CAA442818156E1B
(1663746272.569978) can0 726#7F3BCF521570220F
(1663746272.580049) can0 726#BED8617232F19E63
(1663746272.590186) can0 726#4D6DA14FE4860A0E
(1663746272.600278) can0 726#C50E700D18F1403A
(1663746272.610408) can0 726#95071C7665BEAD1B
(1663746272.620515) can0 726#1677272980DC0D49
(1663746272.629021) can0 72E#300A140000000000
(1663746272.630586) can0 726#74597B7A65CAD52A
(1663746272.640711) can0 726#317E5D193158E344
(1663746272.650815) can0 726#DEECAC2130CFE530
(1663746272.660927) can0 726#0AABE765EE958B0F
(1663746272.669017) can0 72E#037FAB1200000000
(1663746272.671107) can0 726#34B8FA6BED96BF7E
(1663746272.681141) can0 726#5107CC24450F6942
(1663746272.691251) can0 726#1D68553DE5D0D06F
(1663746272.699052) can0 72E#300A140000000000
(1663746272.701407) can0 726#81AEC900DC6EEC5A
(1663746272.711478) can0 726#E2F404440D590E29
(1663746272.721573) can0 726#F5835A766130D416
(1663746272.731701) can0 726#22C93038B35CBC68
(1663746272.739064) can0 72E#037F557200000000
(1663746272.742006) can0 726#9321737A7036D207
(1663746272.751886) can0 726#98E3C6765830E307
(1663746272.761996) can0 726#882713422DEBE26C
(1663746272.772100) can0 726#BDEE90239E9E3A6B
(1663746272.782239) can0 726#ADC7F03532480C1E
(1663746272.792324) can0 726#03691016DE454E4F
(1663746272.799364) can0 72E#037F691100000000
(1663746272.802570) can0 726#63A0EF62E255BD37
(1663746272.812729) can0 726#0F1534006D4BD748
(1663746272.819139) can0 72E#037F151200000000
(1663746272.822782) can0 726#D0EB484743CD2E6C
(1663746272.832889) can0 726#5AE2964722F3146C
(1663746272.843007) can0 726#88DC972E784AEC04
(1663746272.853127) can0 726#07C4E55B098B612F
(1663746272.859384) can0 72E#037FC41100000000
(1663746272.863225) can0 726#54B9D85FEAB8EA1F
(1663746272.873313) can0 726#16E46F58493D3356
(1663746272.879216) can0 72E#300A140000000000
(1663746272.883442) can0 726#4BE9BE3639ADA010
(1663746272.893567) can0 726#FD99EF3EDF0A3231
(1663746272.903629) can0 726#A9E37218957DB635
(1663746272.913757) can0 726#373B1539310B865A
(1663746272.924676) can0 726#C2689922F529A65C
(1663746272.934137) can0 726#D0A9C04570308A58
(1663746272.944227) can0 726#2772B27AD312D15B
(1663746272.949252) can0 72E#037F6F7200000000
(1663746272.954325) can0 726#4E76D8278A12A25D
(1663746272.965094) can0 726#B5688E135D8B0C28
(1663746272.974542) can0 726#F85D79268654D75A
(1663746272.984677) can0 726#A0583B145240106E
(1663746272.996144) can0 726#A847EC462935D342
(1663746273.005087) can0 726#CA8AFC72AF0BD222
(1663746273.016086) can0 726#32C034721F44D552
(1663746273.025040) can0 726#99C4BC4249A4A44A
(1663746273.035155) can0 726#68810829E5AD7B79
(1663746273.045260) can0 726#8251455B651BF867
(1663746273.055448) can0 726#C4B8AD2A2B35B873
(1663746273.066181) can0 726#FA98AE1DFBF3C263
(1663746273.075591) can0 726#5C403E4EBD014840
(1663746273.085686) can0 726#F01D69402CEAFE13
(1663746273.095804) can0 726#2D32D21817901B3B
(1663746273.106099) can0 726#00FDCF6F7BA8AA40
(1663746273.120031) can0 726#A2A2BD18B5655E03
(1663746273.127050) can0 726#D933B7689A00373F
(1663746273.136192) can0 726#3BBA355E798CF27C
(1663746273.146296) can0 726#EC40472DE3012225
(1663746273.156406) can0 726#A2C1C53FB7CB4320
(1663746273.166508) can0 726#930DF447D581FA31
(1663746273.176603) can0 726#D60F19732CD2B00A
(1663746273.186732) can0 726#1E269F7C3E91211C
(1663746273.189491) can0 72E#300A140000000000
(1663746273.196851) can0 726#11802C04A077E457
(1663746273.199563) can0 72E#300A140000000000
(1663746273.207112) can0 726#A4AC1904D538DA2E
(1663746273.217201) can0 726#CBAC9C4B9E45C821
(1663746273.227381) can0 726#D12C9D1227EDDA19
(1663746273.237500) can0 726#5B471062C14A0653
(1663746273.247617) can0 726#54D7D92D8879E27A
(1663746273.257715) can0 726#D9DA210E54D4A91D
(1663746273.267833) can0 726#04228D3B7B7DDF26
(1663746273.269772) can0 72E#037F221200000000
(1663746273.277946) can0 726#093A0821DD554424
(1663746273.279618) can0 72E#037F3A1200000000
(1663746273.288061) can0 726#157E166645F43D7F
(1663746273.289688) can0 72E#300A140000000000
(1663746273.298145) can0 726#56E2362101BF5D13
(1663746273.308278) can0 726#28F65F24F9A3FC60
(1663746273.309587) can0 72E#037F167200000000
(1663746273.318354) can0 726#B88AA133BB03546C
(1663746273.328452) can0 726#CE25F7128E9ABA26
(1663746273.338577) can0 726#E8D50477EC4B960F
(1663746273.348659) can0 726#CD2BDC42F955317B
(1663746273.358762) can0 726#8CC37A6771D8F546
(1663746273.369251) can0 726#CF8E0B2A57701733
(1663746273.379018) can0 726#0F1EBE68A0BBA83C
(1663746273.389081) can0 726#7E5DF24C6B65CE4A
(1663746273.399182) can0 726#6106AF0FD234CC7A
(1663746273.409286) can0 726#F3DEB0453AE1D01D
(1663746273.419420) can0 726#26097618F7003E01
(1663746273.429538) can0 726#B55EB04430437E39
(1663746273.439637) can0 726#D4568225CADCC62A
(1663746273.449726) can0 726#7537BC382B39B946
(1663746273.459834) can0 726#CC9B243E9D2D1C5D
(1663746273.469953) can0 726#24DDB5278426C671
(1663746273.480040) can0 726#59317049F202AD3A
(1663746273.490175) can0 726#13C1801841077540
(1663746273.499771) can0 72E#300A140000000000
(1663746273.500676) can0 726#DE4E434AE0EC5C5B
(1663746273.510350) can0 726#3A5DA63B6A12BE31
(1663746273.520444) can0 726#51C5522209ECB165
(1663746273.532737) can0 726#C182D56460E3100B
(1663746273.540666) can0 726#A9A75A223FE0C731
(1663746273.550779) can0 726#CB48DF550BAE0932
(1663746273.560905) can0 726#1215942CBF27901B
(1663746273.569850) can0 72E#300A140000000000
(1663746273.571342) can0 726#458FDA4F381E0A45
(1663746273.581190) can0 726#B628CE1CFBED8A14
(1663746273.591306) can0 726#6861887E8B7F5042
(1663746273.601397) can0 726#C5CA513FDD984437
(1663746273.611502) can0 726#B6B809099166767D
(1663746273.621611) can0 726#7BC66014DA95BF30
(1663746273.631730) can0 726#168D3C6FD4F7D05D
(1663746273.639901) can0 72E#300A140000000000
(1663746273.641825) can0 726#CC986C6B294EBD07
(1663746273.651928) can0 726#15FF451EAAE7AF35
(1663746273.659913) can0 72E#300A140000000000
(1663746273.662023) can0 726#093B1A634F5CEC59
(1663746273.669952) can0 72E#037F3B1200000000
(1663746273.672153) can0 726#14FA6D675A006D05
(1663746273.679992) can0 72E#300A140000000000
(1663746273.682255) can0 726#59489E3FD57C434C
(1663746273.692367) can0 726#BAE37D1002F0F861
(1663746273.702454) can0 726#145D0B7E862C5D66
(1663746273.709958) can0 72E#300A140000000000
(1663746273.712577) can0 726#0D9E021426729F2A
(1663746273.719989) can0 72E#037F9E1200000000
(1663746273.722790) can0 726#4554ED01532DDD63
(1663746273.732871) can0 726#5F90A96FFB7CBB1E
(1663746273.742876) can0 726#4E1B6878C7F1316E
(1663746273.752988) can0 726#86FC0B6113E6B937
(1663746273.763059) can0 726#A58A76253CB5156A
(1663746273.773194) can0 726#A54C30352051D739
(1663746273.783277) can0 726#164BD51ABBD96C24
(1663746273.790090) can0 72E#300A140000000000
(1663746273.793401) can0 726#F448A817E2E34106
(1663746273.803500) can0 726#E4272A2C0948EE35
(1663746273.813634) can0 726#8CCBF13BED62440F
(1663746273.824740) can0 726#58A4DA0FA0C55F23
(1663746273.833813) can0 726#4763B114B1EC784F
(1663746273.843919) can0 726#7542A36F01472F25
(1663746273.854020) can0 726#B4DC71318A9FAE6D
(1663746273.864131) can0 726#87738C0BC17A7445
(1663746273.874223) can0 726#B0114E18CCC7790D
(1663746273.880259) can0 72E#037FD57200000000
(1663746273.884361) can0 726#14A851290FA2F707
(1663746273.890179) can0 72E#300A140000000000
(1663746273.896125) can0 726#C844352C62C3B921
(1663746273.904564) can0 726#D79329764E41410D
(1663746273.916119) can0 726#76A973597C1EA01B
(1663746273.925142) can0 726#8BF656771BF6A30E
(1663746273.934904) can0 726#9C6F7755A1412C12
(1663746273.945013) can0 726#D6CF103390B81F6D
(1663746273.956118) can0 726#84256E18BAF73A5F
(1663746273.967083) can0 726#99000E2310F15F54
(1663746273.975407) can0 726#A75A7F6EF1A4E832
(1663746273.980294) can0 72E#037F517200000000
(1663746273.985438) can0 726#B1B6BF77EEBD3003
(1663746273.995519) can0 726#A391610226F96267
(1663746274.005615) can0 726#EF046028576ED333
(1663746274.017074) can0 726#B09811557778EC33
(1663746274.025812) can0 726#18E9477961AA5F6D
(1663746274.030245) can0 72E#300A140000000000
(1663746274.035921) can0 726#434066412D919922
(1663746274.046016) can0 726#704C57750B859B6D
(1663746274.056143) can0 726#8F54534447E0806B
(1663746274.066253) can0 726#5AC6DC7A05FEC61D
(1663746274.076351) can0 726#C3FE2007E5BC3372
(1663746274.086460) can0 726#20F46A2C5F6E985C
(1663746274.090291) can0 72E#037F477200000000
(1663746274.096635) can0 726#86FE5F04F6C37B5F
(1663746274.106688) can0 726#EF26B8490A24CE1C
(1663746274.117076) can0 726#B0BBB63E8827C66C
(1663746274.127680) can0 726#1B152E715716362D
(1663746274.130629) can0 72E#300A140000000000
(1663746274.137122) can0 726#7ACCAE1FCCCBED68
(1663746274.147224) can0 726#45D466301D5E1022
(1663746274.157343) can0 726#F2C4505035D9C658
(1663746274.167412) can0 726#74CCE355A35D6225
(1663746274.177514) can0 726#AC51B30C8CB52B4F
(1663746274.187636) can0 726#0408C212EF91194E
(1663746274.190608) can0 72E#037F081100000000
(1663746274.197729) can0 726#B946C57174541908
(1663746274.207829) can0 726#FB16B53B499B1836
(1663746274.217924) can0 726#BC349A7355DD9136
(1663746274.228076) can0 726#4E99DF537F33BB7A
(1663746274.238142) can0 726#3A9AC5286F8D4A00
(1663746274.248261) can0 726#DFA15357C098252D
(1663746274.258340) can0 726#6551C65FCEC80B21
(1663746274.268439) can0 726#CBBCF349160D7D1E
(1663746274.278537) can0 726#57F0D10DE6D1213B
(1663746274.288637) can0 726#6D23B34BD1BC802D
(1663746274.298760) can0 726#B29D0F24B3F7197C
(1663746274.308830) can0 726#EE1A914FA4626074
(1663746274.318942) can0 726#E8D0E05462E77425
(1663746274.329898) can0 726#47C0C21994229461
(1663746274.339297) can0 726#EE9CA0744BC8842C
(1663746274.349410) can0 726#83B4AD2FA8E36566
(1663746274.359513) can0 726#C01C9E347ECB626B
(1663746274.370356) can0 726#F17E7E1C7C513828
(1663746274.379739) can0 726#D3A8F4213F185E70
(1663746274.389851) can0 726#FB84F3220D43BA4A
(1663746274.399938) can0 726#AEA5A870DA26477A
(1663746274.410049) can0 726#CEDBDF7714F76E50
(1663746274.420160) can0 726#A9EF521B9998D341
(1663746274.430297) can0 726#2A04EC6E00E02429
(1663746274.440408) can0 726#7F6AF57C97279F3A
(1663746274.450507) can0 726#D19CA55631080521
(1663746274.460617) can0 726#4A1FB936BFB73626
(1663746274.470718) can0 726#D56A651532F0990B
(1663746274.480839) can0 726#219FAB4B1D2B282F
(1663746274.490926) can0 726#C6122E6D0F3C4C40
(1663746274.501026) can0 726#68F3AC5B4AC7DB1C
(1663746274.511169) can0 726#B71FB22628104B10
(1663746274.521271) can0 726#C8923E08A89E3043
(1663746274.534076) can0 726#A46183389C3B332A
(1663746274.541613) can0 726#E8B68E33A0E6765B
(1663746274.551722) can0 726#A97EED74965C3724
(1663746274.562101) can0 726#7A0DBE55775ACD6C
(1663746274.571940) can0 726#AA53A67423FD1071
(1663746274.582061) can0 726#10F3A02ED4579263
(1663746274.590756) can0 72E#300A140000000000
(1663746274.592284) can0 726#23DD351A8F5D962B
(1663746274.600807) can0 72E#037FA07200000000
(1663746274.602396) can0 726#6C7F311EF479DB70
(1663746274.612496) can0 726#C0659B4CB69EEA54
(1663746274.622611) can0 726#B331121796D00062
(1663746274.632715) can0 726#E98E8460D4D0BD62
(1663746274.642835) can0 726#B3FB2811AFA1B24D
(1663746274.652948) can0 726#E40C0A231BEFD56C
(1663746274.663031) can0 726#F9688E6A9B2CBC49
(1663746274.673151) can0 726#44FF207DC2FBCC72
(1663746274.683254) can0 726#44CBEC0CE860A435
(1663746274.693366) can0 726#5E37001D2C827B40
(1663746274.703468) can0 726#88471B1107B6ED11
(1663746274.713562) can0 726#C2DEB2640355D966
(1663746274.723688) can0 726#7F10BB7E6D325959
(1663746274.736346) can0 726#2652EA578F035C2D
(1663746274.743902) can0 726#418AEB3C4A2F2072
(1663746274.754013) can0 726#1F61F258AD091D5B
(1663746274.760901) can0 72E#300A140000000000
(1663746274.765105) can0 726#3EA9FB62DFC68D25
(1663746274.774226) can0 726#64A80730F2DA0D7A
(1663746274.784327) can0 726#75978E074D378C10
(1663746274.796138) can0 726#C6ABCB5C2893B718
(1663746274.804574) can0 726#FCD83E5EAAB8D57F
(1663746274.816087) can0 726#44828D05F641CD48
(1663746274.824779) can0 726#46E591498881AE02
(1663746274.834890) can0 726#B83D9A3B8AB07E56
(1663746274.844976) can0 726#70E2523816759A58
(1663746274.851080) can0 72E#037FF27200000000
(1663746274.855138) can0 726#B632FA16F9296E49
(1663746274.866278) can0 726#1D2B886A7811AD7B
(1663746274.871303) can0 72E#300A140000000000
(1663746274.875505) can0 726#FC7E47309C3B4369
(1663746274.885597) can0 726#E543065522D13108
(1663746274.895902) can0 726#2C3F9F1627CEF111
(1663746274.901007) can0 72E#037F887200000000
(1663746274.905891) can0 726#6C00527A4BA0916F
(1663746274.917046) can0 726#D4D70E6DABA94D5D
(1663746274.926040) can0 726#2A671F153880161D
(1663746274.936177) can0 726#9D845B57A0FEAD1C
(1663746274.946270) can0 726#85B7A22D63302734
(1663746274.956869) can0 726#C89165358290E10B
(1663746274.966612) can0 726#0EE9FC330C14F33A
(1663746274.971059) can0 72E#037FE91200000000
(1663746274.976706) can0 726#78D2AE5454CE8E7D
(1663746274.986835) can0 726#9495A13D30104910
(1663746274.996944) can0 726#DE7E0D540578F475
(1663746275.007032) can0 726#4685E36894B1076B
(1663746275.017149) can0 726#FEA1623F63B06B53
(1663746275.027260) can0 726#0CC3B466FA20AA6F
(1663746275.031115) can0 72E#037FC31200000000
(1663746275.037366) can0 726#00ECAE3CF206BB3B
(1663746275.047469) can0 726#1CF2DB772C2B4E53
(1663746275.051168) can0 72E#300A140000000000
(1663746275.057592) can0 726#19D5AC4D89F22D72
(1663746275.061239) can0 72E#300A140000000000
(1663746275.067690) can0 726#77CBDF42EDACBB3A
(1663746275.077816) can0 726#349C7B4FA132FF57
(1663746275.087922) can0 726#262DD257D120D726
(1663746275.091197) can0 72E#037FAC7200000000
(1663746275.098037) can0 726#4131AD74ABE47405
(1663746275.108133) can0 726#3451FE5A0AC3122A
(1663746275.119062) can0 726#2D755611423AFB0E
(1663746275.129402) can0 726#16D70565A5470566
(1663746275.131349) can0 72E#300A140000000000
(1663746275.138857) can0 726#96088A0CAB6CA722
(1663746275.149094) can0 726#D5574E7674879760
(1663746275.159341) can0 726#B0E49B181BDD315F
(1663746275.169588) can0 726#08399F4BAE86FE57
(1663746275.171232) can0 72E#037F391200000000
(1663746275.179819) can0 726#7F8D9D3215FC5332
(1663746275.190041) can0 726#A8A7A8477F794C6F
(1663746275.200300) can0 726#07030F6EC499843F
(1663746275.210505) can0 726#ABA49A4220D8BB3B
(1663746275.211497) can0 72E#037F031100000000
(1663746275.220763) can0 726#4D8CB23122707A05
(1663746275.231430) can0 726#0D85777681282E01
(1663746275.242091) can0 726#C3A2795D33B2494E
(1663746275.243070) can0 72E#037F851200000000
(1663746275.251491) can0 726#5249052805D42652
(1663746275.261750) can0 726#DF96BE53879A0303
(1663746275.271980) can0 726#0F97397C0C0C1565
(1663746275.281337) can0 72E#037F971200000000
(1663746275.283206) can0 726#C9D4FE11256E3F61
(1663746275.292435) can0 726#B2531A4B60DD881E
(1663746275.302826) can0 726#D0DAE60387AB6841
(1663746275.312946) can0 726#D464207F80BF821C
(1663746275.323030) can0 726#A3889A20DD9DBF4A
(1663746275.333214) can0 726#2E46817422163853
(1663746275.343230) can0 726#F299137DD6ED293C
(1663746275.353359) can0 726#A18F8442F99C226B
(1663746275.363462) can0 726#9B87AE7B4C341F05
(1663746275.373562) can0 726#1975DE26E813612D
(1663746275.381488) can0 72E#300A140000000000
(1663746275.383652) can0 726#6EA4990A26FA551D
(1663746275.393768) can0 726#6A3C8F2E31471368
(1663746275.403869) can0 726#5AAC9F6BBC859456
(1663746275.413980) can0 726#361B3A3A39435E3F
(1663746275.424107) can0 726#4320985945B27336
(1663746275.434254) can0 726#454F73240DF5966B
(1663746275.444362) can0 726#6B20B317F7A28D6F
(1663746275.456150) can0 726#6DD21F0A3BFB991B
(1663746275.465109) can0 726#7F4EF63041374009
(1663746275.471620) can0 72E#037FDE7200000000
(1663746275.474716) can0 726#BCBA1C3822D79051
(1663746275.484785) can0 726#1ED5FF53EA009E2C
(1663746275.492193) can0 72E#300A140000000000
(1663746275.496116) can0 726#44EDC824106F1351
(1663746275.505914) can0 726#C1EEC768E57C4D67
(1663746275.517047) can0 726#090C363C5C767664
(1663746275.521563) can0 72E#037F0C1200000000
(1663746275.525208) can0 726#31B16C6C22811463
(1663746275.536997) can0 726#448AD7119F550677
(1663746275.545514) can0 726#497B6A00AEC66640
(1663746275.555624) can0 726#D09C195FA3270A6C
(1663746275.566298) can0 726#6B4CFB1607B85319
(1663746275.575834) can0 726#DC6A682BAE6C9370
(1663746275.585953) can0 726#4C6AC74F21BADB4F
(1663746275.596023) can0 726#BB612A5CB78A7A67
(1663746275.606153) can0 726#195D693F28344A66
(1663746275.611660) can0 72E#300A140000000000
(1663746275.617065) can0 726#F385140398AB5F70
(1663746275.626489) can0 726#6A6B8A6FAF40313B
(1663746275.636616) can0 726#BA82F04188408A43
(1663746275.646726) can0 726#9941CF67FE6FB966
(1663746275.656814) can0 726#99AF9D145A309750
(1663746275.666931) can0 726#E3EC064EA2BBD350
(1663746275.677028) can0 726#B6A60D35149E733A
(1663746275.687138) can0 726#C53CE833FB30E546
(1663746275.697232) can0 726#B3F379310EB85234
(1663746275.701941) can0 72E#037F697200000000
(1663746275.707939) can0 726#A9F74B0783909310
(1663746275.717452) can0 726#B1DF5C201444471E
(1663746275.727538) can0 726#8A48E7298D4AC54B
(1663746275.738514) can0 726#C3B0DA0ED7B2AE79
(1663746275.747877) can0 726#AE04A11B7E12056B
(1663746275.757956) can0 726#8E3D2961C7610A5B
(1663746275.768114) can0 726#A7464F5181C33D64
(1663746275.778201) can0 726#5F0D6A4B11B2D940
(1663746275.788320) can0 726#30046F1F19905A0D
(1663746275.798424) can0 726#99F26304CA453E07
(1663746275.808518) can0 726#1700147432A20119
(1663746275.811843) can0 72E#300A140000000000
(1663746275.818618) can0 726#2476D557FAEC1A42
(1663746275.821888) can0 72E#037F147200000000
(1663746275.828707) can0 726#D55DD569DB1CE30C
(1663746275.838833) can0 726#0E8B8E7C9A9ABD1D
(1663746275.841838) can0 72E#037F8B1200000000
(1663746275.848975) can0 726#D64DC853C17E082E
(1663746275.859019) can0 726#A85210527F45145B
(1663746275.872298) can0 726#450F9C3E59326D72
(1663746275.879211) can0 726#94895B79CF578368
(1663746275.889342) can0 726#E67C323E573A3608
(1663746275.899437) can0 726#A60A32629481D359
(1663746275.909507) can0 726#D54C3B7335485B43
(1663746275.919617) can0 726#5CE3DD347C938A44
(1663746275.929749) can0 726#B60B9927BBF04700
(1663746275.939928) can0 726#8D456405E70F0847
(1663746275.950039) can0 726#D580A20D2738C809
(1663746275.960099) can0 726#B155464EEC80B601
(1663746275.970176) can0 726#59DAC922D5CB1B26
(1663746275.980312) can0 726#E76DD1432E389F0C
(1663746275.990415) can0 726#B0E8FE32F5F85F40
(1663746276.000492) can0 726#C8D25C2A8636C706
(1663746276.010605) can0 726#B777686E70256D7C
(1663746276.020729) can0 726#067CDB61FC86042D
(1663746276.022291) can0 72E#037F7C1100000000
(1663746276.030795) can0 726#C957DA6E9A05375B
(1663746276.040910) can0 726#CBDE8715AFD40C2D
(1663746276.051006) can0 726#F13F6D6372E9B977
(1663746276.061115) can0 726#4456E006C68CA856
(1663746276.071225) can0 726#A731153BA039BE3B
(1663746276.081305) can0 726#4320331B5D3DAE62
(1663746276.091432) can0 726#5B2A063CD0659720
(1663746276.101534) can0 726#444DB62930ABA849
(1663746276.111652) can0 726#F79D5F2AF5A2FC77
(1663746276.121760) can0 726#1D2C5F4B5178294D
(1663746276.131855) can0 726#CB6E181E049A300F
(1663746276.132835) can0 72E#300A140000000000
(1663746276.141935) can0 726#7FB0C8597B571751
(1663746276.152062) can0 726#F992904F48832504
(1663746276.162150) can0 726#028EDE57B00AF93D
(1663746276.172258) can0 726#B8A89200080ABA39
(1663746276.173223) can0 72E#037F8E1100000000
(1663746276.182375) can0 726#AC91FD6A82006D6F
(1663746276.192471) can0 726#A20FF11478708500
(1663746276.202558) can0 726#31D5791C934F5E78
(1663746276.212666) can0 726#EA593F78752B5A23
(1663746276.222778) can0 726#59DC064F918B5433
(1663746276.233791) can0 726#1565185F9CFC396A
(1663746276.242245) can0 72E#300A140000000000
(1663746276.244127) can0 726#EEC80216718F1E1B
(1663746276.253083) can0 726#6D62D10A3316B93F
(1663746276.263194) can0 726#A13AC76464003135
(1663746276.273295) can0 726#28B9B537BE662630
(1663746276.282235) can0 72E#037F187200000000
(1663746276.284066) can0 726#B5785A02F327CE55
(1663746276.293558) can0 726#C200573F3529235C
(1663746276.303656) can0 726#6F7FE526BC93E70E
(1663746276.313765) can0 726#7DAC4860710DC47E
(1663746276.323861) can0 726#6C9EE04C3555DB60
(1663746276.334578) can0 726#79177E381930DE37
(1663746276.344063) can0 726#B75548501B276F4D
(1663746276.355116) can0 726#91A06338E92AC26C
(1663746276.367009) can0 726#AE76CD457BFAA230
(1663746276.374376) can0 726#5E561C100753D414
(1663746276.384469) can0 726#0C86F76374BB346F
(1663746276.392327) can0 72E#037F861200000000
(1663746276.395141) can0 726#A44F0E7FFA4EFA79
(1663746276.404692) can0 726#E54A530A11B2DF09
(1663746276.417046) can0 726#2D65B33986851A6F
(1663746276.424885) can0 726#75B2103F561E6971
(1663746276.435016) can0 726#45EC401F2B2B6B41
(1663746276.445143) can0 726#4946374707ED975E
(1663746276.455921) can0 726#60548E1DB8C51C6E
(1663746276.466357) can0 726#C3807F6DDD00D77D
(1663746276.475462) can0 726#29D3E06C301F603A
(1663746276.485528) can0 726#1256B25EA2EA5E25
(1663746276.492447) can0 72E#300A140000000000
(1663746276.495636) can0 726#494F3E72CAABFA2E
(1663746276.505921) can0 726#BD11CE72DAEFA12A
(1663746276.516057) can0 726#B3D6BC1B6B889B38
(1663746276.525921) can0 726#55EA445B112DD92B
(1663746276.541164) can0 726#73DB6F4D61703C3F
(1663746276.546156) can0 726#85E80D1B172B7E4C
(1663746276.556248) can0 726#5BBF36396A336125
(1663746276.566346) can0 726#28DD5D568924EA72
(1663746276.572518) can0 72E#037FB27200000000
(1663746276.576454) can0 726#F1B87B149D8F6E15
(1663746276.586726) can0 726#DF42536436A5BC33
(1663746276.596806) can0 726#C8BAD95628898A2B
(1663746276.606949) can0 726#3D925412280F6874
(1663746276.619018) can0 726#E14EA7190113D47F
(1663746276.627145) can0 726#05103F720A228806
(1663746276.632767) can0 72E#037F101200000000
(1663746276.637218) can0 726#3132343A1866F150
(1663746276.647330) can0 726#AD0CE72B7A81722C
(1663746276.657419) can0 726#E211EC7F6A1EB51E
(1663746276.667514) can0 726#5471145795E8A81B
(1663746276.677629) can0 726#D6A65057A95B5932
(1663746276.687733) can0 726#A61582474982C024
(1663746276.697839) can0 726#0ACC95712CFE8F62
(1663746276.702639) can0 72E#037FCC1200000000
(1663746276.707948) can0 726#60AD3E71658BCC2A
(1663746276.718048) can0 726#9631F107888A9C47
(1663746276.728157) can0 726#EEAFB61D87EA6C1C
(1663746276.738388) can0 726#251A0B5DCDF20902
(1663746276.748452) can0 726#BD8F2950EED4E433
(1663746276.758448) can0 726#F67B942DFB217E62
(1663746276.768529) can0 726#16E44C28D7CA3B47
(1663746276.772704) can0 72E#300A140000000000
(1663746276.778644) can0 726#FC3452621CF48B1A
(1663746276.788743) can0 726#E1ECC34D2D67861C
(1663746276.798861) can0 726#345A7D6B8EF9AA79
(1663746276.809000) can0 726#A7E8F848166C696B
(1663746276.819063) can0 726#F9176018FB590D20
(1663746276.829194) can0 726#AB541207CFBEB06F
(1663746276.839238) can0 726#A4B56652516A944E
(1663746276.849379) can0 726#18417114AE81FC43
(1663746276.852775) can0 72E#300A140000000000
(1663746276.859472) can0 726#7D68243178EEAF05
(1663746276.870434) can0 726#130DC96E149A1539
(1663746276.872793) can0 72E#300A140000000000
(1663746276.879691) can0 726#00794C4D02BD7F0C
(1663746276.889756) can0 726#9B8482552593572A
(1663746276.899866) can0 726#CFAF890E5914AC25
(1663746276.910002) can0 726#13683C5EC52B1E3C
(1663746276.912825) can0 72E#300A140000000000
(1663746276.920078) can0 726#54362A082A4C8906
(1663746276.930193) can0 726#9CF65903506B7C6A
(1663746276.940297) can0 726#464015217EE31D51
(1663746276.950433) can0 726#7DD202077A9A920C
(1663746276.960527) can0 726#0CDDC84A24BBFB4F
(1663746276.962835) can0 72E#037FDD1200000000
(1663746276.970624) can0 726#9006FC7705F52863
(1663746276.980736) can0 726#1F1509703B5B0E7F
(1663746276.982889) can0 72E#300A140000000000
(1663746276.990809) can0 726#D4B3D952C3CA6F42
(1663746277.000911) can0 726#8CC5A24DECF44A67
(1663746277.011040) can0 726#714C6C060A2EC77E
(1663746277.021112) can0 726#64E3FA6C84593575
(1663746277.031211) can0 726#1EC8DC37645C473A
(1663746277.032937) can0 72E#300A140000000000
(1663746277.041332) can0 726#8616B501B94C5F0D
(1663746277.051441) can0 726#8AEF9E6456C63E10
(1663746277.061551) can0 726#12610B339D57DB42
(1663746277.062962) can0 72E#300A140000000000
(1663746277.071656) can0 726#1BF25C4C6697353B
(1663746277.073030) can0 72E#300A140000000000
(1663746277.081744) can0 726#C7A36449B8E8B64F
(1663746277.091851) can0 726#B602B2250DE4796A
(1663746277.101969) can0 726#36CCD42033D5B42C
(1663746277.112064) can0 726#877E0C7742A99D6B
(1663746277.122187) can0 726#5790B07C1785086F
(1663746277.132279) can0 726#489EC64E76A5B96C
(1663746277.142379) can0 726#52E0166E1C52A021
(1663746277.152501) can0 726#3970292FDFA5B93B
(1663746277.162586) can0 726#0947EB08AABC9535
(1663746277.163570) can0 72E#037F5C7200000000
(1663746277.172674) can0 726#E9D3803A6D2AE675
(1663746277.173650) can0 72E#037F471200000000
(1663746277.182797) can0 726#2F16CB2A079C5D72
(1663746277.192888) can0 726#D2862D30B52C802C
(1663746277.203006) can0 726#C0E8BC7F5C76CC14
(1663746277.213116) can0 726#0BF3BE3CD349C832
(1663746277.223078) can0 72E#037FF31200000000
(1663746277.223990) can0 726#F9CDA75727E51B09
(1663746277.233318) can0 726#39E1FD6DC1710C21
(1663746277.243744) can0 726#DFCDD258F0E3AF13
(1663746277.253519) can0 726#CE55860B159AA779
(1663746277.263647) can0 726#23B9644056D49202
(1663746277.273705) can0 726#574345657B49153D
(1663746277.284074) can0 726#6D599B719FE10B34
(1663746277.293928) can0 726#F1EECE29C039B25F
(1663746277.304088) can0 726#BC33AC552B5FF858
(1663746277.317028) can0 726#9FDF6B1BC57A975E
(1663746277.325115) can0 726#D51B8E0E88B3EC55
(1663746277.334391) can0 726#32A57D5404325939
(1663746277.345333) can0 726#8F4F4A48042CAB04
(1663746277.354593) can0 726#BA5ED9654F380748
(1663746277.365067) can0 726#60A27719C5519822
(1663746277.375135) can0 726#2282CF7A5A701F71
(1663746277.384870) can0 726#EC36B42B5C63CD68
(1663746277.395133) can0 726#1BE22B12CB048704
(1663746277.403559) can0 72E#300A140000000000
(1663746277.405469) can0 726#4C477D7CE937B21D
(1663746277.416062) can0 726#E09E2E7E6F00E23C
(1663746277.425375) can0 726#3F0C452038E27363
(1663746277.435454) can0 726#EA49F779AD65E011
(1663746277.445619) can0 726#D7C37F17DC38C623
(1663746277.455972) can0 726#6D9F927193F72B6D
(1663746277.466441) can0 726#0798BE7C0C7FFE0C
(1663746277.473520) can0 72E#037F981100000000
(1663746277.476499) can0 726#5872C34BDCB34C0B
(1663746277.485986) can0 726#9432EB628B174120
(1663746277.496100) can0 726#E1E5A5442382352B
(1663746277.506228) can0 726#8F43EC249B447F2A
(1663746277.516297) can0 726#72BA3C73F0E5633E
(1663746277.526499) can0 726#6096174D953C0C6E
(1663746277.536554) can0 726#4A56832F4DCDCB78
(1663746277.546689) can0 726#F19FD9566538AF41
(1663746277.556839) can0 726#18D2527D3DE75653
(1663746277.563377) can0 72E#300A140000000000
(1663746277.568113) can0 726#4E70615FF970817B
(1663746277.576934) can0 726#ACE738108E7CA67F
(1663746277.587067) can0 726#3153F55E9731300A
(1663746277.597114) can0 726#3BE2861108177576
(1663746277.607279) can0 726#736AF62DA8811903
(1663746277.619015) can0 726#9C0EA1637A02B52A
(1663746277.627460) can0 726#B4001810F480642F
(1663746277.637532) can0 726#56B6013648330373
(1663746277.647603) can0 726#7F98A54F379CA77A
(1663746277.653593) can0 72E#037F527200000000
(1663746277.657790) can0 726#6BB5381E0FDC9174
(1663746277.667774) can0 726#D2E02625DD6F7511
(1663746277.677893) can0 726#FFC1F53233773E72
(1663746277.687950) can0 726#72AC817F49187962
(1663746277.698035) can0 726#80440A6B634C5B56
(1663746277.708166) can0 726#AE50282498165D68
(1663746277.718232) can0 726#A033B229FCC08903
(1663746277.728314) can0 726#9187DE634D1BEB39
(1663746277.738413) can0 726#8A3D3003C2DAD342
(1663746277.749382) can0 726#E44C1B44C51FB714
(1663746277.758648) can0 726#CBF1483957B71172
(1663746277.768758) can0 726#6DA1D0176700EA1C
(1663746277.778856) can0 726#D1B9C61C21A2E827
(1663746277.788982) can0 726#5B814E4C2770C852
(1663746277.799087) can0 726#69D5EB1ADB19F41B
(1663746277.809182) can0 726#5F0C704DD48A2439
(1663746277.819259) can0 726#EAF5851031ED9672
(1663746277.829373) can0 726#B2FA994AE9B77B43
(1663746277.839466) can0 726#6464D56424A71B4A
(1663746277.849593) can0 726#32D0F425E4A8DF4F
(1663746277.859705) can0 726#88F37620E0201D4A
(1663746277.870509) can0 726#7DBF3C382827294A
(1663746277.879877) can0 726#DCE1A64D0E471B1C
(1663746277.890018) can0 726#75421404671FD750
(1663746277.900086) can0 726#D121EF5E598F2F48
(1663746277.910213) can0 726#2C3F8E659C133818
(1663746277.920321) can0 726#B046413A9AE05E7D
(1663746277.930437) can0 726#0314223581000857
(1663746277.933905) can0 72E#0354223500000000
(1663746277.943249) can0 726#BB8247255E957001
(1663746277.950656) can0 726#A970D02925583340
(1663746277.960758) can0 726#39AF641D087D4077
(1663746277.970842) can0 726#F9E2577923A5EA2D
(1663746277.980945) can0 726#396AD769ABDDF143
(1663746277.991043) can0 726#0C5D66719ECEAC4E
(1663746277.993762) can0 72E#037F5D1200000000
(1663746278.001151) can0 726#D0840D0E3E2D5B17
(1663746278.011257) can0 726#82778C1E5878842E
(1663746278.021369) can0 726#1E4E7861FF36C956
(1663746278.023819) can0 72E#300A140000000000
(1663746278.031495) can0 726#809FAD78FB2F1F2F
(1663746278.041605) can0 726#0E7EE472F6E1C17C
(1663746278.043938) can0 72E#037F7E1200000000
(1663746278.051743) can0 726#624FF67FDF9FD351
(1663746278.061808) can0 726#4F71F1448E8E8465
(1663746278.071930) can0 726#7BB30B6A00B8327F
(1663746278.082052) can0 726#286FE3627EC72D1F
(1663746278.092156) can0 726#81B83A56E4F12A08
(1663746278.102238) can0 726#DC5C9E202A290B00
(1663746278.112371) can0 726#094A5E48160C033E
(1663746278.113869) can0 72E#037F4A1200000000
(1663746278.122472) can0 726#32A64B77022DB641
(1663746278.132592) can0 726#39B1ED6B6C102361
(1663746278.143313) can0 726#AE0AA805460E545D
(1663746278.152794) can0 726#0ADFCF2F7E8FB513
(1663746278.162887) can0 726#843BAF748C565C4E
(1663746278.172981) can0 726#D6073A42A3892756
(1663746278.183103) can0 726#8C8D252556A7E73A
(1663746278.193221) can0 726#9EB946059A0B0A18
(1663746278.203322) can0 726#4C89A93700093D05
(1663746278.213415) can0 726#79ABDD699CFA9A7C
(1663746278.223518) can0 726#8E97C16AF45EE953
(1663746278.233615) can0 726#9CB2CD7BB706A54D
(1663746278.244352) can0 726#722617731D6B0852
(1663746278.253825) can0 726#9BF8CF554E83B513
(1663746278.263946) can0 726#48941352A4422E1E
(1663746278.274046) can0 726#648FB8517A3A5F49
(1663746278.285944) can0 726#A66FE45F9E40A63D
(1663746278.295119) can0 726#E64A822A547A8C65
(1663746278.306158) can0 726#E44EFA1AF029525A
(1663746278.316060) can0 726#D2094279688AA90F
(1663746278.324589) can0 726#7D80AE28A8117C3B
(1663746278.335094) can0 726#0B14D165090ED44D
(1663746278.344653) can0 72E#037F141200000000
(1663746278.346522) can0 726#FFB86376A9CD176B
(1663746278.354878) can0 726#A319DE654B420D2E
(1663746278.365051) can0 726#A9D654701CC5BB4F
(1663746278.375098) can0 726#E73CA82A386E165B
(1663746278.385228) can0 726#1024A52383EF7526
(1663746278.394150) can0 72E#300A140000000000
(1663746278.397030) can0 726#EF74BB28824ABC16
(1663746278.406068) can0 726#A15A7E788A6D8B7E
(1663746278.416026) can0 726#D0CD712AE9EE914A
(1663746278.426295) can0 726#2EB0B91C355D2A7C
(1663746278.434170) can0 72E#037FA57200000000
(1663746278.435855) can0 726#6329F113D41F9E7C
(1663746278.446053) can0 726#D39DD0394A74733E
(1663746278.457106) can0 726#299A2A62B7ECCA54
(1663746278.466459) can0 726#3A9EC518FBA36C5B
(1663746278.476358) can0 726#1F777464B71E7441
(1663746278.484234) can0 72E#300A140000000000
(1663746278.486497) can0 726#A4B5E8162B8B454A
(1663746278.496561) can0 726#C02C480FA36E4C0D
(1663746278.506639) can0 726#D4585D3563462675
(1663746278.517037) can0 726#EEB0593B7E2FB225
(1663746278.526869) can0 726#7F0BE244D6ED0166
(1663746278.537224) can0 726#B69DC8008F2F8768
(1663746278.547059) can0 726#59DD770CA5128429
(1663746278.557209) can0 726#117A437FFA37F604
(1663746278.565116) can0 72E#300A140000000000
(1663746278.567298) can0 726#2F800F28E247B529
(1663746278.575178) can0 72E#037F437200000000
(1663746278.577380) can0 726#E326884F5D30C944
(1663746278.587519) can0 726#17A5DF2547507963
(1663746278.595192) can0 72E#300A140000000000
(1663746278.597636) can0 726#31506741EA42B05F
(1663746278.607710) can0 726#91C4EC215AEA9123
(1663746278.618022) can0 726#A12F7B34CB62B23A
(1663746278.627919) can0 726#568EFE7EC0A6EF18
(1663746278.638045) can0 726#8381267CFA43E715
(1663746278.648117) can0 726#EB31356343AE6E0B
(1663746278.658228) can0 726#9DB23323C08A9218
(1663746278.668338) can0 726#A7F494008B638D5E
(1663746278.678458) can0 726#3EBA443E26007745
(1663746278.684509) can0 72E#037FDF7200000000
(1663746278.688536) can0 726#61518F44F4570D3F
(1663746278.698644) can0 726#B62FFE2DBB2E0751
(1663746278.708739) can0 726#996A9168C7A9412D
(1663746278.718849) can0 726#B566FD55C8EAA010
(1663746278.728973) can0 726#A9F1F656998D8525
(1663746278.739078) can0 726#251B6A55C096D67C
(1663746278.750025) can0 726#E0DDFE08566BD116
(1663746278.759257) can0 726#AAD9865C71A2EB2A
(1663746278.769357) can0 726#B155633A4B090211
(1663746278.779492) can0 726#3C059E6507E46139
(1663746278.789581) can0 726#0CB0F129BF86C461
(1663746278.795177) can0 72E#037FB01200000000
(1663746278.799718) can0 726#0128494FF7E1260D
(1663746278.804787) can0 72E#037F281200000000
(1663746278.809784) can0 726#0335336D9EDA7C72
(1663746278.817085) can0 72E#037F351100000000
(1663746278.819919) can0 726#B76CB925AA29C86D
(1663746278.830085) can0 726#293E0A51F526FE63
(1663746278.840186) can0 726#D0293F338B8F9915
(1663746278.850283) can0 726#E97E0B2386593D61
(1663746278.860402) can0 726#46BEA06682E99C0B
(1663746278.871134) can0 726#4E037F0EFB249E3C
(1663746278.880578) can0 726#4AD43D1CF7F47565
(1663746278.890692) can0 726#94B223626FEFA771
(1663746278.900792) can0 726#B88B4C627490226B
(1663746278.910896) can0 726#C65A79086265D33E
(1663746278.921005) can0 726#E5320E1677B0DC42
(1663746278.931103) can0 726#AE6ED54F2238AC7B
(1663746278.941709) can0 726#7E943E7CBA1EC779
(1663746278.951359) can0 726#E1BE705D7FBC874B
(1663746278.961468) can0 726#B100EE06E4F3A34A
(1663746278.971562) can0 726#1D97043E696DA72C
(1663746278.974669) can0 72E#300A140000000000
(1663746278.981708) can0 726#8E1D6C3846D50E0F
(1663746278.992246) can0 726#5E94A5105F47AB6B
(1663746279.001879) can0 726#D164A8244813B133
(1663746279.011972) can0 726#E5A0E84C1723490B
(1663746279.022083) can0 726#CAFC4D3F33A4675B
(1663746279.032630) can0 726#1348E74715D18B5B
(1663746279.034723) can0 72E#300A140000000000
(1663746279.042685) can0 726#2B99DD40A7FA0A2A
(1663746279.044899) can0 72E#037FE77200000000
(1663746279.052393) can0 726#84C0334DE3242A23
(1663746279.062514) can0 726#1C8B2D154A1BAD55
(1663746279.065134) can0 72E#300A140000000000
(1663746279.072635) can0 726#458AFD6101BE3B2B
(1663746279.082729) can0 726#C1CB8918F3F8D231
(1663746279.092849) can0 726#23F6E7263F60C814
(1663746279.095169) can0 72E#037F2D7200000000
(1663746279.102940) can0 726#AD179A2B05B55804
(1663746279.113076) can0 726#BE1C50605F188832
(1663746279.123147) can0 726#E9A8FC4EDBB3541E
(1663746279.133272) can0 726#C8852F5F78C66807
(1663746279.143479) can0 726#2289632D261AD56F
(1663746279.153474) can0 726#D70D1473F3ED0B52
(1663746279.163575) can0 726#6E2D8623BCAEFC3F
(1663746279.173671) can0 726#0B11555D392AD462
(1663746279.175633) can0 72E#037F111200000000
(1663746279.183800) can0 726#F052641B1E593C25
(1663746279.193935) can0 726#4EFB5F3E1BEC415C
(1663746279.203986) can0 726#C553474FD2BB930B
(1663746279.214127) can0 726#FE106C7FE1DE7464
(1663746279.224207) can0 726#1DD74061439B6961
(1663746279.235101) can0 726#E39CB00FDEA2CA79
(1663746279.248117) can0 726#37943C1306939836
(1663746279.254528) can0 726#1E03930EE4ABD63E
(1663746279.265068) can0 726#0B48F13ADC1FE36E
(1663746279.274718) can0 726#43C45E71F5F0ED09
(1663746279.275691) can0 72E#037F481200000000
(1663746279.284808) can0 726#B8D3370D0B4A8E50
(1663746279.296086) can0 726#6DB75611DA5C9B3A
(1663746279.305050) can0 726#3264634044C56A04
(1663746279.316028) can0 726#CD4AA70CA091E963
(1663746279.325280) can0 726#00746744D85BFC69
(1663746279.335332) can0 726#D9BBBD46F0C6CB5F
(1663746279.346302) can0 726#F6B4380F27B71D05
(1663746279.355547) can0 726#0BB30D3CBC08805E
(1663746279.365114) can0 72E#037FB31200000000
(1663746279.366997) can0 726#FA72B11009C4793B
(1663746279.375734) can0 726#9DE7F442174AF271
(1663746279.385849) can0 726#4D5FE31C8084A552
(1663746279.395940) can0 726#F5ECBC6B84F31F30
(1663746279.406071) can0 726#87173E0913F04F7A
(1663746279.417049) can0 726#689FF66E925F2F44
(1663746279.426248) can0 726#F00F3369AC635560
(1663746279.436356) can0 726#87501D4EA8E36A76
(1663746279.446541) can0 726#B7ADE330F407745F
(1663746279.457053) can0 726#82400631E9114771
(1663746279.466813) can0 726#38CDDE634F8BAD3D
(1663746279.476784) can0 726#8AA3305539414628
(1663746279.486888) can0 726#28E7A927635FEE1B
(1663746279.497006) can0 726#290812081E9CE236
(1663746279.507077) can0 726#8B160C2135BB1F44
(1663746279.517163) can0 726#DAA462158589BD31
(1663746279.527301) can0 726#3E7F997F788C5758
(1663746279.538096) can0 726#9CD3AF238BDE7C1C
(1663746279.547985) can0 726#F810FD2A91C06C0F
(1663746279.557614) can0 726#0FD29C4C7F283B34
(1663746279.565171) can0 72E#037FD21200000000
(1663746279.567691) can0 726#A5B0BC097871933B
(1663746279.577809) can0 726#12886A7895C0EF72
(1663746279.585222) can0 72E#300A140000000000
(1663746279.587929) can0 726#24D5E81B99D88746
(1663746279.596165) can0 72E#037F6A7200000000
(1663746279.598069) can0 726#3DA45A69DB82CC4C
(1663746279.608154) can0 726#8EE0FB25BFE4601A
(1663746279.619060) can0 726#C594133EC6ADDA09
(1663746279.628340) can0 726#0E700E584F384413
(1663746279.635242) can0 72E#037F701200000000
(1663746279.638460) can0 726#FFEE20323657B87F
(1663746279.648538) can0 726#B297322F29F7323A
(1663746279.658647) can0 726#55F39A363DAE3E50
(1663746279.668773) can0 726#5EB2527E2F98FD4B
(1663746279.678870) can0 726#C237FC019C31EC7D
(1663746279.688980) can0 726#A72455245E0BAC25
(1663746279.699087) can0 726#2810691AA035524F
(1663746279.709177) can0 726#F0CB183537E20567
