(1638437026.697235) can0 12D#8100000000000000
(1638437026.697479) can0 097#0170003001750025
(1638437026.697697) can0 120#0175000000000000
(1638437026.706867) can0 353#5B9E010111941981
(1638437026.708729) can0 0FC#0300000000000000
(1638437026.708969) can0 4B0#0000000000000000
(1638437026.709209) can0 210#21E0F8001021E000
(1638437026.709435) can0 085#03D7857C031E831B
(1638437026.709665) can0 090#02EE003180000000
(1638437026.713241) can0 200#03440251033FC000
(1638437026.713482) can0 207#0000000000000000
(1638437026.713721) can0 425#00FFFFFFFF028000
(1638437026.713976) can0 12D#8100000000000000
(1638437026.714215) can0 427#5022827EEB200500
(1638437026.714456) can0 44D#00400000326042C7
(1638437026.714682) can0 097#0170003001750025
(1638437026.714944) can0 120#0175000000000000
(1638437026.715182) can0 6F6#15F65BB872A0FA4F
(1638437026.728712) can0 090#02EE003180000000
(1638437026.728948) can0 4B0#0000000000000000
(1638437026.729179) can0 210#21E0F8001021E000
(1638437026.729413) can0 085#03D7857C031E831B
(1638437026.729658) can0 12D#8100000000000000
(1638437026.729896) can0 097#0170003001750025
(1638437026.730142) can0 120#0175000000000000
(1638437026.735409) can0 128#00D6000000000000
(1638437026.735668) can0 350#0400000000000000
(1638437026.735877) can0 437#2F2D010000000081
(1638437026.736137) can0 453#00000000031E3B00
(1638437026.745366) can0 230#00BE760668000000
(1638437026.745597) can0 12D#8100000000000000
(1638437026.745832) can0 097#0170003001750025
(1638437026.746078) can0 120#0175000000000000
(1638437026.748799) can0 090#02EE003180000000
(1638437026.749044) can0 4B0#0000000000000000
(1638437026.749280) can0 210#21E0F8001021E000
(1638437026.749509) can0 085#03D7857C031E831B
(1638437026.756790) can0 353#5B9E010111941981
(1638437026.761274) can0 200#03440251033FC000
(1638437026.761516) can0 12D#8100000000000000
(1638437026.761763) can0 097#0170003001750025
(1638437026.762012) can0 120#0175000000000000
(1638437026.762253) can0 207#0000000000000000
(1638437026.768677) can0 090#02EE003180000000
(1638437026.768924) can0 4B0#0000000000000000
(1638437026.769164) can0 210#21E0F8001021E000
(1638437026.769394) can0 085#03D8857C031E831B
(1638437026.777427) can0 12D#8100000000000000
(1638437026.777660) can0 097#0170003001750025
(1638437026.777915) can0 120#0175000000000000
(1638437026.783007) can0 340#001A000000000000
(1638437026.788630) can0 090#02EE003180000000
(1638437026.788879) can0 4B0#0000000000000000
(1638437026.789120) can0 210#21E0F8001021E000
(1638437026.789350) can0 085#03D7857C031E831B
(1638437026.793451) can0 12D#8100000000000000
(1638437026.793697) can0 097#0170003001750025
(1638437026.793935) can0 120#0175000000000000
(1638437026.805307) can0 307#0000000000000000
(1638437026.806700) can0 353#5B9E010111941981
(1638437026.808740) can0 090#02EE003180000000
(1638437026.808989) can0 4B0#0000000000000000
(1638437026.809229) can0 210#21E0F8001021E000
(1638437026.809459) can0 085#03D7857C031E831B
(1638437026.809707) can0 200#03440251033FC000
(1638437026.809951) can0 207#0000000000000000
(1638437026.810193) can0 230#00BE760668000000
(1638437026.810447) can0 425#00FFFFFFFF028000
(1638437026.810687) can0 12D#8100000000000000
(1638437026.810925) can0 427#5022827EEB200500
(1638437026.811165) can0 44D#00400000326042C7
(1638437026.811403) can0 097#0170003001750025
(1638437026.811650) can0 120#0175000000000000
(1638437026.825445) can0 12D#8100000000000000
(1638437026.825682) can0 097#0170003001750025
(1638437026.825928) can0 120#0175000000000000
(1638437026.828637) can0 090#02EE003180000000
(1638437026.828887) can0 4B0#0000000000000000
(1638437026.829142) can0 210#21E0F8001021E000
(1638437026.829357) can0 085#03D7857C031E831B
(1638437026.835297) can0 128#00D6000000000000
(1638437026.835544) can0 350#0400000000000000
(1638437026.835784) can0 437#2F2D010000000081
(1638437026.836025) can0 453#00000000031E3B00
(1638437026.841512) can0 12D#8100000000000000
(1638437026.841750) can0 097#0170003001750025
(1638437026.841995) can0 120#0175000000000000
(1638437026.848580) can0 090#02EE003180000000
(1638437026.848831) can0 4B0#0000000000000000
(1638437026.849070) can0 210#21E0F8001021E000
(1638437026.849301) can0 085#03D7857C031E831B
(1638437026.856699) can0 353#5B9E010111941981
(1638437026.857453) can0 200#03440251033FC000
(1638437026.857699) can0 12D#8100000000000000
(1638437026.857936) can0 097#0170003001750025
(1638437026.858182) can0 120#0175000000000000
(1638437026.858435) can0 207#0000000000000000
(1638437026.868730) can0 090#02EE003180000000
(1638437026.868978) can0 4B0#0000000000000000
(1638437026.869218) can0 210#21E0F8001021E000
(1638437026.869447) can0 085#03D7857C031E831B
(1638437026.873477) can0 230#00BE760668000000
(1638437026.873722) can0 12D#8100000000000000
(1638437026.873960) can0 097#0170003001750025
(1638437026.874207) can0 120#0175000000000000
(1638437026.881629) can0 340#001A000000000000
(1638437026.888607) can0 090#02EE003180000000
(1638437026.888857) can0 4B0#0000000000000000
(1638437026.889096) can0 210#21E0F8001021E000
(1638437026.889326) can0 085#03D7857C031E831B
(1638437026.889572) can0 12D#8100000000000000
(1638437026.889811) can0 097#0170003001750025
(1638437026.890057) can0 120#0175000000000000
(1638437026.905488) can0 200#03440251033FC000
(1638437026.905739) can0 207#0000000000000000
(1638437026.905987) can0 425#00FFFFFFFF028000
(1638437026.906233) can0 12D#8100000000000000
(1638437026.906471) can0 427#5022827EEB200500
(1638437026.906707) can0 353#5B9E010111941981
(1638437026.906945) can0 44D#00400000326042C7
(1638437026.907184) can0 097#0170003001750025
(1638437026.907429) can0 120#0175000000000000
(1638437026.908747) can0 0FC#0300000000000000
(1638437026.908997) can0 4B0#0000000000000000
(1638437026.909237) can0 210#21E0F8001021E000
(1638437026.909467) can0 085#03D7857C031E831B
(1638437026.909709) can0 090#02EE003180000000
(1638437026.921539) can0 12D#8100000000000000
(1638437026.921776) can0 097#0170003001750025
(1638437026.922021) can0 120#0175000000000000
(1638437026.928572) can0 090#02EE003180000000
(1638437026.928819) can0 4B0#0000000000000000
(1638437026.929060) can0 210#21E0F8001021E000
(1638437026.929289) can0 085#03D7857C031E831B
(1638437026.935273) can0 128#00D6000000000000
(1638437026.935520) can0 350#0400000000000000
(1638437026.935761) can0 437#2F2D010000000081
(1638437026.936001) can0 453#00000000031E3B00
(1638437026.937374) can0 230#00BE760668000000
(1638437026.937619) can0 12D#8100000000000000
(1638437026.937857) can0 097#0170003001750025
(1638437026.938103) can0 120#0175000000000000
(1638437026.948590) can0 090#02EE003180000000
(1638437026.948838) can0 4B0#0000000000000000
(1638437026.949079) can0 210#21E0F8001021E000
(1638437026.949308) can0 085#03D7857C031E831B
(1638437026.953355) can0 200#03440251033FC000
(1638437026.953601) can0 12D#8100000000000000
(1638437026.953839) can0 097#0170003001750025
(1638437026.954085) can0 120#0175000000000000
(1638437026.954337) can0 207#0000000000000000
(1638437026.954568) can0 6F6#15F65BB872A0FA4F
(1638437026.956686) can0 353#5B9E010111941981
(1638437026.968550) can0 090#02EE003180000000
(1638437026.968798) can0 4B0#0000000000000000
(1638437026.969037) can0 210#21E0F8001021E000
(1638437026.969268) can0 085#03D7857C031E831B
(1638437026.969513) can0 12D#8100000000000000
(1638437026.969752) can0 097#0170003001750025
(1638437026.969997) can0 120#0175000000000000
(1638437026.981482) can0 340#001A000000000000
(1638437026.985387) can0 12D#8100000000000000
(1638437026.985625) can0 097#0170003001750025
(1638437026.985871) can0 120#0175000000000000
(1638437026.988558) can0 090#02EE003180000000
(1638437026.988808) can0 4B0#0000000000000000
(1638437026.989048) can0 210#21E0F8001021E000
(1638437026.989278) can0 085#03D7857C031E831B
(1638437027.001399) can0 200#03440251033FC000
(1638437027.001642) can0 207#0000000000000000
(1638437027.001884) can0 230#00BE760668000000
(1638437027.002131) can0 425#00FFFFFFFF028000
(1638437027.002377) can0 12D#8100000000000000
(1638437027.002615) can0 427#5022827EEB200500
(1638437027.002855) can0 44D#00400000326042C7
(1638437027.003094) can0 097#0170003001750025
(1638437027.003340) can0 120#0175000000000000
(1638437027.006685) can0 353#5B9E010111941981
(1638437027.008689) can0 090#02EE003180000000
(1638437027.008938) can0 4B0#0000000000000000
(1638437027.009176) can0 210#21E0F8001021E000
(1638437027.009406) can0 085#03D7857C031E831B
(1638437027.017439) can0 12D#8100000000000000
(1638437027.017674) can0 097#0170003001750025
(1638437027.017920) can0 120#0175000000000000
(1638437027.028557) can0 090#02EE003180000000
(1638437027.028805) can0 4B0#0000000000000000
(1638437027.029045) can0 210#21E0F8001021E000
(1638437027.029275) can0 085#03D8857C031E831B
(1638437027.033426) can0 12D#8100000000000000
(1638437027.033664) can0 097#0170003001750025
(1638437027.033911) can0 120#0175000000000000
(1638437027.035284) can0 128#00D6000000000000
(1638437027.035533) can0 350#0400000000000000
(1638437027.035772) can0 437#2F2D010000000081
(1638437027.036012) can0 453#00000000031E3B00
(1638437027.048527) can0 090#02EE003180000000
(1638437027.048776) can0 4B0#0000000000000000
(1638437027.049015) can0 210#21E0F8001021E000
(1638437027.049246) can0 085#03D7857C031E831B
(1638437027.049491) can0 12D#8100000000000000
(1638437027.049729) can0 097#0170003001750025
(1638437027.049976) can0 120#0175000000000000
(1638437027.050215) can0 200#03440251033FC000
(1638437027.050467) can0 207#0000000000000000
(1638437027.056677) can0 353#5B9E010111941981
(1638437027.065449) can0 230#00BE760668000000
(1638437027.065695) can0 12D#8100000000000000
(1638437027.065932) can0 097#0170003001750025
(1638437027.066178) can0 120#0175000000000000
(1638437027.068567) can0 090#02EE003180000000
(1638437027.068816) can0 4B0#0000000000000000
(1638437027.069056) can0 210#21E0F8001021E000
(1638437027.069285) can0 085#03D7857C031E831B
(1638437027.081420) can0 340#001A000000000000
(1638437027.081666) can0 12D#8100000000000000
(1638437027.081903) can0 097#0170003001750025
(1638437027.082149) can0 120#0175000000000000
(1638437027.088524) can0 090#02EE003180000000
(1638437027.088773) can0 4B0#0000000000000000
(1638437027.089013) can0 210#21E0F8001021E000
(1638437027.089243) can0 085#03D7857C031E831B
(1638437027.097455) can0 200#03440251033FC000
(1638437027.097706) can0 207#0000000000000000
(1638437027.097953) can0 425#00FFFFFFFF028000
(1638437027.098199) can0 12D#8100000000000000
(1638437027.098438) can0 427#5022827EEB200500
(1638437027.098678) can0 44D#00400000326042C7
(1638437027.098915) can0 097#0170003001750025
(1638437027.099161) can0 120#0175000000000000
(1638437027.106672) can0 353#5B9E010111941981
(1638437027.108587) can0 0FC#0300000000000000
(1638437027.108836) can0 4B0#0000000000000000
(1638437027.109076) can0 210#21E0F8001021E000
(1638437027.109306) can0 085#03D7857C031E831B
(1638437027.109547) can0 090#02EE003180000000
(1638437027.113497) can0 12D#8100000000000000
(1638437027.113735) can0 097#0170003001750025
(1638437027.113981) can0 120#0175000000000000
(1638437027.128536) can0 090#02EE003180000000
(1638437027.128784) can0 4B0#0000000000000000
(1638437027.129023) can0 210#21E0F8001021E000
(1638437027.129255) can0 085#03D7857C031F831B
(1638437027.129501) can0 12D#8100000000000000
(1638437027.129739) can0 097#0170003001750025
(1638437027.129985) can0 120#0175000000000000
(1638437027.130228) can0 230#00BE760668000000
(1638437027.135227) can0 128#00D6000000000000
(1638437027.135474) can0 350#0400000000000000
(1638437027.135714) can0 403#02047F2424000000
(1638437027.135955) can0 437#2F2D010000000081
(1638437027.136195) can0 453#00000000031E3B00
(1638437027.145595) can0 200#03440251033FC000
(1638437027.145841) can0 12D#8100000000000000
(1638437027.146079) can0 097#0170003001750025
(1638437027.146325) can0 120#0175000000000000
(1638437027.146577) can0 207#0000000000000000
(1638437027.148647) can0 090#02EE003180000000
(1638437027.148896) can0 4B0#0000000000000000
(1638437027.149136) can0 210#21E0F8001021E000
(1638437027.149368) can0 085#03D7857C031F831B
(1638437027.156673) can0 353#5B9E010111941981
(1638437027.161524) can0 12D#8100000000000000
(1638437027.161762) can0 097#0170003001750025
(1638437027.162008) can0 120#0175000000000000
(1638437027.168518) can0 090#02EE003180000000
(1638437027.168766) can0 4B0#0000000000000000
(1638437027.169006) can0 210#21E0F8001021E000
(1638437027.169238) can0 085#03D8857C031E831B
(1638437027.177535) can0 12D#8100000000000000
(1638437027.177771) can0 097#0170003001750025
(1638437027.178017) can0 120#0175000000000000
(1638437027.181250) can0 340#001A000000000000
(1638437027.188527) can0 090#02EE003180000000
(1638437027.188776) can0 4B0#0000000000000000
(1638437027.189017) can0 210#21E0F8001021E000
(1638437027.189246) can0 085#03D8857C031E831B
(1638437027.193543) can0 200#03440251033FC000
(1638437027.193797) can0 207#0000000000000000
(1638437027.194038) can0 230#00BE760668000000
(1638437027.194286) can0 425#00FFFFFFFF028000
(1638437027.194532) can0 12D#8100000000000000
(1638437027.194769) can0 427#5022827EEB200500
(1638437027.195010) can0 44D#00400000326042C7
(1638437027.195247) can0 097#0170003001750025
(1638437027.195493) can0 120#0175000000000000
(1638437027.195723) can0 6F6#15F65BB872A0FA4F
(1638437027.206663) can0 353#5B9E010111941981
(1638437027.208515) can0 090#02EE003180000000
(1638437027.208765) can0 4B0#0000000000000000
(1638437027.209005) can0 210#21E0F8001021E000
(1638437027.209235) can0 085#03D7857C031E831B
(1638437027.209559) can0 12D#8100000000000000
(1638437027.209793) can0 097#0170003001750025
(1638437027.210038) can0 120#0175000000000000
(1638437027.225567) can0 12D#8100000000000000
(1638437027.225804) can0 097#0170003001750025
(1638437027.226049) can0 120#0175000000000000
(1638437027.228523) can0 090#02EE003180000000
(1638437027.228770) can0 4B0#0000000000000000
(1638437027.229010) can0 210#21E0F8001021E000
(1638437027.229240) can0 085#03D7857C031E831B
(1638437027.235209) can0 128#00D6000000000000
(1638437027.235449) can0 350#0400000000000000
(1638437027.235689) can0 437#2F2D010000000081
(1638437027.235929) can0 453#00000000031E3B00
(1638437027.241601) can0 200#03440251033FC000
(1638437027.241846) can0 12D#8100000000000000
(1638437027.242085) can0 097#0170003001750025
(1638437027.242330) can0 120#0175000000000000
(1638437027.242582) can0 207#0000000000000000
(1638437027.248548) can0 090#02EE003180000000
(1638437027.248797) can0 4B0#0000000000000000
(1638437027.249037) can0 210#21E0F8001021E000
(1638437027.249267) can0 085#03D7857C031E831B
(1638437027.256658) can0 353#5B9E010111941981
(1638437027.257776) can0 230#00BE760668000000
(1638437027.258021) can0 12D#8100000000000000
(1638437027.258259) can0 097#0170003001750025
(1638437027.258505) can0 120#0175000000000000
(1638437027.268541) can0 090#02EE003180000000
(1638437027.268789) can0 4B0#0000000000000000
(1638437027.269029) can0 210#21E0F8001021E000
(1638437027.269259) can0 085#03D7857C031E831B
(1638437027.273820) can0 12D#8100000000000000
(1638437027.274058) can0 097#0170003001750025
(1638437027.274304) can0 120#0175000000000000
(1638437027.281314) can0 340#001A000000000000
(1638437027.288493) can0 090#02EE003180000000
(1638437027.288742) can0 4B0#0000000000000000
(1638437027.288995) can0 210#21E0F8001021E000
(1638437027.289213) can0 085#03D7857C031E831B
(1638437027.289762) can0 200#03440251033FC000
(1638437027.290015) can0 207#0000000000000000
(1638437027.290262) can0 425#00FFFFFFFF028000
(1638437027.290508) can0 12D#8100000000000000
(1638437027.290747) can0 427#5022827EEB200500
(1638437027.290986) can0 44D#00400000326042C7
(1638437027.291225) can0 097#0170003001750025
(1638437027.291470) can0 120#0175000000000000
(1638437027.291712) can0 623#3644128200000000
(1638437027.291950) can0 640#50600077400C8600
(1638437027.292198) can0 650#1142000000000000
(1638437027.305810) can0 12D#8100000000000000
(1638437027.306047) can0 097#0170003001750025
(1638437027.306294) can0 120#0175000000000000
(1638437027.306661) can0 353#5B9E010111941981
(1638437027.308517) can0 0FC#0300000000000000
(1638437027.308767) can0 4B0#0000000000000000
(1638437027.309006) can0 210#21E0F8001021E000
(1638437027.309237) can0 085#03D7857C031E831B
(1638437027.309479) can0 090#02EE003180000000
(1638437027.315188) can0 307#0000000000000000
(1638437027.321833) can0 230#00BE760668000000
(1638437027.322078) can0 12D#8100000000000000
(1638437027.322316) can0 097#0170003001750025
(1638437027.322562) can0 120#0175000000000000
(1638437027.328494) can0 090#02EE003180000000
(1638437027.328742) can0 4B0#0000000000000000
(1638437027.328983) can0 210#21E0F8001021E000
(1638437027.329213) can0 085#03D7857C031E831B
(1638437027.335178) can0 128#00D6000000000000
(1638437027.335426) can0 350#0400000000000000
(1638437027.335666) can0 437#2F2D010000000081
(1638437027.335906) can0 453#00000000031E3B00
(1638437027.337848) can0 200#03440251033FC000
(1638437027.338094) can0 12D#8100000000000000
(1638437027.338331) can0 097#0170003001750025
(1638437027.338577) can0 120#0175000000000000
(1638437027.338830) can0 207#0000000000000000
(1638437027.348522) can0 090#02EE003180000000
(1638437027.348771) can0 4B0#0000000000000000
(1638437027.349011) can0 210#21E0F8001021E000
(1638437027.349241) can0 085#03D7857C031E831B
(1638437027.353846) can0 12D#8100000000000000
(1638437027.354084) can0 097#0170003001750025
(1638437027.354330) can0 120#0175000000000000
(1638437027.356649) can0 353#5B9E010111941981
(1638437027.368490) can0 090#02EE003180000000
(1638437027.368739) can0 4B0#0000000000000000
(1638437027.368979) can0 210#21E0F8001021E000
(1638437027.369209) can0 085#03D7857C031E831B
(1638437027.369843) can0 12D#8100000000000000
(1638437027.370081) can0 097#0170003001750025
(1638437027.370327) can0 120#0175000000000000
(1638437027.381000) can0 340#001A000000000000
(1638437027.385853) can0 200#03440251033FC000
(1638437027.386105) can0 207#0000000000000000
(1638437027.386347) can0 230#00BE760668000000
(1638437027.386595) can0 425#00FFFFFFFF028000
(1638437027.386844) can0 12D#8100000000000000
(1638437027.387079) can0 427#5022827EEB200500
(1638437027.387319) can0 44D#00400000326042C7
(1638437027.387557) can0 097#0170003001750025
(1638437027.387803) can0 120#0175000000000000
(1638437027.388660) can0 090#02EE003180000000
(1638437027.388910) can0 4B0#0000000000000000
(1638437027.389150) can0 210#21E0F8001021E000
(1638437027.389380) can0 085#03D7857C031E831B
(1638437027.401891) can0 12D#8100000000000000
(1638437027.402128) can0 097#0170003001750025
(1638437027.402374) can0 120#0175000000000000
(1638437027.406643) can0 353#5B9E010111941981
(1638437027.408503) can0 090#02EE003180000000
(1638437027.408753) can0 4B0#0000000000000000
(1638437027.408992) can0 210#21E0F8001021E000
(1638437027.409222) can0 085#03D7857C031E831B
(1638437027.417746) can0 12D#8100000000000000
(1638437027.417981) can0 097#0170003001750025
(1638437027.418228) can0 120#0175000000000000
(1638437027.428476) can0 090#02EE003180000000
(1638437027.428726) can0 4B0#0000000000000000
(1638437027.428966) can0 210#21E0F8001021E000
(1638437027.429195) can0 085#03D7857C031E831B
(1638437027.433721) can0 200#03440251033FC000
(1638437027.433973) can0 207#0000000000000000
(1638437027.434219) can0 4C0#1F2E4E0000000000
(1638437027.434465) can0 12D#8100000000000000
(1638437027.434703) can0 097#0170003001750025
(1638437027.434949) can0 120#0175000000000000
(1638437027.435199) can0 128#00D6000000000000
(1638437027.435447) can0 350#0400000000000000
(1638437027.435687) can0 437#2F2D010000000081
(1638437027.435927) can0 453#00000000031E3B00
(1638437027.436157) can0 6F6#15F65BB872A0FA4F
(1638437027.448467) can0 090#02EE003180000000
(1638437027.448715) can0 4B0#0000000000000000
(1638437027.448954) can0 210#21E0F8001021E000
(1638437027.449184) can0 085#03D7857C031E831B
(1638437027.449744) can0 230#00BE760668000000
(1638437027.449990) can0 12D#8100000000000000
(1638437027.450229) can0 097#0170003001750025
(1638437027.450481) can0 120#0175000000000000
(1638437027.456648) can0 353#5B9E010111941981
(1638437027.465779) can0 12D#8100000000000000
(1638437027.466017) can0 097#0170003001750025
(1638437027.466263) can0 120#0175000000000000
(1638437027.468476) can0 090#02EE003180000000
(1638437027.468725) can0 4B0#0000000000000000
(1638437027.468965) can0 210#21E0F8001021E000
(1638437027.469195) can0 085#03D8857C031E831B
(1638437027.481226) can0 340#001A000000000000
(1638437027.481886) can0 200#03440251033FC000
(1638437027.482065) can0 207#0000000000000000
(1638437027.482390) can0 425#00FFFFFFFF028000
(1638437027.482567) can0 12D#8100000000000000
(1638437027.482888) can0 427#5022827EEB200500
(1638437027.483062) can0 44D#00400000326042C7
(1638437027.483459) can0 097#0170003001750025
(1638437027.483640) can0 120#0175000000000000
(1638437027.488619) can0 090#02EE003180000000
(1638437027.488798) can0 4B0#0000000000000000
(1638437027.489087) can0 210#21E0F8001021E000
(1638437027.489263) can0 085#03D8857C031E831B
(1638437027.497941) can0 12D#8100000000000000
(1638437027.498118) can0 097#0170003001750025
(1638437027.498429) can0 120#0175000000000000
(1638437027.506834) can0 353#5B9E010111941981
(1638437027.508627) can0 0FC#0300000000000000
(1638437027.508816) can0 4B0#0000000000000000
(1638437027.509100) can0 210#21E0F8001021E000
(1638437027.509286) can0 085#03D7857C031E831B
(1638437027.509586) can0 090#02EE003180000000
(1638437027.513934) can0 230#00BE760668000000
(1638437027.514126) can0 12D#8100000000000000
(1638437027.514408) can0 097#0170003001750025
(1638437027.514585) can0 120#0175000000000000
(1638437027.528593) can0 090#02EE003180000000
(1638437027.528828) can0 4B0#0000000000000000
(1638437027.529007) can0 210#21E0F8001021E000
(1638437027.529297) can0 085#03D7857C031E831B
(1638437027.529920) can0 200#03440251033FC000
(1638437027.530090) can0 12D#8100000000000000
(1638437027.530364) can0 097#0170003001750025
(1638437027.530540) can0 120#0175000000000000
(1638437027.530926) can0 207#0000000000000000
(1638437027.535269) can0 128#00D6000000000000
(1638437027.535456) can0 350#0400000000000000
(1638437027.535738) can0 437#2F2D010000000081
(1638437027.535913) can0 453#00000000031E3B00
(1638437027.546070) can0 12D#8100000000000000
(1638437027.546257) can0 097#0170003001750025
(1638437027.546569) can0 120#0175000000000000
(1638437027.548574) can0 090#02EE003180000000
(1638437027.548752) can0 4B0#0000000000000000
(1638437027.549069) can0 210#21E0F8001021E000
(1638437027.549242) can0 085#03D7857C031E831B
(1638437027.556819) can0 353#5B9E010111941981
(1638437027.561992) can0 12D#8100000000000000
(1638437027.562178) can0 097#0170003001750025
(1638437027.562463) can0 120#0175000000000000
(1638437027.568555) can0 090#02EE003180000000
(1638437027.568734) can0 4B0#0000000000000000
(1638437027.569043) can0 210#21E0F8001021E000
(1638437027.569222) can0 085#03D8857C031E831B
(1638437027.577988) can0 200#03440251033FC000
(1638437027.578166) can0 207#0000000000000000
(1638437027.578476) can0 230#00BE760668000000
(1638437027.578691) can0 425#00FFFFFFFF028000
(1638437027.578871) can0 12D#8100000000000000
(1638437027.579200) can0 427#5022827EEB200500
(1638437027.579376) can0 44D#00400000326042C7
(1638437027.579650) can0 097#0170003001750025
(1638437027.579825) can0 120#0175000000000000
(1638437027.580862) can0 340#001A000000000000
(1638437027.588613) can0 090#02EE003180000000
(1638437027.588865) can0 4B0#0000000000000000
(1638437027.589098) can0 210#21E0F8001021E000
(1638437027.589327) can0 085#03D7857C031E831B
(1638437027.593927) can0 12D#8100000000000000
(1638437027.594164) can0 097#0170003001750025
(1638437027.594413) can0 120#0175000000000000
(1638437027.606701) can0 353#5B9E010111941981
(1638437027.608470) can0 090#02EE003180000000
(1638437027.608718) can0 4B0#0000000000000000
(1638437027.608965) can0 210#21E0F8001021E000
(1638437027.609210) can0 085#03D7857C031E831B
(1638437027.609907) can0 12D#8100000000000000
(1638437027.610147) can0 097#0170003001750025
(1638437027.610399) can0 120#0175000000000000
(1638437027.625926) can0 200#03440251033FC000
(1638437027.626164) can0 12D#8100000000000000
(1638437027.626408) can0 097#0170003001750025
(1638437027.626659) can0 120#0175000000000000
(1638437027.626902) can0 207#0000000000000000
(1638437027.628496) can0 090#02EE003180000000
(1638437027.628750) can0 4B0#0000000000000000
(1638437027.629004) can0 210#21E0F8001021E000
(1638437027.629262) can0 085#03D8857C031E831B
(1638437027.635167) can0 128#00D6000000000000
(1638437027.635419) can0 350#0400000000000000
(1638437027.635686) can0 403#02047F2424000000
(1638437027.635906) can0 437#2F2D010000000081
(1638437027.636136) can0 453#00000000031E3B00
(1638437027.641980) can0 230#00BE760668000000
(1638437027.642213) can0 12D#8100000000000000
(1638437027.642468) can0 097#0170003001750025
(1638437027.642695) can0 120#0175000000000000
(1638437027.648486) can0 090#02EE003180000000
(1638437027.648715) can0 4B0#0000000000000000
(1638437027.648957) can0 210#21E0F8001021E000
(1638437027.649188) can0 085#03D8857C031E831B
(1638437027.656698) can0 353#5B9E010111941981
(1638437027.657978) can0 12D#8100000000000000
(1638437027.658202) can0 097#0170003001750025
(1638437027.658473) can0 120#0175000000000000
(1638437027.668480) can0 090#02EE003180000000
(1638437027.668710) can0 4B0#0000000000000000
(1638437027.668963) can0 210#21E0F8001021E000
(1638437027.669191) can0 085#03D7857C031E831B
(1638437027.673996) can0 200#03440251033FC000
(1638437027.674225) can0 207#0000000000000000
(1638437027.674473) can0 425#00FFFFFFFF028000
(1638437027.674719) can0 12D#8100000000000000
(1638437027.674958) can0 427#5022827EEB200500
(1638437027.675217) can0 44D#00400000326042C7
(1638437027.675438) can0 097#0170003001750025
(1638437027.675690) can0 120#0175000000000000
(1638437027.675913) can0 6F6#1573688B27EDBD51
(1638437027.681554) can0 340#001A000000000000
(1638437027.683545) can0 454#0000000000000000
(1638437027.688428) can0 090#02EE003180000000
(1638437027.688644) can0 4B0#0000000000000000
(1638437027.688887) can0 210#21E0F8001021E000
(1638437027.689119) can0 085#03D7857C031E831B
(1638437027.689986) can0 12D#8100000000000000
(1638437027.690229) can0 097#0170003001750025
(1638437027.690444) can0 120#0175000000000000
(1638437027.705952) can0 230#00BE760668000000
(1638437027.706178) can0 12D#8100000000000000
(1638437027.706420) can0 097#0170003001750025
(1638437027.706656) can0 120#0175000000000000
(1638437027.706890) can0 353#5B9E010111941981
(1638437027.708465) can0 0FC#0300000000000000
(1638437027.708694) can0 4B0#0000000000000000
(1638437027.708933) can0 210#21E0F8001021E000
(1638437027.709184) can0 085#03D7857C031E831B
(1638437027.709407) can0 090#02EE003180000000
(1638437027.721994) can0 200#03440251033FC000
(1638437027.722224) can0 12D#8100000000000000
(1638437027.722462) can0 097#0170003001750025
(1638437027.722707) can0 120#0175000000000000
(1638437027.722958) can0 207#0000000000000000
(1638437027.728427) can0 090#02EE003180000000
(1638437027.728673) can0 4B0#0000000000000000
(1638437027.728913) can0 210#21E0F8001021E000
(1638437027.729143) can0 085#03D7857C031E831B
(1638437027.735106) can0 128#00D6000000000000
(1638437027.735354) can0 350#0400000000000000
(1638437027.735594) can0 437#2F2D010000000081
(1638437027.735834) can0 453#00000000031E3B00
(1638437027.738216) can0 12D#8100000000000000
(1638437027.738450) can0 097#0170003001750025
(1638437027.738696) can0 120#0175000000000000
(1638437027.748403) can0 090#02EE003180000000
(1638437027.748652) can0 4B0#0000000000000000
(1638437027.748899) can0 210#21E0F8001021E000
(1638437027.749122) can0 085#03D7857C031E831B
(1638437027.754181) can0 12D#8100000000000000
(1638437027.754432) can0 097#0170003001750025
(1638437027.754665) can0 120#0175000000000000
(1638437027.756646) can0 353#5B9E010111941981
(1638437027.768386) can0 090#02EE003180000000
(1638437027.768636) can0 4B0#0000000000000000
(1638437027.768875) can0 210#21E0F8001021E000
(1638437027.769105) can0 085#03D7857C031E831B
(1638437027.770209) can0 200#03440251033FC000
(1638437027.770473) can0 207#0000000000000000
(1638437027.770703) can0 230#00BE760668000000
(1638437027.770951) can0 425#00FFFFFFFF028000
(1638437027.771197) can0 12D#8100000000000000
(1638437027.771435) can0 427#5022827EEB200500
(1638437027.771674) can0 44D#00400000326042C7
(1638437027.771912) can0 097#0170003001750025
(1638437027.772158) can0 120#0175000000000000
(1638437027.781405) can0 340#001A000000000000
(1638437027.786174) can0 12D#8100000000000000
(1638437027.786411) can0 097#0170003001750025
(1638437027.786657) can0 120#0175000000000000
(1638437027.788434) can0 090#02EE003180000000
(1638437027.788683) can0 4B0#0000000000000000
(1638437027.788922) can0 210#21E0F8001021E000
(1638437027.789153) can0 085#03D7857C031E831B
(1638437027.802221) can0 12D#8100000000000000
(1638437027.802458) can0 097#0170003001750025
(1638437027.802723) can0 120#0175000000000000
(1638437027.805101) can0 307#0000000000000000
(1638437027.806637) can0 353#5B9E010111941981
(1638437027.808457) can0 090#02EE003180000000
(1638437027.808704) can0 4B0#0000000000000000
(1638437027.808944) can0 210#21E0F8001021E000
(1638437027.809176) can0 085#03D7857C031E831B
(1638437027.818254) can0 200#03440251033FC000
(1638437027.818499) can0 12D#8100000000000000
(1638437027.818737) can0 097#0170003001750025
(1638437027.818983) can0 120#0175000000000000
(1638437027.819234) can0 207#0000000000000000
(1638437027.828436) can0 090#02EE003180000000
(1638437027.828686) can0 4B0#0000000000000000
(1638437027.828926) can0 210#21E0F8001021E000
(1638437027.829155) can0 085#03D7857C031E831B
(1638437027.834232) can0 230#00BE760668000000
(1638437027.834478) can0 12D#8100000000000000
(1638437027.834715) can0 097#0170003001750025
(1638437027.834961) can0 120#0175000000000000
(1638437027.835211) can0 128#00D6000000000000
(1638437027.835460) can0 350#0400000000000000
(1638437027.835701) can0 437#2F2D010000000081
(1638437027.835940) can0 453#00000000031E3B00
(1638437027.848381) can0 090#02EE003180000000
(1638437027.848626) can0 4B0#0000000000000000
(1638437027.848867) can0 210#21E0F8001021E000
(1638437027.849097) can0 085#03D7857C031E831B
(1638437027.850289) can0 12D#8100000000000000
(1638437027.850526) can0 097#0170003001750025
(1638437027.850774) can0 120#0175000000000000
(1638437027.856634) can0 353#5B9E010111941981
(1638437027.866237) can0 200#03440251033FC000
(1638437027.866489) can0 207#0000000000000000
(1638437027.866757) can0 425#00FFFFFFFF028000
(1638437027.866983) can0 12D#8100000000000000
(1638437027.867220) can0 427#5022827EEB200500
(1638437027.867460) can0 44D#00400000326042C7
(1638437027.867699) can0 097#0170003001750025
(1638437027.867945) can0 120#0175000000000000
(1638437027.868518) can0 090#02EE003180000000
(1638437027.868768) can0 4B0#0000000000000000
(1638437027.869008) can0 210#21E0F8001021E000
(1638437027.869238) can0 085#03D7857C031E831B
(1638437027.879579) can0 340#001A000000000000
(1638437027.882355) can0 12D#8100000000000000
(1638437027.882588) can0 097#0170003001750025
(1638437027.882832) can0 120#0175000000000000
(1638437027.888464) can0 090#02EE003180000000
(1638437027.888721) can0 4B0#0000000000000000
(1638437027.888960) can0 210#21E0F8001021E000
(1638437027.889200) can0 085#03D7857C031E831B
(1638437027.898193) can0 230#00BE760668000000
(1638437027.898420) can0 12D#8100000000000000
(1638437027.898661) can0 097#0170003001750025
(1638437027.898904) can0 120#0175000000000000
(1638437027.906711) can0 353#5B9E010111941981
(1638437027.908501) can0 0FC#0300000000000000
(1638437027.908757) can0 4B0#0000000000000000
(1638437027.908998) can0 210#21E0F8001021E000
(1638437027.909236) can0 085#03D7857C031E831B
(1638437027.909475) can0 090#02EE003180000000
(1638437027.914219) can0 200#03440251033FC000
(1638437027.914446) can0 12D#8100000000000000
(1638437027.914715) can0 097#0170003001750025
(1638437027.914953) can0 120#0175000000000000
(1638437027.915194) can0 207#0000000000000000
(1638437027.915434) can0 6F6#1573688B27EDBD51
(1638437027.928451) can0 090#02EE003180000000
(1638437027.928683) can0 4B0#0000000000000000
(1638437027.928923) can0 210#21E0F8001021E000
(1638437027.929160) can0 085#03D7857C031E831B
(1638437027.930216) can0 12D#8100000000000000
(1638437027.930442) can0 097#0170003001750025
(1638437027.930701) can0 120#0175000000000000
(1638437027.935130) can0 128#00D6000000000000
(1638437027.935376) can0 350#0400000000000000
(1638437027.935616) can0 437#2F2D010000000081
(1638437027.935856) can0 453#00000000031E3B00
(1638437027.946335) can0 12D#8100000000000000
(1638437027.946563) can0 097#0170003001750025
(1638437027.946838) can0 120#0175000000000000
(1638437027.948465) can0 090#02EE003180000000
(1638437027.948721) can0 4B0#0000000000000000
(1638437027.948960) can0 210#21E0F8001021E000
(1638437027.949201) can0 085#03D7857C031E831B
(1638437027.956695) can0 353#5B9E010111941981
(1638437027.962244) can0 200#03440251033FC000
(1638437027.962502) can0 207#0000000000000000
(1638437027.962742) can0 230#00BE760668000000
(1638437027.962977) can0 425#00FFFFFFFF028000
(1638437027.963221) can0 12D#8100000000000000
(1638437027.963459) can0 427#5022827EEB200500
(1638437027.963701) can0 44D#00400000326042C7
(1638437027.963936) can0 097#0170003001750025
(1638437027.964202) can0 120#0175000000000000
(1638437027.968493) can0 090#02EE003180000000
(1638437027.968734) can0 4B0#0000000000000000
(1638437027.968961) can0 210#21E0F8001021E000
(1638437027.969205) can0 085#03D7857C031E831B
(1638437027.978255) can0 12D#8100000000000000
(1638437027.978485) can0 097#0170003001750025
(1638437027.978736) can0 120#0175000000000000
(1638437027.981217) can0 340#001A000000000000
(1638437027.988418) can0 090#02EE003180000000
(1638437027.988664) can0 4B0#0000000000000000
(1638437027.988908) can0 210#21E0F8001021E000
(1638437027.989139) can0 085#03D8857C031E831B
(1638437027.994262) can0 12D#8100000000000000
(1638437027.994495) can0 097#0170003001750025
(1638437027.994743) can0 120#0175000000000000
(1638437028.006657) can0 353#5B9E010111941A81
(1638437028.008445) can0 090#02EE003180000000
(1638437028.008701) can0 4B0#0000000000000000
(1638437028.008937) can0 210#21E0F8001021E000
(1638437028.009201) can0 085#03D7857C031E831B
(1638437028.010265) can0 200#03440251033FC000
(1638437028.010509) can0 12D#8100000000000000
(1638437028.010749) can0 097#0170003001750025
(1638437028.010994) can0 120#0175000000000000
(1638437028.011251) can0 207#0000000000000000
(1638437028.026221) can0 230#00BE760668000000
(1638437028.026457) can0 12D#8100000000000000
(1638437028.026710) can0 097#0170003001750025
(1638437028.026962) can0 120#0175000000000000
(1638437028.028515) can0 090#02EE003180000000
(1638437028.028771) can0 4B0#0000000000000000
(1638437028.028994) can0 210#21E0F8001021E000
(1638437028.029224) can0 085#03D7857C031E831B
(1638437028.035090) can0 128#00D6000000000000
(1638437028.035346) can0 350#0400000000000000
(1638437028.035567) can0 437#2F2D010000000081
(1638437028.035804) can0 453#00000000031E3B00
(1638437028.042318) can0 12D#8100000000000000
(1638437028.042566) can0 097#0170003001750025
(1638437028.042787) can0 120#0175000000000000
(1638437028.048419) can0 090#02EE003180000000
(1638437028.048671) can0 4B0#0000000000000000
(1638437028.048894) can0 210#21E0F8001021E000
(1638437028.049127) can0 085#03D7857C031E831B
(1638437028.056674) can0 353#5B9E010111941981
(1638437028.058284) can0 200#03440251033FC000
(1638437028.058537) can0 207#0000000000000000
(1638437028.058792) can0 425#00FFFFFFFF028000
(1638437028.059074) can0 12D#8100000000000000
(1638437028.059277) can0 427#5022827EEB200500
(1638437028.059503) can0 44D#00400000326042C7
(1638437028.059754) can0 097#0170003001750025
(1638437028.060028) can0 120#0175000000000000
(1638437028.068518) can0 090#02EE003180000000
(1638437028.068754) can0 4B0#0000000000000000
(1638437028.068996) can0 210#21E0F8001021E000
(1638437028.069233) can0 085#03D7857C031E831B
(1638437028.074288) can0 12D#8100000000000000
(1638437028.074516) can0 097#0170003001750025
(1638437028.074760) can0 120#0175000000000000
(1638437028.079341) can0 340#001A000000000000
(1638437028.088395) can0 090#02EE003180000000
(1638437028.088639) can0 4B0#0000000000000000
(1638437028.088874) can0 210#21E0F8001021E000
(1638437028.089100) can0 085#03D7857C031E831B
(1638437028.090297) can0 230#00BE760668000000
(1638437028.090541) can0 12D#8100000000000000
(1638437028.090780) can0 097#0170003001750025
(1638437028.091027) can0 120#0175000000000000
(1638437028.106276) can0 200#03440251033FC000
(1638437028.106521) can0 12D#8100000000000000
(1638437028.106788) can0 097#0170003001750025
(1638437028.106998) can0 120#0175000000000000
(1638437028.107256) can0 207#0000000000000000
(1638437028.107497) can0 353#5B9E010111941981
(1638437028.108521) can0 0FC#0300000000000000
(1638437028.108771) can0 4B0#0000000000000000
(1638437028.109010) can0 210#21E0F8001021E000
(1638437028.109248) can0 085#03D7857C031E831B
(1638437028.109482) can0 090#02EE003180000000
(1638437028.122350) can0 12D#8100000000000000
(1638437028.122587) can0 097#0170003001750025
(1638437028.122831) can0 120#0175000000000000
(1638437028.128352) can0 090#02EE003180000000
(1638437028.128625) can0 4B0#0000000000000000
(1638437028.128829) can0 210#21E0F8001021E000
(1638437028.129066) can0 085#03D7857C031E831B
(1638437028.135064) can0 128#00D6000000000000
(1638437028.135310) can0 350#0400000000000000
(1638437028.135551) can0 403#02047F2424000000
(1638437028.135794) can0 437#2F2D010000000081
(1638437028.136029) can0 453#00000000031E3B00
(1638437028.138383) can0 12D#8100000000000000
(1638437028.138619) can0 097#0170003001750025
(1638437028.138863) can0 120#0175000000000000
(1638437028.148416) can0 090#02EE003180000000
(1638437028.148647) can0 4B0#0000000000000000
(1638437028.148897) can0 210#21E0F8001021E000
(1638437028.149116) can0 085#03D7857C031E831B
(1638437028.154346) can0 200#03440251033FC000
(1638437028.154609) can0 207#0000000000000000
(1638437028.154833) can0 230#00BE760668000000
(1638437028.155075) can0 425#00FFFFFFFF028000
(1638437028.155330) can0 12D#8100000000000000
(1638437028.155598) can0 427#5022827EEB200500
(1638437028.155797) can0 44D#00400000326042C7
(1638437028.156038) can0 097#0170003001750025
(1638437028.156285) can0 120#0175000000000000
(1638437028.156556) can0 6F6#1573688B27EDBD51
(1638437028.156782) can0 353#5B9E010111941981
(1638437028.168384) can0 090#02EE003180000000
(1638437028.168637) can0 4B0#0000000000000000
(1638437028.168857) can0 210#21E0F8001021E000
(1638437028.169088) can0 085#03D7857C031E831B
(1638437028.170405) can0 12D#8100000000000000
(1638437028.170651) can0 097#0170003001750025
(1638437028.170888) can0 120#0175000000000000
(1638437028.181138) can0 340#001A000000000000
(1638437028.186365) can0 12D#8100000000000000
(1638437028.186603) can0 097#0170003001750025
(1638437028.186866) can0 120#0175000000000000
(1638437028.188366) can0 090#02EE003180000000
(1638437028.188623) can0 4B0#0000000000000000
(1638437028.188843) can0 210#21E0F8001021E000
(1638437028.189079) can0 085#03D7857C031E831B
(1638437028.202393) can0 200#03440251033FC000
(1638437028.202642) can0 12D#8100000000000000
(1638437028.202861) can0 097#0170003001750025
(1638437028.203108) can0 120#0175000000000000
(1638437028.203362) can0 207#0000000000000000
(1638437028.206662) can0 353#5B9E010111941981
(1638437028.208387) can0 090#02EE003180000000
(1638437028.208645) can0 4B0#0000000000000000
(1638437028.208864) can0 210#21E0F8001021E000
(1638437028.209098) can0 085#03D7857C031E831B
(1638437028.218625) can0 230#00BE760668000000
(1638437028.218862) can0 12D#8100000000000000
(1638437028.219074) can0 097#0170003001750025
(1638437028.219326) can0 120#0175000000000000
(1638437028.228373) can0 090#02EE003180000000
(1638437028.228627) can0 4B0#0000000000000000
(1638437028.228847) can0 210#21E0F8001021E000
(1638437028.229078) can0 085#03D7857C031E831B
(1638437028.234618) can0 12D#8100000000000000
(1638437028.234863) can0 097#0170003001750025
(1638437028.235091) can0 120#0175000000000000
(1638437028.235346) can0 128#00D6000000000000
(1638437028.235588) can0 350#0400000000000000
(1638437028.235859) can0 437#2F2D010000000081
(1638437028.236072) can0 453#00000000031E3B00
(1638437028.248335) can0 090#02EE003180000000
(1638437028.248565) can0 4B0#0000000000000000
(1638437028.248796) can0 210#21E0F8001021E000
(1638437028.249020) can0 085#03D7857C031E831B
(1638437028.250646) can0 200#03440251033FC000
(1638437028.250896) can0 207#0000000000000000
(1638437028.251136) can0 425#00FFFFFFFF028000
(1638437028.251392) can0 12D#8100000000000000
(1638437028.251622) can0 427#5022827EEB200500
(1638437028.251856) can0 44D#00400000326042C7
(1638437028.252085) can0 097#0170003001750025
(1638437028.252337) can0 120#0175000000000000
(1638437028.256652) can0 353#5B9E010111941981
(1638437028.266625) can0 12D#8100000000000000
(1638437028.266875) can0 097#0170003001750025
(1638437028.267087) can0 120#0175000000000000
(1638437028.268367) can0 090#02EE003180000000
(1638437028.268638) can0 4B0#0000000000000000
(1638437028.268848) can0 210#21E0F8001021E000
(1638437028.269082) can0 085#03D7857C031E831B
(1638437028.279788) can0 340#001A000000000000
(1638437028.282622) can0 230#00BE760668000000
(1638437028.282866) can0 12D#8100000000000000
(1638437028.283105) can0 097#0170003001750025
(1638437028.283448) can0 120#0175000000000000
(1638437028.283569) can0 623#3644128200000000
(1638437028.283828) can0 640#50600077400C8600
(1638437028.284072) can0 650#1036440106000000
(1638437028.288349) can0 090#02EE003180000000
(1638437028.288591) can0 4B0#0000000000000000
(1638437028.288832) can0 210#21E0F8001021E000
(1638437028.289060) can0 085#03D7857C031E831B
(1638437028.298626) can0 200#03440251033FC000
(1638437028.298864) can0 12D#8100000000000000
(1638437028.299104) can0 097#0170003001750025
(1638437028.299389) can0 120#0175000000000000
(1638437028.299600) can0 207#0000000000000000
(1638437028.306624) can0 353#5B9E010111941981
(1638437028.308345) can0 0FC#0300000000000000
(1638437028.308591) can0 4B0#0000000000000000
(1638437028.308834) can0 210#21E0F8001021E000
(1638437028.309064) can0 085#03D8857C031E831B
(1638437028.309303) can0 090#02EE003180000000
(1638437028.314664) can0 12D#8100000000000000
(1638437028.314900) can0 097#0170003001750025
(1638437028.315145) can0 120#0175000000000000
(1638437028.315401) can0 307#0000000000000000
(1638437028.328283) can0 090#02EE003180000000
(1638437028.328533) can0 4B0#0000000000000000
(1638437028.328767) can0 210#21E0F8001021E000
(1638437028.328999) can0 085#03D7857C031E831B
(1638437028.330676) can0 12D#8100000000000000
(1638437028.330912) can0 097#0170003001750025
(1638437028.331159) can0 120#0175000000000000
(1638437028.334999) can0 128#00D6000000000000
(1638437028.335248) can0 350#0400000000000000
(1638437028.335500) can0 437#2F2D010000000081
(1638437028.335729) can0 453#00000000031E3B00
(1638437028.346713) can0 200#03440251033FC000
(1638437028.346970) can0 207#0000000000000000
(1638437028.347203) can0 230#00BE760668000000
(1638437028.347454) can0 425#00FFFFFFFF028000
(1638437028.347699) can0 12D#8100000000000000
(1638437028.347936) can0 427#5022827EEB200500
(1638437028.348174) can0 44D#00400000326042C7
(1638437028.348426) can0 097#0170003001750025
(1638437028.348655) can0 090#02EE003180000000
(1638437028.348908) can0 120#0175000000000000
(1638437028.349162) can0 4B0#0000000000000000
(1638437028.349392) can0 210#21E0F8001021E000
(1638437028.349623) can0 085#03D6857C031E831B
(1638437028.356628) can0 353#5B9E010111941A81
(1638437028.362709) can0 12D#8100000000000000
(1638437028.362947) can0 097#0170003001750025
(1638437028.363191) can0 120#0175000000000000
(1638437028.368281) can0 090#02EE003180000000
(1638437028.368531) can0 4B0#0000000000000000
(1638437028.368775) can0 210#21E0F8001021E000
(1638437028.369005) can0 085#03D7857C031E831B
(1638437028.378535) can0 12D#8100000000000000
(1638437028.378768) can0 097#0170003001750025
(1638437028.379013) can0 120#0175000000000000
(1638437028.379593) can0 340#001A000000000000
(1638437028.388293) can0 090#02EE003180000000
(1638437028.388534) can0 4B0#0000000000000000
(1638437028.388773) can0 210#21E0F8001021E000
(1638437028.389029) can0 085#03D7857C031E831B
(1638437028.394542) can0 200#03440251033FC000
(1638437028.394817) can0 12D#8100000000000000
(1638437028.395044) can0 097#0170003001750025
(1638437028.395292) can0 120#0175000000000000
(1638437028.395518) can0 207#0000000000000000
(1638437028.395757) can0 6F6#1573688B27EDBD51
(1638437028.406614) can0 353#5B9E010111941981
(1638437028.408285) can0 090#02EE003180000000
(1638437028.408541) can0 4B0#0000000000000000
(1638437028.408776) can0 210#21E0F8001021E000
(1638437028.409021) can0 085#03D7857C031E831B
(1638437028.410566) can0 230#00BE760668000000
(1638437028.410812) can0 12D#8100000000000000
(1638437028.411049) can0 097#0170003001750025
(1638437028.411296) can0 120#0175000000000000
(1638437028.426524) can0 12D#8100000000000000
(1638437028.426802) can0 097#0170003001750025
(1638437028.427008) can0 120#0175000000000000
(1638437028.428318) can0 090#02EE003180000000
(1638437028.428571) can0 4B0#0000000000000000
(1638437028.428806) can0 210#21E0F8001021E000
(1638437028.429055) can0 085#03D7857C031E831B
(1638437028.434979) can0 128#00D6000000000000
(1638437028.435226) can0 350#0400000000000000
(1638437028.435524) can0 437#2F2D010000000081
(1638437028.435707) can0 453#00000000031E3B00
(1638437028.442588) can0 200#03440251033FC000
(1638437028.442845) can0 207#0000000000000000
(1638437028.443104) can0 425#00FFFFFFFF028000
(1638437028.443345) can0 12D#8100000000000000
(1638437028.443572) can0 427#5022827EEB200500
(1638437028.443807) can0 44D#00400000326042C7
(1638437028.444046) can0 097#0170003001750025
(1638437028.444300) can0 120#0175000000000000
(1638437028.448335) can0 090#02EE003180000000
(1638437028.448573) can0 4B0#0000000000000000
(1638437028.448827) can0 210#21E0F8001021E000
(1638437028.449036) can0 085#03D8857C031E831B
(1638437028.456608) can0 353#5B9E010111941981
(1638437028.458606) can0 12D#8100000000000000
(1638437028.458856) can0 097#0170003001750025
(1638437028.459110) can0 120#0175000000000000
(1638437028.468280) can0 090#02EE003180000000
(1638437028.468536) can0 4B0#0000000000000000
(1638437028.468792) can0 210#21E0F8001021E000
(1638437028.469034) can0 085#03D8857C031E831B
(1638437028.474580) can0 230#00BE760668000000
(1638437028.474822) can0 12D#8100000000000000
(1638437028.475051) can0 097#0170003001750025
(1638437028.475299) can0 120#0175000000000000
(1638437028.479519) can0 340#001A000000000000
(1638437028.488266) can0 090#02EE003180000000
(1638437028.488494) can0 4B0#0000000000000000
(1638437028.488733) can0 210#21E0F8001021E000
(1638437028.488959) can0 085#03D7857C031E831B
(1638437028.490622) can0 200#03440251033FC000
(1638437028.490848) can0 12D#8100000000000000
(1638437028.491104) can0 097#0170003001750025
(1638437028.491349) can0 120#0175000000000000
(1638437028.491590) can0 207#0000000000000000
(1638437028.506609) can0 12D#8100000000000000
(1638437028.506859) can0 097#0170003001750025
(1638437028.507080) can0 120#0175000000000000
(1638437028.507318) can0 353#5B9E010111941981
(1638437028.508336) can0 0FC#0300000000000000
(1638437028.508574) can0 4B0#0000000000000000
(1638437028.508814) can0 210#21E0F8001021E000
(1638437028.509049) can0 085#03D7857C031E831B
(1638437028.509291) can0 090#02EE003180000000
(1638437028.522675) can0 12D#8100000000000000
(1638437028.522896) can0 097#0170003001750025
(1638437028.523150) can0 120#0175000000000000
(1638437028.528292) can0 090#02EE003180000000
(1638437028.528529) can0 4B0#0000000000000000
(1638437028.528768) can0 210#21E0F8001021E000
(1638437028.529003) can0 085#03D7857C031E831B
(1638437028.534973) can0 128#00D6000000000000
(1638437028.535206) can0 350#0400000000000000
(1638437028.535448) can0 437#2F2D010000000081
(1638437028.535689) can0 453#00000000031E3B00
(1638437028.538671) can0 200#03440251033FC000
(1638437028.538918) can0 207#0000000000000000
(1638437028.539151) can0 230#00BE760668000000
(1638437028.539396) can0 425#00FFFFFFFF028000
(1638437028.539651) can0 12D#8100000000000000
(1638437028.539884) can0 427#5022827EEB200500
(1638437028.540129) can0 44D#00400000325042C7
(1638437028.540366) can0 097#0170003001750025
(1638437028.540610) can0 120#0175000000000000
(1638437028.548430) can0 090#02EE003180000000
(1638437028.548662) can0 4B0#0000000000000000
(1638437028.548906) can0 210#21E0F8001021E000
(1638437028.549143) can0 085#03D7857C031E831B
(1638437028.554671) can0 12D#8100000000000000
(1638437028.554893) can0 097#0170003001750025
(1638437028.555146) can0 120#0175000000000000
(1638437028.556617) can0 353#5B9E010111941981
(1638437028.568273) can0 090#02EE003180000000
(1638437028.568505) can0 4B0#0000000000000000
(1638437028.568750) can0 210#21E0F8001021E000
(1638437028.568978) can0 085#03D8857C031E831B
(1638437028.570700) can0 12D#8100000000000000
(1638437028.570924) can0 097#0170003001750025
(1638437028.571172) can0 120#0175000000000000
(1638437028.579363) can0 340#001A000000000000
(1638437028.586651) can0 200#03440251033FC000
(1638437028.586885) can0 12D#8100000000000000
(1638437028.587131) can0 097#0170003001750025
(1638437028.587370) can0 120#0175000000000000
(1638437028.587645) can0 207#0000000000000000
(1638437028.588427) can0 090#02EE003180000000
(1638437028.588727) can0 4B0#0000000000000000
(1638437028.588922) can0 210#21E0F8001021E000
(1638437028.589132) can0 085#03D7857C031E831B
(1638437028.602697) can0 230#00BE760668000000
(1638437028.602923) can0 12D#8100000000000000
(1638437028.603165) can0 097#0170003001750025
(1638437028.603407) can0 120#0175000000000000
(1638437028.606613) can0 353#5B9E010111941981
(1638437028.608272) can0 090#02EE003180000000
(1638437028.608514) can0 4B0#0000000000000000
(1638437028.608754) can0 210#21E0F8001021E000
(1638437028.608981) can0 085#03D7857C031E831B
(1638437028.618744) can0 12D#8100000000000000
(1638437028.618964) can0 097#0170003001750025
(1638437028.619213) can0 120#0175000000000000
(1638437028.628272) can0 090#02EE003180000000
(1638437028.628503) can0 4B0#0000000000000000
(1638437028.628750) can0 210#21E0F8001021E000
(1638437028.628978) can0 085#03D7857C031E831B
(1638437028.634718) can0 200#03440251033FC000
(1638437028.634958) can0 128#00D6000000000000
(1638437028.635207) can0 207#0000000000000000
(1638437028.635456) can0 350#0400000000000000
(1638437028.635698) can0 403#02047F2424000000
(1638437028.635952) can0 425#00FFFFFFFF028000
(1638437028.636199) can0 12D#8100000000000000
(1638437028.636429) can0 427#5022827EEB200500
(1638437028.636666) can0 437#2F2D010000000081
(1638437028.636915) can0 44D#00400000325042C7
(1638437028.637153) can0 097#0170003001750025
(1638437028.637400) can0 120#0175000000000000
(1638437028.637627) can0 453#00000000031E3B00
(1638437028.637863) can0 6F6#15D07D9E5486DC69
(1638437028.648289) can0 090#02EE003180000000
(1638437028.648525) can0 4B0#0000000000000000
(1638437028.648763) can0 210#21E0F8001021E000
(1638437028.648987) can0 085#03D8857C031E831B
(1638437028.650802) can0 12D#8100000000000000
(1638437028.651027) can0 097#0170003001750025
(1638437028.651269) can0 120#0175000000000000
(1638437028.656634) can0 353#5B9E010111941981
(1638437028.666778) can0 230#00BE760668000000
(1638437028.666927) can0 12D#8100000000000000
(1638437028.667195) can0 097#0170003001750025
(1638437028.667444) can0 120#0175000000000000
(1638437028.668388) can0 090#02EE003180000000
(1638437028.668623) can0 4B0#0000000000000000
(1638437028.668858) can0 210#21E0F8001021E000
(1638437028.669092) can0 085#03D7857C031E831B
(1638437028.679285) can0 340#001A000000000000
(1638437028.681435) can0 454#0000000000000000
(1638437028.682765) can0 200#03440251033FC000
(1638437028.682988) can0 12D#8100000000000000
(1638437028.683227) can0 097#0170003001750025
(1638437028.683472) can0 120#0175000000000000
(1638437028.683725) can0 207#0000000000000000
(1638437028.688315) can0 090#02EE003180000000
(1638437028.688553) can0 4B0#0000000000000000
(1638437028.688766) can0 210#21E0F8001021E000
(1638437028.689004) can0 085#03D7857C031E831B
(1638437028.698959) can0 12D#8100000000000000
(1638437028.699160) can0 097#0170003001750025
(1638437028.699409) can0 120#0175000000000000
(1638437028.706575) can0 353#5B9E010111941981
(1638437028.708225) can0 0FC#0300000000000000
(1638437028.708463) can0 4B0#0000000000000000
(1638437028.708695) can0 210#21E0F8001021E000
(1638437028.708929) can0 085#03D7857C031E831B
(1638437028.709167) can0 090#02EE003180000000
(1638437028.714982) can0 12D#8100000000000000
(1638437028.715186) can0 097#0170003001750025
(1638437028.715430) can0 120#0175000000000000
(1638437028.728209) can0 090#02EE003180000000
(1638437028.728432) can0 4B0#0000000000000000
(1638437028.728670) can0 210#21E0F8001021E000
(1638437028.728899) can0 085#03D7857C031E831B
(1638437028.730921) can0 200#03440251033FC000
(1638437028.731186) can0 207#0000000000000000
(1638437028.731412) can0 230#00BE760668000000
(1638437028.731661) can0 425#00FFFFFFFF028000
(1638437028.731909) can0 12D#8100000000000000
(1638437028.732144) can0 427#5022827EEB200500
(1638437028.732382) can0 44D#00400000325042C7
(1638437028.732622) can0 097#0170003001750025
(1638437028.732868) can0 120#0175000000000000
(1638437028.734867) can0 128#00D6000000000000
(1638437028.735114) can0 350#0400000000000000
(1638437028.735354) can0 437#2F2D010000000081
(1638437028.735594) can0 453#00000000031E3B00
(1638437028.747016) can0 12D#8100000000000000
(1638437028.747247) can0 097#0170003001750025
(1638437028.747493) can0 120#0175000000000000
(1638437028.748214) can0 090#02EE003180000000
(1638437028.748462) can0 4B0#0000000000000000
(1638437028.748703) can0 210#21E0F8001021E000
(1638437028.748931) can0 085#03D8857C031E831B
(1638437028.756546) can0 353#5B9E010111941981
(1638437028.762973) can0 12D#8100000000000000
(1638437028.763207) can0 097#0170003001750025
(1638437028.763453) can0 120#0175000000000000
(1638437028.768149) can0 090#02EE003180000000
(1638437028.768400) can0 4B0#0000000000000000
(1638437028.768650) can0 210#21E0F8001021E000
(1638437028.768867) can0 085#03D7857C031E831B
(1638437028.778956) can0 200#03440251033FC000
(1638437028.779221) can0 12D#8100000000000000
(1638437028.779436) can0 097#0170003001750025
(1638437028.779693) can0 120#0175000000000000
(1638437028.779940) can0 207#0000000000000000
(1638437028.780192) can0 340#001A000000000000
(1638437028.788296) can0 090#02EE003180000000
(1638437028.788545) can0 4B0#0000000000000000
(1638437028.788782) can0 210#21E0F8001021E000
(1638437028.789013) can0 085#03D7857C031E831B
(1638437028.794989) can0 230#00BE760668000000
(1638437028.795234) can0 12D#8100000000000000
(1638437028.795470) can0 097#0170003001750025
(1638437028.795732) can0 120#0175000000000000
(1638437028.806568) can0 353#5B9E010111941981
(1638437028.808189) can0 090#02EE003180000000
(1638437028.808437) can0 4B0#0000000000000000
(1638437028.808676) can0 210#21E0F8001021E000
(1638437028.808907) can0 085#03D7857C031E831B
(1638437028.811021) can0 12D#8100000000000000
(1638437028.811259) can0 097#0170003001750025
(1638437028.811506) can0 120#0175000000000000
(1638437028.814863) can0 307#0000000000000000
(1638437028.826981) can0 200#03440251033FC000
(1638437028.827233) can0 207#0000000000000000
(1638437028.827508) can0 425#00FFFFFFFF028000
(1638437028.827723) can0 12D#8100000000000000
(1638437028.827961) can0 427#5022827EEB200500
(1638437028.828199) can0 44D#00400000325042C7
(1638437028.828442) can0 090#02EE003180000000
(1638437028.828681) can0 097#0170003001750025
(1638437028.828924) can0 120#0175000000000000
(1638437028.829175) can0 4B0#0000000000000000
(1638437028.829414) can0 210#21E0F8001021E000
(1638437028.829644) can0 085#03D7857C031E831B
(1638437028.834853) can0 128#00D6000000000000
(1638437028.835101) can0 350#0400000000000000
(1638437028.835342) can0 437#2F2D010000000081
(1638437028.835580) can0 453#00000000031E3B00
(1638437028.843093) can0 12D#8100000000000000
(1638437028.843330) can0 097#0170003001750025
(1638437028.843575) can0 120#0175000000000000
(1638437028.848142) can0 090#02EE003180000000
(1638437028.848389) can0 4B0#0000000000000000
(1638437028.848629) can0 210#21E0F8001021E000
(1638437028.848859) can0 085#03D7857C031E831B
(1638437028.856542) can0 353#5B9E010111941981
(1638437028.858871) can0 230#00BE760668000000
(1638437028.859117) can0 12D#8100000000000000
(1638437028.859355) can0 097#0170003001750025
(1638437028.859601) can0 120#0175000000000000
(1638437028.868164) can0 090#02EE003180000000
(1638437028.868414) can0 4B0#0000000000000000
(1638437028.868677) can0 210#21E0F8001021E000
(1638437028.868897) can0 085#03D7857C031E831B
(1638437028.874866) can0 200#03440251033FC000
(1638437028.875123) can0 12D#8100000000000000
(1638437028.875352) can0 097#0170003001750025
(1638437028.875595) can0 120#0175000000000000
(1638437028.875849) can0 207#0000000000000000
(1638437028.876070) can0 6F6#15D07D9E5486DC69
(1638437028.879907) can0 340#001A000000000000
(1638437028.888119) can0 090#02EE003180000000
(1638437028.888380) can0 4B0#0000000000000000
(1638437028.888624) can0 210#21E0F8001021E000
(1638437028.888843) can0 085#03D7857C031E831B
(1638437028.890957) can0 12D#8100000000000000
(1638437028.891203) can0 097#0170003001750025
(1638437028.891444) can0 120#0175000000000000
(1638437028.906585) can0 353#5B9E010111941981
(1638437028.906932) can0 12D#8100000000000000
(1638437028.907141) can0 097#0170003001750025
(1638437028.907412) can0 120#0175000000000000
(1638437028.908201) can0 0FC#0300000000000000
(1638437028.908456) can0 4B0#0000000000000000
(1638437028.908726) can0 210#21E0F8001021E000
(1638437028.908955) can0 085#03D7857C031E831B
(1638437028.909160) can0 090#02EE003180000000
(1638437028.922962) can0 200#03440251033FC000
(1638437028.923218) can0 207#0000000000000000
(1638437028.923459) can0 230#00BE760668000000
(1638437028.923701) can0 425#00FFFFFFFF028000
(1638437028.923938) can0 12D#8100000000000000
(1638437028.924184) can0 427#5022827EEB200500
(1638437028.924412) can0 44D#00400000325042C7
(1638437028.924657) can0 097#0170003001750025
(1638437028.924908) can0 120#0175000000000000
(1638437028.928236) can0 090#02EE003180000000
(1638437028.928483) can0 4B0#0000000000000000
(1638437028.928714) can0 210#21E0F8001021E000
(1638437028.928949) can0 085#03D7857C031E831B
(1638437028.934900) can0 128#00D6000000000000
(1638437028.935136) can0 350#0400000000000000
(1638437028.935377) can0 437#2F2D010000000081
(1638437028.935633) can0 453#00000000031E3B00
(1638437028.939008) can0 12D#8100000000000000
(1638437028.939238) can0 097#0170003001750025
(1638437028.939491) can0 120#0175000000000000
(1638437028.948172) can0 090#02EE003180000000
(1638437028.948414) can0 4B0#0000000000000000
(1638437028.948656) can0 210#21E0F8001021E000
(1638437028.948884) can0 085#03D8857C031E831B
(1638437028.954985) can0 12D#8100000000000000
(1638437028.955218) can0 097#0170003001750025
(1638437028.955464) can0 120#0175000000000000
(1638437028.956594) can0 353#5B9E010111941981
(1638437028.968145) can0 090#02EE003180000000
(1638437028.968389) can0 4B0#0000000000000000
(1638437028.968621) can0 210#21E0F8001021E000
(1638437028.968856) can0 085#03D8857C031E831B
(1638437028.971001) can0 200#03440251033FC000
(1638437028.971247) can0 12D#8100000000000000
(1638437028.971476) can0 097#0170003001750025
(1638437028.971717) can0 120#0175000000000000
(1638437028.971995) can0 207#0000000000000000
(1638437028.979099) can0 340#001A000000000000
(1638437028.986969) can0 230#00BE760668000000
(1638437028.987209) can0 12D#8100000000000000
(1638437028.987439) can0 097#0170003001750025
(1638437028.987687) can0 120#0175000000000000
(1638437028.988284) can0 090#02EE003180000000
(1638437028.988523) can0 4B0#0000000000000000
(1638437028.988776) can0 210#21E0F8001021E000
(1638437028.989004) can0 085#03D7857C031E831B
(1638437029.003031) can0 12D#8100000000000000
(1638437029.003270) can0 097#0170003001750025
(1638437029.003509) can0 120#0175000000000000
(1638437029.006575) can0 353#5B9E010111941981
(1638437029.008153) can0 090#02EE003180000000
(1638437029.008403) can0 4B0#0000000000000000
(1638437029.008645) can0 210#21E0F8001021E000
(1638437029.008873) can0 085#03D7857C031E831B
(1638437029.019030) can0 200#03440251033FC000
(1638437029.019280) can0 207#0000000000000000
(1638437029.019526) can0 425#00FFFFFFFF028000
(1638437029.019772) can0 12D#8100000000000000
(1638437029.020010) can0 427#5022827EEB200500
(1638437029.020247) can0 44D#00400000325042C7
(1638437029.020490) can0 097#0170003001750025
(1638437029.020731) can0 120#0175000000000000
(1638437029.028201) can0 090#02EE003180000000
(1638437029.028447) can0 4B0#0000000000000000
(1638437029.028685) can0 210#21E0F8001021E000
(1638437029.028918) can0 085#03D8857C031E831B
(1638437029.034852) can0 128#00D6000000000000
(1638437029.035100) can0 12D#8100000000000000
(1638437029.035336) can0 097#0170003001750025
(1638437029.035584) can0 120#0175000000000000
(1638437029.035829) can0 350#0400000000000000
(1638437029.036068) can0 437#2F2D010000000081
(1638437029.036314) can0 453#00000000031E3B00
(1638437029.048137) can0 090#02EE003180000000
(1638437029.048384) can0 4B0#0000000000000000
(1638437029.048624) can0 210#21E0F8001021E000
(1638437029.048856) can0 085#03D8857C031E831B
(1638437029.051064) can0 230#00BE760668000000
(1638437029.051310) can0 12D#8100000000000000
(1638437029.051549) can0 097#0170003001750025
(1638437029.051794) can0 120#0175000000000000
(1638437029.056570) can0 353#5B9E010111941981
(1638437029.067035) can0 200#03440251033FC000
(1638437029.067280) can0 12D#8100000000000000
(1638437029.067517) can0 097#0170003001750025
(1638437029.067765) can0 120#0175000000000000
(1638437029.068016) can0 207#0000000000000000
(1638437029.068331) can0 090#02EE003180000000
(1638437029.068593) can0 4B0#0000000000000000
(1638437029.068822) can0 210#21E0F8001021E000
(1638437029.069052) can0 085#03D8857C031E831B
(1638437029.079688) can0 340#001A000000000000
(1638437029.083074) can0 12D#8100000000000000
(1638437029.083311) can0 097#0170003001750025
(1638437029.083560) can0 120#0175000000000000
(1638437029.088140) can0 090#02EE003180000000
(1638437029.088389) can0 4B0#0000000000000000
(1638437029.088640) can0 210#21E0F8001021E000
(1638437029.088852) can0 085#03D8857C031E831B
(1638437029.099104) can0 12D#8100000000000000
(1638437029.099331) can0 097#0170003001750025
(1638437029.099576) can0 120#0175000000000000
(1638437029.106588) can0 353#5B9E010111941981
(1638437029.108153) can0 0FC#0300000000000000
(1638437029.108397) can0 4B0#0000000000000000
(1638437029.108635) can0 210#21E0F8001021E000
(1638437029.108870) can0 085#03D7857C031E831B
(1638437029.109136) can0 090#02EE003180000000
(1638437029.115111) can0 200#03440251033FC000
(1638437029.115359) can0 207#0000000000000000
(1638437029.115602) can0 230#00BE760668000000
(1638437029.115900) can0 425#00FFFFFFFF028000
(1638437029.116095) can0 12D#8100000000000000
(1638437029.116321) can0 427#5022827EEB200500
(1638437029.116562) can0 44D#00400000325042C7
(1638437029.116855) can0 097#0170003001750025
(1638437029.117066) can0 120#0175000000000000
(1638437029.117265) can0 6F6#15D07D9E5486DC69
(1638437029.128138) can0 090#02EE003180000000
(1638437029.128371) can0 4B0#0000000000000000
(1638437029.128612) can0 210#21E0F8001021E000
(1638437029.128849) can0 085#03D7857C031E831B
(1638437029.131137) can0 12D#8100000000000000
(1638437029.131373) can0 097#0170003001750025
(1638437029.131649) can0 120#0175000000000000
(1638437029.134831) can0 128#00D6000000000000
(1638437029.135085) can0 350#0400000000000000
(1638437029.135317) can0 403#02047E2424000000
(1638437029.135554) can0 437#2F2D010000000081
(1638437029.135791) can0 453#00000000031E3B00
(1638437029.147214) can0 12D#8100000000000000
(1638437029.147434) can0 097#0170003001750025
(1638437029.147687) can0 120#0175000000000000
(1638437029.148167) can0 090#02EE003180000000
(1638437029.148431) can0 4B0#0000000000000000
(1638437029.148656) can0 210#21E0F8001021E000
(1638437029.148881) can0 085#03D8857C031E831B
(1638437029.156568) can0 353#5B9E010111941981
(1638437029.163144) can0 200#03440251033FC000
(1638437029.163382) can0 12D#8100000000000000
(1638437029.163616) can0 097#0170003001750025
(1638437029.163870) can0 120#0175000000000000
(1638437029.164123) can0 207#0000000000000000
(1638437029.168171) can0 090#02EE003180000000
(1638437029.168411) can0 4B0#0000000000000000
(1638437029.168650) can0 210#21E0F8001021E000
(1638437029.168885) can0 085#03D7857C031E831B
(1638437029.179339) can0 230#00BE760668000000
(1638437029.179580) can0 12D#8100000000000000
(1638437029.179818) can0 097#0170003001750025
(1638437029.180067) can0 120#0175000000000000
(1638437029.180309) can0 340#001A000000000000
(1638437029.188161) can0 090#02EE003180000000
(1638437029.188410) can0 4B0#0000000000000000
(1638437029.188644) can0 210#21E0F8001021E000
(1638437029.188881) can0 085#03D7857C031E831B
(1638437029.195363) can0 12D#8100000000000000
(1638437029.195601) can0 097#0170003001750025
(1638437029.195850) can0 120#0175000000000000
(1638437029.206557) can0 353#5B9E010111941981
(1638437029.208135) can0 090#02EE003180000000
(1638437029.208384) can0 4B0#0000000000000000
(1638437029.208629) can0 210#21E0F8001021E000
(1638437029.208856) can0 085#03D7857C031E831B
(1638437029.211376) can0 200#03440251033FC000
(1638437029.211627) can0 207#0000000000000000
(1638437029.211881) can0 425#00FFFFFFFF028000
(1638437029.212124) can0 12D#8100000000000000
(1638437029.212360) can0 427#5022827EEB200500
(1638437029.212603) can0 44D#00400000325042C7
(1638437029.212836) can0 097#0170003001750025
(1638437029.213084) can0 120#0175000000000000
(1638437029.227339) can0 12D#8100000000000000
(1638437029.227577) can0 097#0170003001750025
(1638437029.227820) can0 120#0175000000000000
(1638437029.228158) can0 090#02EE003180000000
(1638437029.228406) can0 4B0#0000000000000000
(1638437029.228650) can0 210#21E0F8001021E000
(1638437029.228877) can0 085#03D7857C031E831B
(1638437029.234807) can0 128#00D6000000000000
(1638437029.235053) can0 350#0400000000000000
(1638437029.235288) can0 437#2F2D010000000081
(1638437029.235540) can0 453#00000000031E3B00
(1638437029.243433) can0 230#00BE760668000000
(1638437029.243665) can0 12D#8100000000000000
(1638437029.243917) can0 097#0170003001750025
(1638437029.244155) can0 120#0175000000000000
(1638437029.248122) can0 090#02EE003180000000
(1638437029.248371) can0 4B0#0000000000000000
(1638437029.248593) can0 210#21E0F8001021E000
(1638437029.248828) can0 085#03D7857C031E831B
(1638437029.256575) can0 353#5B9E010111941981
(1638437029.259405) can0 200#03440251033FC000
(1638437029.259659) can0 12D#8100000000000000
(1638437029.259880) can0 097#0170003001750025
(1638437029.260125) can0 120#0175000000000000
(1638437029.260381) can0 207#0000000000000000
(1638437029.268147) can0 090#02EE003180000000
(1638437029.268402) can0 4B0#0000000000000000
(1638437029.268622) can0 210#21E0F8001021E000
(1638437029.268853) can0 085#03D7857C031E831B
(1638437029.275395) can0 623#3644128200000000
(1638437029.275642) can0 12D#8100000000000000
(1638437029.275868) can0 097#0170003001750025
(1638437029.276114) can0 120#0175000000000000
(1638437029.276353) can0 640#50600077400C8600
(1638437029.276642) can0 650#1142000000000000
(1638437029.277658) can0 340#001A000000000000
(1638437029.288115) can0 090#02EE003180000000
(1638437029.288366) can0 4B0#0000000000000000
(1638437029.288599) can0 210#21E0F8001021E000
(1638437029.288821) can0 085#03D8857C031E831B
(1638437029.291426) can0 12D#8100000000000000
(1638437029.291667) can0 097#0170003001750025
(1638437029.291895) can0 120#0175000000000000
(1638437029.306550) can0 353#5B9E010111941981
(1638437029.307385) can0 200#03440251033FC000
(1638437029.307636) can0 207#0000000000000000
(1638437029.307873) can0 230#00BE760668000000
(1638437029.308114) can0 425#00FFFFFFFF028000
(1638437029.308369) can0 0FC#0300000000000000
(1638437029.308638) can0 12D#8100000000000000
(1638437029.308846) can0 427#5022827EEB200500
(1638437029.309090) can0 44D#00400000325042C7
(1638437029.309326) can0 097#0170003001750025
(1638437029.309597) can0 120#0175000000000000
(1638437029.309819) can0 4B0#0000000000000000
(1638437029.310067) can0 210#21E0F8001021E000
(1638437029.310294) can0 085#03D8857C031E831B
(1638437029.310560) can0 090#02EE003180000000
(1638437029.314799) can0 307#0000000000000000
(1638437029.323476) can0 12D#8100000000000000
(1638437029.323720) can0 097#0170003001750025
(1638437029.323949) can0 120#0175000000000000
(1638437029.328120) can0 090#02EE003180000000
(1638437029.328367) can0 4B0#0000000000000000
(1638437029.328598) can0 210#21E0F8001021E000
(1638437029.328824) can0 085#03D7857C031E831B
(1638437029.334787) can0 128#00D6000000000000
(1638437029.335038) can0 350#0400000000000000
(1638437029.335260) can0 437#2F2D010000000081
(1638437029.335502) can0 453#00000000031E3B00
(1638437029.339318) can0 12D#8100000000000000
(1638437029.339565) can0 097#0170003001750025
(1638437029.339790) can0 120#0175000000000000
(1638437029.348108) can0 090#02EE003180000000
(1638437029.348353) can0 4B0#0000000000000000
(1638437029.348582) can0 210#21E0F8001021E000
(1638437029.348810) can0 085#03D7857C031E831B
(1638437029.355292) can0 200#03440251033FC000
(1638437029.355539) can0 12D#8100000000000000
(1638437029.355764) can0 097#0170003001750025
(1638437029.356008) can0 120#0175000000000000
(1638437029.356261) can0 207#0000000000000000
(1638437029.356540) can0 6F6#15D07D9E5486DC69
(1638437029.356770) can0 353#5B9E010111941981
(1638437029.368099) can0 090#02EE003180000000
(1638437029.368352) can0 4B0#0000000000000000
(1638437029.368569) can0 210#21E0F8001021E000
(1638437029.368802) can0 085#03D7857C031E831B
(1638437029.371332) can0 230#00BE760668000000
(1638437029.371577) can0 12D#8100000000000000
(1638437029.371801) can0 097#0170003001750025
(1638437029.372046) can0 120#0175000000000000
(1638437029.379472) can0 340#001A000000000000
(1638437029.387292) can0 12D#8100000000000000
(1638437029.387540) can0 097#0170003001750025
(1638437029.387763) can0 120#0175000000000000
(1638437029.388119) can0 090#02EE003180000000
(1638437029.388386) can0 4B0#0000000000000000
(1638437029.388607) can0 210#21E0F8001021E000
(1638437029.388838) can0 085#03D7857C031E831B
(1638437029.403326) can0 200#03440251033FC000
(1638437029.403577) can0 207#0000000000000000
(1638437029.403814) can0 425#00FFFFFFFF028000
(1638437029.404060) can0 12D#8100000000000000
(1638437029.404300) can0 427#5022827EEB200500
(1638437029.404583) can0 44D#00400000325042C7
(1638437029.404783) can0 097#0170003001750025
(1638437029.405014) can0 120#0175000000000000
(1638437029.406567) can0 353#5B9E010111941981
(1638437029.408117) can0 090#02EE003180000000
(1638437029.408364) can0 4B0#0000000000000000
(1638437029.408596) can0 210#21E0F8001021E000
(1638437029.408822) can0 085#03D7857C031E831B
(1638437029.419369) can0 12D#8100000000000000
(1638437029.419613) can0 097#0170003001750025
(1638437029.419836) can0 120#0175000000000000
(1638437029.428116) can0 090#02EE003180000000
(1638437029.428367) can0 4B0#0000000000000000
(1638437029.428590) can0 210#21E0F8001021E000
(1638437029.428819) can0 085#03D8857C031E831B
(1638437029.434770) can0 128#00D6000000000000
(1638437029.435017) can0 350#0400000000000000
(1638437029.435239) can0 437#2F2D010000000081
(1638437029.435484) can0 12D#8100000000000000
(1638437029.435724) can0 097#0170003001750025
(1638437029.436019) can0 120#0175000000000000
(1638437029.436218) can0 230#00BE760668000000
(1638437029.436455) can0 453#00000000031E3B00
(1638437029.448082) can0 090#02EE003180000000
(1638437029.448329) can0 4B0#0000000000000000
(1638437029.448555) can0 210#21E0F8001021E000
(1638437029.448782) can0 085#03D7857C031E831B
(1638437029.451406) can0 200#03440251033FC000
(1638437029.451649) can0 12D#8100000000000000
(1638437029.451868) can0 097#0170003001750025
(1638437029.452114) can0 120#0175000000000000
(1638437029.452369) can0 207#0000000000000000
(1638437029.456540) can0 353#5B9E010111941981
(1638437029.467372) can0 12D#8100000000000000
(1638437029.467624) can0 097#0170003001750025
(1638437029.467844) can0 120#0175000000000000
(1638437029.468086) can0 090#02EE003180000000
(1638437029.468341) can0 4B0#0000000000000000
(1638437029.468626) can0 210#21E0F8001021E000
(1638437029.468824) can0 085#03D7857C031E831B
(1638437029.478055) can0 340#001A000000000000
(1638437029.483407) can0 12D#8100000000000000
(1638437029.483650) can0 097#0170003001750025
(1638437029.483878) can0 120#0175000000000000
(1638437029.488050) can0 090#02EE003180000000
(1638437029.488303) can0 4B0#0000000000000000
(1638437029.488522) can0 210#21E0F8001021E000
(1638437029.488754) can0 085#03D7857C031E831B
(1638437029.499391) can0 200#03440251033FC000
(1638437029.499643) can0 207#0000000000000000
(1638437029.499868) can0 230#00BE760668000000
(1638437029.500116) can0 425#00FFFFFFFF028000
(1638437029.500368) can0 12D#8100000000000000
(1638437029.500647) can0 427#5022827EEB200500
(1638437029.500845) can0 44D#00400000325042C7
(1638437029.501081) can0 097#0170003001750025
(1638437029.501321) can0 120#0175000000000000
(1638437029.506538) can0 353#5B9E010111941981
(1638437029.508178) can0 0FC#0300000000000000
(1638437029.508426) can0 4B0#0000000000000000
(1638437029.508673) can0 210#21E0F8001021E000
(1638437029.508880) can0 085#03D7857C031E831B
(1638437029.509128) can0 090#02EE003180000000
(1638437029.515424) can0 12D#8100000000000000
(1638437029.515669) can0 097#0170003001750025
(1638437029.515895) can0 120#0175000000000000
(1638437029.528040) can0 090#02EE003180000000
(1638437029.528292) can0 4B0#0000000000000000
(1638437029.528515) can0 210#21E0F8001021E000
(1638437029.528744) can0 085#03D7857C031E831B
(1638437029.531432) can0 12D#8100000000000000
(1638437029.531676) can0 097#0170003001750025
(1638437029.531904) can0 120#0175000000000000
(1638437029.534742) can0 128#00D6000000000000
(1638437029.534994) can0 350#0400000000000000
(1638437029.535211) can0 437#2F2D010000000081
(1638437029.535459) can0 453#00000000031E3B00
(1638437029.547492) can0 200#03440251033FC000
(1638437029.547745) can0 12D#8100000000000000
(1638437029.547972) can0 097#0170003001750025
(1638437029.548199) can0 090#02EE003180000000
(1638437029.548448) can0 120#0175000000000000
(1638437029.548744) can0 207#0000000000000000
(1638437029.548945) can0 4B0#0000000000000000
(1638437029.549194) can0 210#21E0F8001021E000
(1638437029.549418) can0 085#03D7857C031E831B
(1638437029.556555) can0 353#5B9E010111941981
(1638437029.563457) can0 230#00BE760668000000
(1638437029.563707) can0 12D#8100000000000000
(1638437029.563930) can0 097#0170003001750025
(1638437029.564173) can0 120#0175000000000000
(1638437029.568040) can0 090#02EE003180000000
(1638437029.568295) can0 4B0#0000000000000000
(1638437029.568518) can0 210#21E0F8001021E000
(1638437029.568746) can0 085#03D7857C031E831B
(1638437029.579020) can0 340#001A000000000000
(1638437029.579465) can0 12D#8100000000000000
(1638437029.579718) can0 097#0170003001750025
(1638437029.579945) can0 120#0175000000000000
(1638437029.588023) can0 090#02EE003180000000
(1638437029.588280) can0 4B0#0000000000000000
(1638437029.588500) can0 210#21E0F8001021E000
(1638437029.588728) can0 085#03D7857C031E831B
(1638437029.595480) can0 200#03440251033FC000
(1638437029.595733) can0 207#0000000000000000
(1638437029.595968) can0 425#00FFFFFFFF028000
(1638437029.596212) can0 12D#8100000000000000
(1638437029.596458) can0 427#5022827EEB200500
(1638437029.596755) can0 44D#00400000325042C7
(1638437029.596878) can0 097#0170003001750025
(1638437029.597221) can0 120#0175000000000000
(1638437029.597421) can0 6F6#15AF02E12BF9A316
(1638437029.606527) can0 353#5B9E010111941981
(1638437029.608032) can0 090#02EE003180000000
(1638437029.608283) can0 4B0#0000000000000000
(1638437029.608510) can0 210#21E0F8001021E000
(1638437029.608736) can0 085#03D8857C031E831B
(1638437029.611522) can0 12D#8100000000000000
(1638437029.611767) can0 097#0170003001750025
(1638437029.611993) can0 120#0175000000000000
(1638437029.627461) can0 230#00BE760668000000
(1638437029.627702) can0 12D#8100000000000000
(1638437029.627930) can0 097#0170003001750025
(1638437029.628169) can0 090#02EE003180000000
(1638437029.628423) can0 120#0175000000000000
(1638437029.628697) can0 4B0#0000000000000000
(1638437029.628920) can0 210#21E0F8001021E000
(1638437029.629140) can0 085#03D7857C031E831B
(1638437029.634723) can0 128#00D6000000000000
(1638437029.634976) can0 350#0400000000000000
(1638437029.635197) can0 403#02047E2424000000
(1638437029.635434) can0 437#2F2D010000000081
(1638437029.635674) can0 453#00000000031E3B00
(1638437029.643557) can0 200#03440251033FC000
(1638437029.643782) can0 12D#8100000000000000
(1638437029.644013) can0 097#0170003001750025
(1638437029.644259) can0 120#0175000000000000
(1638437029.644531) can0 207#0000000000000000
(1638437029.648034) can0 090#02EE003180000000
(1638437029.648284) can0 4B0#0000000000000000
(1638437029.648506) can0 210#21E0F8001021E000
(1638437029.648734) can0 085#03D7857C031E831B
(1638437029.656538) can0 353#5B9E010111941981
(1638437029.659756) can0 12D#8100000000000000
(1638437029.659976) can0 097#0170003001750025
(1638437029.660217) can0 120#0175000000000000
(1638437029.668016) can0 090#02EE003180000000
(1638437029.668288) can0 4B0#0000000000000000
(1638437029.668489) can0 210#21E0F8001021E000
(1638437029.668713) can0 085#03D7857C031E831B
(1638437029.675747) can0 12D#8100000000000000
(1638437029.675971) can0 097#0170003001750025
(1638437029.676206) can0 120#0175000000000000
(1638437029.677867) can0 340#001A000000000000
(1638437029.679853) can0 454#0000000000000000
(1638437029.688005) can0 090#02EE003180000000
(1638437029.688237) can0 4B0#0000000000000000
(1638437029.688463) can0 210#21E0F8001021E000
(1638437029.688702) can0 085#03D7857C031E831B
(1638437029.691715) can0 200#03440251033FC000
(1638437029.691934) can0 207#0000000000000000
(1638437029.692186) can0 230#00BE760668000000
(1638437029.692431) can0 425#00FFFFFFFF028000
(1638437029.692675) can0 12D#8100000000000000
(1638437029.692909) can0 427#5022827EEB200500
(1638437029.693155) can0 44D#00400000325042C7
(1638437029.693393) can0 097#0170003001750025
(1638437029.693694) can0 120#0175000000000000
(1638437029.706503) can0 353#5B9E010111941981
(1638437029.707684) can0 12D#8100000000000000
(1638437029.707908) can0 097#0170003001750025
(1638437029.708153) can0 0FC#0300000000000000
(1638437029.708406) can0 120#0175000000000000
(1638437029.708659) can0 4B0#0000000000000000
(1638437029.708900) can0 210#21E0F8001021E000
(1638437029.709121) can0 085#03D7857C031E831B
(1638437029.709361) can0 090#02EE003180000000
(1638437029.723757) can0 12D#8100000000000000
(1638437029.723971) can0 097#0170003001750025
(1638437029.724209) can0 120#0175000000000000
(1638437029.727969) can0 090#02EE003180000000
(1638437029.728201) can0 4B0#0000000000000000
(1638437029.728449) can0 210#21E0F8001021E000
(1638437029.728670) can0 085#03D8857C031E831B
(1638437029.734675) can0 128#00D6000000000000
(1638437029.734907) can0 350#0400000000000000
(1638437029.735176) can0 437#2F2D010000000081
(1638437029.735378) can0 453#00000000031E3B00
(1638437029.739764) can0 200#03440251033FC000
(1638437029.740030) can0 12D#8100000000000000
(1638437029.740232) can0 097#0170003001750025
(1638437029.740477) can0 120#0175000000000000
(1638437029.740728) can0 207#0000000000000000
(1638437029.747988) can0 090#02EE003180000000
(1638437029.748234) can0 4B0#0000000000000000
(1638437029.748475) can0 210#21E0F8001021E000
(1638437029.748708) can0 085#03D8857C031E831B
(1638437029.755725) can0 230#00BE760668000000
(1638437029.755973) can0 12D#8100000000000000
(1638437029.756213) can0 097#0170003001750025
(1638437029.756454) can0 120#0175000000000000
(1638437029.756690) can0 353#5B9E010111941981
(1638437029.767939) can0 090#02EE003180000000
(1638437029.768189) can0 4B0#0000000000000000
(1638437029.768433) can0 210#21E0F8001021E000
(1638437029.768657) can0 085#03D8857C031E831B
(1638437029.771773) can0 12D#8100000000000000
(1638437029.772012) can0 097#0170003001750025
(1638437029.772259) can0 120#0175000000000000
(1638437029.777623) can0 340#001A000000000000
(1638437029.787723) can0 200#03440251033FC000
(1638437029.787976) can0 090#02EE003180000000
(1638437029.788222) can0 207#0000000000000000
(1638437029.788462) can0 425#00FFFFFFFF028000
(1638437029.788714) can0 12D#8100000000000000
(1638437029.788954) can0 427#5022827EEB200500
(1638437029.789184) can0 44D#00400000325042C7
(1638437029.789421) can0 097#0170003001750025
(1638437029.789661) can0 120#0175000000000000
(1638437029.789904) can0 4B0#0000000000000000
(1638437029.790139) can0 210#21E0F8001021E000
(1638437029.790371) can0 085#03D8857C031E831B
(1638437029.803779) can0 12D#8100000000000000
(1638437029.804015) can0 097#0170003001750025
(1638437029.804266) can0 120#0175000000000000
(1638437029.804627) can0 307#0000000000000000
(1638437029.806455) can0 353#5B9E010111941981
(1638437029.808051) can0 090#02EE003180000000
(1638437029.808304) can0 4B0#0000000000000000
(1638437029.808562) can0 210#21E0F8001021E000
(1638437029.808764) can0 085#03D8857C031E831B
(1638437029.819630) can0 230#00BE760668000000
(1638437029.819870) can0 12D#8100000000000000
(1638437029.820114) can0 097#0170003001750025
(1638437029.820360) can0 120#0175000000000000
(1638437029.827966) can0 090#02EE003180000000
(1638437029.828215) can0 4B0#0000000000000000
(1638437029.828456) can0 210#21E0F8001021E000
(1638437029.828686) can0 085#03D7857C031E831B
(1638437029.834624) can0 128#00D6000000000000
(1638437029.834868) can0 350#0400000000000000
(1638437029.835109) can0 437#2F2D010000000081
(1638437029.835350) can0 453#00000000031E3B00
(1638437029.835605) can0 200#03440251033FC000
(1638437029.835859) can0 12D#8100000000000000
(1638437029.836095) can0 097#0170003001750025
(1638437029.836342) can0 120#0175000000000000
(1638437029.836590) can0 207#0000000000000000
(1638437029.836819) can0 6F6#15AF02E12BF9A316
(1638437029.847917) can0 090#02EE003180000000
(1638437029.848156) can0 4B0#0000000000000000
(1638437029.848409) can0 210#21E0F8001021E000
(1638437029.848634) can0 085#03D7857C031E831B
(1638437029.851678) can0 12D#8100000000000000
(1638437029.851915) can0 097#0170003001750025
(1638437029.852160) can0 120#0175000000000000
(1638437029.856453) can0 353#5B9E010111941981
(1638437029.867626) can0 12D#8100000000000000
(1638437029.867874) can0 097#0170003001750025
(1638437029.868105) can0 090#02EE003180000000
(1638437029.868350) can0 120#0175000000000000
(1638437029.868599) can0 4B0#0000000000000000
(1638437029.868840) can0 210#21E0F8001021E000
(1638437029.869072) can0 085#03D7857C031E831B
(1638437029.877559) can0 340#001A000000000000
(1638437029.883646) can0 200#03440251033FC000
(1638437029.883896) can0 207#0000000000000000
(1638437029.884141) can0 230#00BE760668000000
(1638437029.884386) can0 425#00FFFFFFFF028000
(1638437029.884632) can0 12D#8100000000000000
(1638437029.884872) can0 427#5022827EEB200500
(1638437029.885108) can0 44D#00400000325042C7
(1638437029.885349) can0 097#0170003001750025
(1638437029.885592) can0 120#0175000000000000
(1638437029.888026) can0 090#02EE003180000000
(1638437029.888277) can0 4B0#0000000000000000
(1638437029.888518) can0 210#21E0F8001021E000
(1638437029.888752) can0 085#03D7857C031E831B
(1638437029.899756) can0 12D#8100000000000000
(1638437029.900286) can0 097#0170003001750025
(1638437029.900379) can0 120#0175000000000000
(1638437029.906524) can0 353#5B9E010111941981
(1638437029.907992) can0 0FC#0300000000000000
(1638437029.908231) can0 4B0#0000000000000000
(1638437029.908473) can0 210#21E0F8001021E000
(1638437029.908703) can0 085#03D7857C031E831B
(1638437029.908941) can0 090#02EE003180000000
(1638437029.915775) can0 12D#8100000000000000
(1638437029.916010) can0 097#0170003001750025
(1638437029.916248) can0 120#0175000000000000
(1638437029.927990) can0 090#02EE003180000000
(1638437029.928216) can0 4B0#0000000000000000
(1638437029.928473) can0 210#21E0F8001021E000
(1638437029.928689) can0 085#03D7857C031E831B
(1638437029.931761) can0 200#03440251033FC000
(1638437029.931992) can0 12D#8100000000000000
(1638437029.932229) can0 097#0170003001750025
(1638437029.932481) can0 120#0175000000000000
(1638437029.932732) can0 207#0000000000000000
(1638437029.934674) can0 128#00D6000000000000
(1638437029.934906) can0 350#0400000000000000
(1638437029.935143) can0 437#2F2D010000000081
(1638437029.935397) can0 453#00000000031E3B00
(1638437029.947835) can0 230#00BE760668000000
(1638437029.948060) can0 090#02EE003180000000
(1638437029.948314) can0 12D#8100000000000000
(1638437029.948539) can0 097#0170003001750025
(1638437029.948807) can0 120#0175000000000000
(1638437029.949037) can0 4B0#0000000000000000
(1638437029.949280) can0 210#21E0F8001021E000
(1638437029.949501) can0 085#03D7857C031E831B
(1638437029.956520) can0 353#5B9E010111941981
(1638437029.963814) can0 12D#8100000000000000
(1638437029.964035) can0 097#0170003001750025
(1638437029.964290) can0 120#0175000000000000
(1638437029.967993) can0 090#02EE003180000000
(1638437029.968223) can0 4B0#0000000000000000
(1638437029.968460) can0 210#21E0F8001021E000
(1638437029.968709) can0 085#03D8857C031E831B
(1638437029.977466) can0 340#001A000000000000
(1638437029.979794) can0 200#03440251033FC000
(1638437029.980027) can0 207#0000000000000000
(1638437029.980287) can0 425#00FFFFFFFF028000
(1638437029.980513) can0 12D#8100000000000000
(1638437029.980765) can0 427#5022827EEB200500
(1638437029.980987) can0 44D#00400000325042C7
(1638437029.981260) can0 097#0170003001750025
(1638437029.981481) can0 120#0175000000000000
(1638437029.988083) can0 090#02EE003180000000
(1638437029.988317) can0 4B0#0000000000000000
(1638437029.988555) can0 210#21E0F8001021E000
(1638437029.988797) can0 085#03D7857C031E831B
(1638437029.995802) can0 12D#8100000000000000
(1638437029.996045) can0 097#0170003001750025
(1638437029.996273) can0 120#0175000000000000
(1638437030.006486) can0 353#5B9E010111941A81
(1638437030.007952) can0 090#02EE003180000000
(1638437030.008188) can0 4B0#0000000000000000
(1638437030.008448) can0 210#21E0F8001021E000
(1638437030.008652) can0 085#03D7857C031E831B
(1638437030.011800) can0 230#00BE760668000000
(1638437030.012047) can0 12D#8100000000000000
(1638437030.012275) can0 097#0170003001750025
(1638437030.012534) can0 120#0175000000000000
(1638437030.027770) can0 200#03440251033FC000
(1638437030.028001) can0 090#02EE003180000000
(1638437030.028262) can0 12D#8100000000000000
(1638437030.028481) can0 097#0170003001750025
(1638437030.028759) can0 120#0175000000000000
(1638437030.029007) can0 207#0000000000000000
(1638437030.029229) can0 4B0#0000000000000000
(1638437030.029482) can0 210#21E0F8001021E000
(1638437030.029729) can0 085#03D8857C031E831B
(1638437030.034652) can0 128#00D6000000000000
(1638437030.034898) can0 350#0400000000000000
(1638437030.035130) can0 437#2F2D010000000081
(1638437030.035373) can0 453#00000000031E3B00
(1638437030.043850) can0 12D#8100000000000000
(1638437030.044090) can0 097#0170003001750025
(1638437030.044331) can0 120#0175000000000000
(1638437030.047912) can0 090#02EE003180000000
(1638437030.048160) can0 4B0#0000000000000000
(1638437030.048387) can0 210#21E0F8001021E000
(1638437030.048635) can0 085#03D7857C031E831B
(1638437030.056481) can0 353#5B9E010111941A81
(1638437030.059856) can0 12D#8100000000000000
(1638437030.060100) can0 097#0170003001750025
(1638437030.060340) can0 120#0175000000000000
(1638437030.067960) can0 090#02EE003180000000
(1638437030.068210) can0 4B0#0000000000000000
(1638437030.068453) can0 210#21E0F8001021E000
(1638437030.068664) can0 085#03D7857C031E831B
(1638437030.075835) can0 200#03440251033FC000
(1638437030.076086) can0 207#0000000000000000
(1638437030.076328) can0 230#00BE760668000000
(1638437030.076576) can0 425#00FFFFFFFF028000
(1638437030.076847) can0 12D#8100000000000000
(1638437030.077052) can0 427#5022827EEB200500
(1638437030.077311) can0 44D#00400000325042C7
(1638437030.077545) can0 097#0170003001750025
(1638437030.077782) can0 120#0175000000000000
(1638437030.078034) can0 340#001A000000000000
(1638437030.078266) can0 6F6#15AF02E12BF9A316
(1638437030.087935) can0 090#02EE003180000000
(1638437030.088186) can0 4B0#0000000000000000
(1638437030.088428) can0 210#21E0F8001021E000
(1638437030.088667) can0 085#03D8857C031E831B
(1638437030.091880) can0 12D#8100000000000000
(1638437030.092121) can0 097#0170003001750025
(1638437030.092371) can0 120#0175000000000000
(1638437030.106483) can0 353#5B9E010111941981
(1638437030.107856) can0 12D#8100000000000000
(1638437030.108076) can0 097#0170003001750025
(1638437030.108325) can0 120#0175000000000000
(1638437030.108573) can0 4B0#0000000000000000
(1638437030.108813) can0 210#21E0F8001021E000
(1638437030.109044) can0 085#03D7857C031E831B
(1638437030.109295) can0 090#02EE003180000000
(1638437030.109543) can0 0FC#0300000000000000
(1638437030.123881) can0 200#03440251033FC000
(1638437030.124113) can0 12D#8100000000000000
(1638437030.124361) can0 097#0170003001750025
(1638437030.124606) can0 120#0175000000000000
(1638437030.124853) can0 207#0000000000000000
(1638437030.127928) can0 090#02EE003180000000
(1638437030.128161) can0 4B0#0000000000000000
(1638437030.128412) can0 210#21E0F8001021E000
(1638437030.128628) can0 085#03D7857C031E831B
(1638437030.134601) can0 128#00D6000000000000
(1638437030.134839) can0 350#0400000000000000
(1638437030.135084) can0 403#02047F2424000000
(1638437030.135333) can0 437#2F2D010000000081
(1638437030.135580) can0 453#00000000031E3B00
(1638437030.140111) can0 230#00BE760668000000
(1638437030.140341) can0 12D#8100000000000000
(1638437030.140584) can0 097#0170003001750025
(1638437030.140827) can0 120#0175000000000000
(1638437030.147910) can0 090#02EE003180000000
(1638437030.148148) can0 4B0#0000000000000000
(1638437030.148383) can0 210#21E0F8001021E000
(1638437030.148614) can0 085#03D7857C031E831B
(1638437030.156112) can0 12D#8100000000000000
(1638437030.156334) can0 097#0170003001750025
(1638437030.156582) can0 120#0175000000000000
(1638437030.156864) can0 353#5B9E010111941981
(1638437030.167869) can0 090#02EE003180000000
(1638437030.168102) can0 4B0#0000000000000000
(1638437030.168352) can0 210#21E0F8001021E000
(1638437030.168589) can0 085#03D7857C031E831B
(1638437030.172117) can0 200#03440251033FC000
(1638437030.172355) can0 207#0000000000000000
(1638437030.172607) can0 425#00FFFFFFFF028000
(1638437030.172873) can0 12D#8100000000000000
(1638437030.173120) can0 427#5022827FEB200500
(1638437030.173325) can0 44D#00400000325042C7
(1638437030.173573) can0 097#0170003001750025
(1638437030.173828) can0 120#0175000000000000
(1638437030.178060) can0 340#001A000000000000
(1638437030.187873) can0 090#02EE003180000000
(1638437030.188103) can0 12D#8100000000000000
(1638437030.188349) can0 097#0170003001750025
(1638437030.188594) can0 120#0175000000000000
(1638437030.188852) can0 4B0#0000000000000000
(1638437030.189077) can0 210#21E0F8001021E000
(1638437030.189338) can0 085#03D8857C031E831B
(1638437030.204113) can0 230#00BE760668000000
(1638437030.204363) can0 12D#8100000000000000
(1638437030.204583) can0 097#0170003001750025
(1638437030.204855) can0 120#0175000000000000
(1638437030.206471) can0 353#5B9E010111941981
(1638437030.207900) can0 090#02EE003180000000
(1638437030.208151) can0 4B0#0000000000000000
(1638437030.208386) can0 210#21E0F8001021E000
(1638437030.208606) can0 085#03D8857C031E831B
(1638437030.220147) can0 200#03440251033FC000
(1638437030.220397) can0 12D#8100000000000000
(1638437030.220617) can0 097#0170003001750025
(1638437030.220863) can0 120#0175000000000000
(1638437030.221126) can0 207#0000000000000000
(1638437030.227905) can0 090#02EE003180000000
(1638437030.228153) can0 4B0#0000000000000000
(1638437030.228379) can0 210#21E0F8001021E000
(1638437030.228610) can0 085#03D7857C031E831B
(1638437030.234581) can0 128#00D6000000000000
(1638437030.234828) can0 350#0400000000000000
(1638437030.235069) can0 437#2F2D010000000081
(1638437030.235321) can0 453#00000000031E3B00
(1638437030.236153) can0 12D#8100000000000000
(1638437030.236391) can0 097#0170003001750025
(1638437030.236637) can0 120#0175000000000000
(1638437030.247848) can0 090#02EE003180000000
(1638437030.248083) can0 4B0#0000000000000000
(1638437030.248330) can0 210#21E0F8001021E000
(1638437030.248552) can0 085#03D7857C031E831B
(1638437030.252203) can0 12D#8100000000000000
(1638437030.252443) can0 097#0170003001750025
(1638437030.252684) can0 120#0175000000000000
(1638437030.256470) can0 353#5B9E010111941981
(1638437030.267853) can0 090#02EE003180000000
(1638437030.268104) can0 4B0#0000000000000000
(1638437030.268342) can0 200#03440251033FC000
(1638437030.268586) can0 207#0000000000000000
(1638437030.268832) can0 210#21E0F8001021E000
(1638437030.269066) can0 085#03D7857C031E831B
(1638437030.269302) can0 230#00BE760668000000
(1638437030.269550) can0 425#00FFFFFFFF028000
(1638437030.269800) can0 12D#8100000000000000
(1638437030.270033) can0 427#5022827EEB200500
(1638437030.270272) can0 44D#00400000325042C7
(1638437030.270511) can0 097#0170003001750025
(1638437030.270756) can0 120#0175000000000000
(1638437030.270997) can0 623#3644128200000000
(1638437030.271234) can0 640#50600077400C8600
(1638437030.271478) can0 650#1036440106000000
(1638437030.276218) can0 340#001A000000000000
(1638437030.284202) can0 12D#8100000000000000
(1638437030.284443) can0 097#0170003001750025
(1638437030.284683) can0 120#0175000000000000
(1638437030.287845) can0 090#02EE003180000000
(1638437030.288102) can0 4B0#0000000000000000
(1638437030.288340) can0 210#21E0F8001021E000
(1638437030.288556) can0 085#03D7857C031E831B
(1638437030.300041) can0 12D#8100000000000000
(1638437030.300270) can0 097#0170003001750025
(1638437030.300518) can0 120#0175000000000000
(1638437030.306466) can0 353#5B9E010111941981
(1638437030.307864) can0 0FC#0300000000000000
(1638437030.308109) can0 4B0#0000000000000000
(1638437030.308339) can0 210#21E0F8001021E000
(1638437030.308578) can0 085#03D7857C031E831B
(1638437030.308838) can0 090#02EE003180000000
(1638437030.314568) can0 307#0000000000000000
(1638437030.316060) can0 200#03440251033FC000
(1638437030.316305) can0 12D#8100000000000000
(1638437030.316552) can0 097#0170003001750025
(1638437030.316813) can0 120#0175000000000000
(1638437030.317034) can0 207#0000000000000000
(1638437030.317265) can0 6F6#15AF02E12BF9A316
(1638437030.327875) can0 090#02EE003180000000
(1638437030.328111) can0 4B0#0000000000000000
(1638437030.328347) can0 210#21E0F8001021E000
(1638437030.328576) can0 085#03D7857C031E831B
(1638437030.332066) can0 230#00BE760668000000
(1638437030.332305) can0 12D#8100000000000000
(1638437030.332546) can0 097#0170003001750025
(1638437030.332789) can0 120#0175000000000000
(1638437030.334554) can0 128#00D6000000000000
(1638437030.334804) can0 350#0400000000000000
(1638437030.335046) can0 437#2F2D010000000081
(1638437030.335286) can0 453#00000000031E3B00
(1638437030.347872) can0 090#02EE003180000000
(1638437030.348111) can0 4B0#0000000000000000
(1638437030.348362) can0 12D#8100000000000000
(1638437030.348589) can0 097#0170003001750025
(1638437030.348845) can0 120#0175000000000000
(1638437030.349094) can0 210#21E0F8001021E000
(1638437030.349307) can0 085#03D7857C031E831B
(1638437030.356464) can0 353#5B9E010111941981
(1638437030.364083) can0 200#03440251033FC000
(1638437030.364319) can0 207#0000000000000000
(1638437030.364584) can0 425#00FFFFFFFF028000
(1638437030.364825) can0 12D#8100000000000000
(1638437030.365063) can0 427#5022827EEB200500
(1638437030.365311) can0 44D#00400000325042C7
(1638437030.365530) can0 097#0170003001750025
(1638437030.365791) can0 120#0175000000000000
(1638437030.367899) can0 090#02EE003180000000
(1638437030.368131) can0 4B0#0000000000000000
(1638437030.368374) can0 210#21E0F8001021E000
(1638437030.368618) can0 085#03D7857C031E831B
(1638437030.377834) can0 340#001A000000000000
(1638437030.380104) can0 12D#8100000000000000
(1638437030.380325) can0 097#0170003001750025
(1638437030.380598) can0 120#0175000000000000
(1638437030.387846) can0 090#02EE003180000000
(1638437030.388097) can0 4B0#0000000000000000
(1638437030.388340) can0 210#21E0F8001021E000
(1638437030.388577) can0 085#03D7857C031E831B
(1638437030.396108) can0 230#00BE760668000000
(1638437030.396342) can0 12D#8100000000000000
(1638437030.396585) can0 097#0170003001750025
(1638437030.396843) can0 120#0175000000000000
(1638437030.406460) can0 353#5B9E010111941981
(1638437030.407850) can0 090#02EE003180000000
(1638437030.408087) can0 4B0#0000000000000000
(1638437030.408331) can0 210#21E0F8001021E000
(1638437030.408578) can0 085#03D8857C031E831B
(1638437030.412125) can0 200#03440251033FC000
(1638437030.412359) can0 12D#8100000000000000
(1638437030.412598) can0 097#0170003001750025
(1638437030.412862) can0 120#0175000000000000
(1638437030.413094) can0 207#0000000000000000
(1638437030.427839) can0 090#02EE003180000000
(1638437030.428073) can0 4B0#0000000000000000
(1638437030.428325) can0 12D#8100000000000000
(1638437030.428570) can0 097#0170003001750025
(1638437030.428808) can0 120#0175000000000000
(1638437030.429054) can0 210#21E0F8001021E000
(1638437030.429273) can0 085#03D7857C031E831B
(1638437030.434542) can0 128#00D6000000000000
(1638437030.434788) can0 350#0400000000000000
(1638437030.435017) can0 437#2F2D010000000081
(1638437030.435259) can0 453#00000000031E3B00
(1638437030.444182) can0 12D#8100000000000000
(1638437030.444402) can0 097#0170003001750025
(1638437030.444652) can0 120#0175000000000000
(1638437030.447847) can0 090#02EE003180000000
(1638437030.448078) can0 4B0#0000000000000000
(1638437030.448320) can0 210#21E0F8001021E000
(1638437030.448550) can0 085#03D7857C031E831B
(1638437030.456457) can0 353#5B9E010111941981
(1638437030.460154) can0 200#03440251033FC000
(1638437030.460390) can0 207#0000000000000000
(1638437030.460637) can0 230#00BE760668000000
(1638437030.460885) can0 425#00FFFFFFFF028000
(1638437030.461130) can0 12D#8100000000000000
(1638437030.461384) can0 427#5022827EEB200500
(1638437030.461615) can0 44D#00400000325042C7
(1638437030.461840) can0 097#0170003001750025
(1638437030.462088) can0 120#0175000000000000
(1638437030.467983) can0 090#02EE003180000000
(1638437030.468216) can0 4B0#0000000000000000
(1638437030.468466) can0 210#21E0F8001021E000
(1638437030.468694) can0 085#03D7857C031E831B
(1638437030.476015) can0 340#001A000000000000
(1638437030.476244) can0 12D#8100000000000000
(1638437030.476485) can0 097#0170003001750025
(1638437030.476762) can0 120#0175000000000000
(1638437030.487837) can0 090#02EE003180000000
(1638437030.488070) can0 4B0#0000000000000000
(1638437030.488321) can0 210#21E0F8001021E000
(1638437030.488552) can0 085#03D7857C031E831B
(1638437030.492189) can0 12D#8100000000000000
(1638437030.492399) can0 097#0170003001750025
(1638437030.492656) can0 120#0175000000000000
(1638437030.506454) can0 353#5B9E010111941981
(1638437030.507836) can0 0FC#0300000000000000
(1638437030.508069) can0 4B0#0000000000000000
(1638437030.508326) can0 12D#8100000000000000
(1638437030.508556) can0 097#0170003001750025
(1638437030.508806) can0 120#0175000000000000
(1638437030.509038) can0 200#03440251033FC000
(1638437030.509303) can0 207#0000000000000000
(1638437030.509543) can0 210#21E0F8001021E000
(1638437030.509760) can0 085#03D7857C031E831B
(1638437030.510008) can0 090#02EE003180000000
(1638437030.524185) can0 230#00BE760668000000
(1638437030.524414) can0 12D#8100000000000000
(1638437030.524663) can0 097#0170003001750025
(1638437030.524900) can0 120#0175000000000000
(1638437030.527821) can0 090#02EE003180000000
(1638437030.528051) can0 4B0#0000000000000000
(1638437030.528300) can0 210#21E0F8001021E000
(1638437030.528528) can0 085#03D7857C031E831B
(1638437030.534515) can0 128#00D6000000000000
(1638437030.534745) can0 350#0400000000000000
(1638437030.534994) can0 437#2F2D010000000081
(1638437030.535226) can0 453#00000000031E3B00
(1638437030.540252) can0 12D#8100000000000000
(1638437030.540482) can0 097#0170003001750025
(1638437030.540733) can0 120#0175000000000000
(1638437030.547824) can0 090#02EE003180000000
(1638437030.548058) can0 4B0#0000000000000000
(1638437030.548305) can0 210#21E0F8001021E000
(1638437030.548534) can0 085#03D7857C031E831B
