(1639738101.061819) can0 720#023E010000000000
(1639738101.064751) can0 728#017E000000000000
(1639738101.065568) can0 720#0210870000000000
(1639738101.073290) can0 728#0250870000000000
(1639738101.310927) can0 720#023E010000000000
(1639738101.318157) can0 728#017E000000000000
(1639738101.595220) can0 720#0227010000000000
(1639738101.597176) can0 728#0567013CBCE90000
(1639738101.609933) can0 720#0727020000000000
(1639738101.614472) can0 728#037F271200000000
(1639738101.623754) can0 720#072702AA775C45B7
(1639738101.631440) can0 728#037F271200000000
(1639738101.677358) can0 720#023E010000000000
(1639738101.685474) can0 728#017E000000000000
(1639738102.869581) can0 720#023E010000000000
(1639738102.873128) can0 728#017E000000000000
(1639738103.062202) can0 720#023E010000000000
(1639738103.069768) can0 728#017E000000000000
(1639738103.311036) can0 720#023E010000000000
(1639738103.319190) can0 728#017E000000000000
(1639738103.677812) can0 720#023E010000000000
(1639738103.682496) can0 728#017E000000000000
(1639738104.869340) can0 720#023E010000000000
(1639738104.871468) can0 728#017E000000000000
(1639738105.062504) can0 720#023E010000000000
(1639738105.070333) can0 728#017E000000000000
(1639738105.311810) can0 720#023E010000000000
(1639738105.315379) can0 728#017E000000000000
(1639738105.678640) can0 720#023E010000000000
(1639738105.680354) can0 728#017E000000000000
(1639738110.587049) can0 720#023E010000000000
(1639738110.594817) can0 728#017E000000000000
(1639738110.780187) can0 720#023E010000000000
(1639738110.781646) can0 728#017E000000000000
(1639738111.029041) can0 720#023E010000000000
(1639738111.035125) can0 728#017E000000000000
(1639738111.395826) can0 720#023E010000000000
(1639738111.399371) can0 728#017E000000000000
(1639738112.587452) can0 720#023E010000000000
(1639738112.597390) can0 728#017E000000000000
(1639738112.780278) can0 720#023E010000000000
(1639738112.790748) can0 728#017E000000000000
(1639738113.029212) can0 720#023E010000000000
(1639738113.034711) can0 728#017E000000000000
(1639738113.395749) can0 720#023E010000000000
(1639738113.401693) can0 728#017E000000000000
(1639738114.588380) can0 720#023E010000000000
(1639738114.591914) can0 728#017E000000000000
(1639738114.780548) can0 720#023E010000000000
(1639738114.789399) can0 728#017E000000000000
(1639738115.029421) can0 720#023E010000000000
(1639738115.032890) can0 728#017E000000000000
(1639738115.377879) can0 720#07270279699656B6
(1639738115.384198) can0 728#037F271200000000
(1639738115.396143) can0 720#023E010000000000
(1639738115.401293) can0 728#017E000000000000
(1639738116.587831) can0 720#023E010000000000
(1639738116.593422) can0 728#017E000000000000
(1639738116.780788) can0 720#023E010000000000
(1639738116.789364) can0 728#017E000000000000
(1639738117.029621) can0 720#023E010000000000
(1639738117.034815) can0 728#017E000000000000
(1639738117.396591) can0 720#023E010000000000
(1639738117.399052) can0 728#017E000000000000
(1639738118.589663) can0 720#023E010000000000
(1639738118.592452) can0 728#017E000000000000
(1639738118.782300) can0 720#023E010000000000
(1639738118.792539) can0 728#017E000000000000
(1639738119.029753) can0 720#023E010000000000
(1639738119.036426) can0 728#017E000000000000
(1639738119.396773) can0 720#023E010000000000
(1639738119.406211) can0 728#017E000000000000
(1639738120.588263) can0 720#023E010000000000
(1639738120.591106) can0 728#017E000000000000
(1639738120.781191) can0 720#023E010000000000
(1639738120.787074) can0 728#017E000000000000
(1639738121.029712) can0 720#023E010000000000
(1639738121.032906) can0 728#017E000000000000
(1639738121.396986) can0 720#023E010000000000
(1639738121.399350) can0 728#017E000000000000
(1639738122.588424) can0 720#023E010000000000
(1639738122.594050) can0 728#017E000000000000
(1639738122.781463) can0 720#023E010000000000
(1639738122.785133) can0 728#017E000000000000
(1639738123.029936) can0 720#023E010000000000
(1639738123.039474) can0 728#017E000000000000
(1639738123.397158) can0 720#023E010000000000
(1639738123.400704) can0 728#017E000000000000
(1639738124.588356) can0 720#023E010000000000
(1639738124.595231) can0 728#017E000000000000
(1639738124.781526) can0 720#023E010000000000
(1639738124.787401) can0 728#017E000000000000
(1639738125.030347) can0 720#023E010000000000
(1639738125.034500) can0 728#017E000000000000
(1639738125.397333) can0 720#023E010000000000
(1639738125.399285) can0 728#017E000000000000
(1639738125.419997) can0 720#0727021A12D39849
(1639738125.424815) can0 728#037F271200000000
(1639738126.588450) can0 720#023E010000000000
(1639738126.598016) can0 728#017E000000000000
(1639738126.781479) can0 720#023E010000000000
(1639738126.789332) can0 728#017E000000000000
(1639738127.030309) can0 720#023E010000000000
(1639738127.038368) can0 728#017E000000000000
(1639738127.397301) can0 720#023E010000000000
(1639738127.405794) can0 728#017E000000000000
(1639738128.588795) can0 720#023E010000000000
(1639738128.595820) can0 728#017E000000000000
(1639738128.781867) can0 720#023E010000000000
(1639738128.787928) can0 728#017E000000000000
(1639738129.030493) can0 720#023E010000000000
(1639738129.032919) can0 728#017E000000000000
(1639738129.397609) can0 720#023E010000000000
(1639738129.401329) can0 728#017E000000000000
(1639738130.588973) can0 720#023E010000000000
(1639738130.597360) can0 728#017E000000000000
(1639738130.782352) can0 720#023E010000000000
(1639738130.791381) can0 728#017E000000000000
(1639738131.030706) can0 720#023E010000000000
(1639738131.036566) can0 728#017E000000000000
(1639738131.397954) can0 720#023E010000000000
(1639738131.400577) can0 728#017E000000000000
(1639738132.588996) can0 720#023E010000000000
(1639738132.594663) can0 728#017E000000000000
(1639738132.782549) can0 720#023E010000000000
(1639738132.784285) can0 728#017E000000000000
(1639738133.030734) can0 720#023E010000000000
(1639738133.033531) can0 728#017E000000000000
(1639738133.398113) can0 720#023E010000000000
(1639738133.407453) can0 728#017E000000000000
(1639738134.589070) can0 720#023E010000000000
(1639738134.595530) can0 728#017E000000000000
(1639738134.782798) can0 720#023E010000000000
(1639738134.790165) can0 728#017E000000000000
(1639738135.030796) can0 720#023E010000000000
(1639738135.037537) can0 728#017E000000000000
(1639738135.398325) can0 720#023E010000000000
(1639738135.399389) can0 728#017E000000000000
(1639738135.450129) can0 720#072702766684578C
(1639738135.451913) can0 728#037F271200000000
(1639738136.589260) can0 720#023E010000000000
(1639738136.599580) can0 728#017E000000000000
(1639738136.782910) can0 720#023E010000000000
(1639738136.786082) can0 728#017E000000000000
(1639738137.030873) can0 720#023E010000000000
(1639738137.036655) can0 728#017E000000000000
(1639738137.398547) can0 720#023E010000000000
(1639738137.406178) can0 728#017E000000000000
(1639738138.589323) can0 720#023E010000000000
(1639738138.593144) can0 728#017E000000000000
(1639738138.783252) can0 720#023E010000000000
(1639738138.792463) can0 728#017E000000000000
(1639738139.031255) can0 720#023E010000000000
(1639738139.039564) can0 728#017E000000000000
(1639738139.398709) can0 720#023E010000000000
(1639738139.401955) can0 728#017E000000000000
(1639738140.589664) can0 720#023E010000000000
(1639738140.593571) can0 728#017E000000000000
(1639738140.783244) can0 720#023E010000000000
(1639738140.790154) can0 728#017E000000000000
(1639738141.031473) can0 720#023E010000000000
(1639738141.034542) can0 728#017E000000000000
(1639738141.398695) can0 720#023E010000000000
(1639738141.405103) can0 728#017E000000000000
(1639738142.589614) can0 720#023E010000000000
(1639738142.596631) can0 728#017E000000000000
(1639738146.318475) can0 720#023E010000000000
(1639738146.321476) can0 728#017E000000000000
(1639738146.566935) can0 720#023E010000000000
(1639738146.576188) can0 728#017E000000000000
(1639738146.933801) can0 720#023E010000000000
(1639738146.940515) can0 728#017E000000000000
(1639738148.124997) can0 720#023E010000000000
(1639738148.131369) can0 728#017E000000000000
(1639738148.319636) can0 720#023E010000000000
(1639738148.328213) can0 728#017E000000000000
(1639738148.566632) can0 720#023E010000000000
(1639738148.567991) can0 728#017E000000000000
(1639738148.934106) can0 720#023E010000000000
(1639738148.936800) can0 728#017E000000000000
(1639738149.000368) can0 720#072702766684578C
(1639738149.005993) can0 728#037F271200000000
(1639738150.124938) can0 720#023E010000000000
(1639738150.132005) can0 728#017E000000000000
(1639738150.319044) can0 720#023E010000000000
(1639738150.320633) can0 728#017E000000000000
(1639738150.566947) can0 720#023E010000000000
(1639738150.577343) can0 728#017E000000000000
(1639738150.934295) can0 720#023E010000000000
(1639738150.942893) can0 728#017E000000000000
(1639738152.125264) can0 720#023E010000000000
(1639738152.129022) can0 728#017E000000000000
(1639738152.319000) can0 720#023E010000000000
(1639738152.324145) can0 728#017E000000000000
(1639738152.567248) can0 720#023E010000000000
(1639738152.575295) can0 728#017E000000000000
(1639738152.934474) can0 720#023E010000000000
(1639738152.939801) can0 728#017E000000000000
(1639738154.125473) can0 720#023E010000000000
(1639738154.129414) can0 728#017E000000000000
(1639738154.319299) can0 720#023E010000000000
(1639738154.323518) can0 728#017E000000000000
(1639738154.567132) can0 720#023E010000000000
(1639738154.573032) can0 728#017E000000000000
(1639738154.934637) can0 720#023E010000000000
(1639738154.936126) can0 728#017E000000000000
(1639738156.125440) can0 720#023E010000000000
(1639738156.128394) can0 728#017E000000000000
(1639738156.319301) can0 720#023E010000000000
(1639738156.321577) can0 728#017E000000000000
(1639738156.567752) can0 720#023E010000000000
(1639738156.571291) can0 728#017E000000000000
(1639738156.935394) can0 720#023E010000000000
(1639738156.938111) can0 728#017E000000000000
(1639738158.125931) can0 720#023E010000000000
(1639738158.127344) can0 728#017E000000000000
(1639738158.323138) can0 720#023E010000000000
(1639738158.333253) can0 728#017E000000000000
(1639738158.569861) can0 720#023E010000000000
(1639738158.572021) can0 728#017E000000000000
(1639738158.935182) can0 720#023E010000000000
(1639738158.941439) can0 728#017E000000000000
(1639738159.018732) can0 720#0727028899966A5C
(1639738159.027095) can0 728#037F271200000000
(1639738160.126207) can0 720#023E010000000000
(1639738160.129543) can0 728#017E000000000000
(1639738160.326195) can0 720#023E010000000000
(1639738160.335066) can0 728#017E000000000000
(1639738160.567902) can0 720#023E010000000000
(1639738160.573766) can0 728#017E000000000000
(1639738160.935471) can0 720#023E010000000000
(1639738160.944404) can0 728#017E000000000000
(1639738162.126095) can0 720#023E010000000000
(1639738162.135779) can0 728#017E000000000000
(1639738162.320105) can0 720#023E010000000000
(1639738162.325431) can0 728#017E000000000000
(1639738162.567926) can0 720#023E010000000000
(1639738162.575954) can0 728#017E000000000000
(1639738162.935459) can0 720#023E010000000000
(1639738162.941035) can0 728#017E000000000000
(1639738164.126524) can0 720#023E010000000000
(1639738164.134930) can0 728#017E000000000000
(1639738164.320076) can0 720#023E010000000000
(1639738164.326995) can0 728#017E000000000000
(1639738164.568258) can0 720#023E010000000000
(1639738164.571301) can0 728#017E000000000000
(1639738164.935567) can0 720#023E010000000000
(1639738164.938658) can0 728#017E000000000000
(1639738166.126642) can0 720#023E010000000000
(1639738166.135295) can0 728#017E000000000000
(1639738166.320407) can0 720#023E010000000000
(1639738166.329186) can0 728#017E000000000000
(1639738166.568233) can0 720#023E010000000000
(1639738166.573774) can0 728#017E000000000000
(1639738166.935636) can0 720#023E010000000000
(1639738166.946964) can0 728#017E000000000000
(1639738168.126838) can0 720#023E010000000000
(1639738168.128182) can0 728#017E000000000000
(1639738168.320592) can0 720#023E010000000000
(1639738168.324077) can0 728#017E000000000000
(1639738168.568311) can0 720#023E010000000000
(1639738168.572878) can0 728#017E000000000000
(1639738168.935970) can0 720#023E010000000000
(1639738168.944632) can0 728#017E000000000000
(1639738169.053608) can0 720#07270298976877AA
(1639738169.055390) can0 728#037F271200000000
(1639738170.127004) can0 720#023E010000000000
(1639738170.135109) can0 728#017E000000000000
(1639738170.320781) can0 720#023E010000000000
(1639738170.322778) can0 728#017E000000000000
(1639738170.568419) can0 720#023E010000000000
(1639738170.578701) can0 728#017E000000000000
(1639738170.936206) can0 720#023E010000000000
(1639738170.940457) can0 728#017E000000000000
(1639738172.128059) can0 720#023E010000000000
(1639738172.136877) can0 728#017E000000000000
(1639738172.320974) can0 720#023E010000000000
(1639738172.327966) can0 728#017E000000000000
(1639738172.570451) can0 720#023E010000000000
(1639738172.572457) can0 728#017E000000000000
(1639738172.936592) can0 720#023E010000000000
(1639738172.945562) can0 728#017E000000000000
(1639738173.188357) can0 720#0221040000000000
(1639738173.195205) can0 728#102D61044E9D035A
(1639738173.196658) can0 720#3000000000000000
(1639738173.201984) can0 728#2102FE02C4029102
(1639738173.211075) can0 728#222101EC011C00BF
(1639738173.221055) can0 728#2300920062000010
(1639738173.230302) can0 728#24221B3F26573C8C
(1639738173.240993) can0 728#2548A860E06CFC79
(1639738173.254100) can0 728#261880E811000000
(1639738173.267734) can0 720#0221050000000000
(1639738173.272421) can0 728#037F213100000000
(1639738173.286145) can0 720#0221060000000000
(1639738173.289356) can0 728#1013610636465041
(1639738173.290532) can0 720#3000000000000000
(1639738173.295174) can0 728#2141414A47535739
(1639738173.302130) can0 728#2245383631303100
(1639738173.315451) can0 720#0221070000000000
(1639738173.323436) can0 728#037F213100000000
(1639738173.336960) can0 720#0221080000000000
(1639738173.340498) can0 728#037F213100000000
(1639738173.354996) can0 720#0221090000000000
(1639738173.359550) can0 728#037F213100000000
(1639738173.374754) can0 720#02210A0000000000
(1639738173.380755) can0 728#037F213100000000
(1639738174.127171) can0 720#023E010000000000
(1639738174.138201) can0 728#017E000000000000
(1639738174.321124) can0 720#023E010000000000
(1639738174.329369) can0 728#017E000000000000
(1639738174.568923) can0 720#023E010000000000
(1639738174.577239) can0 728#017E000000000000
(1639738174.839659) can0 720#100F220001000200
(1639738174.840530) can0 728#3000280000000000
(1639738174.875442) can0 720#2103000400050006
(1639738174.910367) can0 720#2200070000000000
(1639738174.918083) can0 728#037F221200000000
(1639738174.936788) can0 720#023E010000000000
(1639738174.941842) can0 720#0221000000000000
(1639738174.943667) can0 728#017E000000000000
(1639738175.482474) can0 720#0221000000000000
(1639738175.490179) can0 728#05610003221A0000
(1639738175.504124) can0 720#0221010000000000
(1639738175.507225) can0 728#1013610136465041
(1639738175.508386) can0 720#3000000000000000
(1639738175.513089) can0 728#2141414A47535739
(1639738175.523530) can0 728#2245383631303100
(1639738175.537907) can0 720#0221020000000000
(1639738175.541497) can0 728#0361028000000000
(1639738175.554899) can0 720#0221030000000000
(1639738175.558385) can0 728#046103DD0E000000
(1639738175.572348) can0 720#0221040000000000
(1639738175.575389) can0 728#102D61044E9D035A
(1639738175.576638) can0 720#3000000000000000
(1639738175.579600) can0 728#2102FE02C4029102
(1639738175.588127) can0 728#222101EC011C00BF
(1639738175.597430) can0 728#2300920062000010
(1639738175.605920) can0 728#24221B3F26573C8C
(1639738175.614486) can0 728#2548A860E06CFC79
(1639738175.622242) can0 728#261880E811000000
(1639738175.635742) can0 720#0221060000000000
(1639738175.643578) can0 728#1013610636465041
(1639738175.644781) can0 720#3000000000000000
(1639738175.649369) can0 728#2141414A47535739
(1639738175.656267) can0 728#2245383631303100
(1639738176.127577) can0 720#023E010000000000
(1639738176.136404) can0 728#017E000000000000
(1639738176.321598) can0 720#023E010000000000
(1639738176.327827) can0 728#017E000000000000
(1639738176.569111) can0 720#023E010000000000
(1639738176.579056) can0 728#017E000000000000
(1639738176.937303) can0 720#023E010000000000
(1639738176.942111) can0 728#017E000000000000
(1639738178.127709) can0 720#023E010000000000
(1639738178.136029) can0 728#017E000000000000
(1639738178.321852) can0 720#023E010000000000
(1639738178.329216) can0 728#017E000000000000
(1639738181.899787) can0 720#023E010000000000
(1639738181.904576) can0 728#017E000000000000
(1639738182.267964) can0 720#023E010000000000
(1639738182.276199) can0 728#017E000000000000
(1639738182.408406) can0 720#07270293469848B9
(1639738182.416110) can0 728#037F271200000000
(1639738183.458264) can0 720#023E010000000000
(1639738183.461400) can0 728#017E000000000000
(1639738183.652270) can0 720#023E010000000000
(1639738183.656364) can0 728#017E000000000000
(1639738183.899717) can0 720#023E010000000000
(1639738183.906881) can0 728#017E000000000000
(1639738184.267999) can0 720#023E010000000000
(1639738184.277024) can0 728#017E000000000000
(1639738185.458405) can0 720#023E010000000000
(1639738185.467169) can0 728#017E000000000000
(1639738185.652344) can0 720#023E010000000000
(1639738185.657047) can0 728#017E000000000000
(1639738185.899825) can0 720#023E010000000000
(1639738185.909103) can0 728#017E000000000000
(1639738186.268076) can0 720#023E010000000000
(1639738186.269232) can0 728#017E000000000000
(1639738187.458603) can0 720#023E010000000000
(1639738187.468032) can0 728#017E000000000000
(1639738187.652837) can0 720#023E010000000000
(1639738187.661830) can0 728#017E000000000000
(1639738187.900145) can0 720#023E010000000000
(1639738187.907944) can0 728#017E000000000000
(1639738188.268411) can0 720#023E010000000000
(1639738188.272352) can0 728#017E000000000000
(1639738189.458778) can0 720#023E010000000000
(1639738189.463420) can0 728#017E000000000000
(1639738189.652739) can0 720#023E010000000000
(1639738189.658162) can0 728#017E000000000000
(1639738189.900160) can0 720#023E010000000000
(1639738189.904161) can0 728#017E000000000000
(1639738190.268613) can0 720#023E010000000000
(1639738190.276509) can0 728#017E000000000000
(1639738191.459026) can0 720#023E010000000000
(1639738191.466996) can0 728#017E000000000000
(1639738191.652874) can0 720#023E010000000000
(1639738191.658555) can0 728#017E000000000000
(1639738191.900234) can0 720#023E010000000000
(1639738191.901752) can0 728#017E000000000000
(1639738192.268808) can0 720#023E010000000000
(1639738192.274327) can0 728#017E000000000000
(1639738192.418736) can0 720#0727029699569485
(1639738192.421342) can0 728#037F271200000000
(1639738193.459160) can0 720#023E010000000000
(1639738193.467461) can0 728#017E000000000000
(1639738193.653189) can0 720#023E010000000000
(1639738193.654829) can0 728#017E000000000000
(1639738193.900553) can0 720#023E010000000000
(1639738193.901897) can0 728#017E000000000000
(1639738194.268866) can0 720#023E010000000000
(1639738194.277706) can0 728#017E000000000000
(1639738195.459369) can0 720#023E010000000000
(1639738195.461901) can0 728#017E000000000000
(1639738195.653657) can0 720#023E010000000000
(1639738195.655773) can0 728#017E000000000000
(1639738195.900504) can0 720#023E010000000000
(1639738195.904591) can0 728#017E000000000000
(1639738196.269155) can0 720#023E010000000000
(1639738196.276102) can0 728#017E000000000000
(1639738197.459550) can0 720#023E010000000000
(1639738197.468664) can0 728#017E000000000000
(1639738197.654221) can0 720#023E010000000000
(1639738197.657783) can0 728#017E000000000000
(1639738197.900854) can0 720#023E010000000000
(1639738197.903967) can0 728#017E000000000000
(1639738198.269355) can0 720#023E010000000000
(1639738198.275124) can0 728#017E000000000000
(1639738199.459809) can0 720#023E010000000000
(1639738199.467956) can0 728#017E000000000000
(1639738199.654772) can0 720#023E010000000000
(1639738199.658527) can0 728#017E000000000000
(1639738199.901077) can0 720#023E010000000000
(1639738199.909929) can0 728#017E000000000000
(1639738200.269290) can0 720#023E010000000000
(1639738200.274911) can0 728#017E000000000000
(1639738201.459770) can0 720#023E010000000000
(1639738201.463632) can0 728#017E000000000000
(1639738201.654794) can0 720#023E010000000000
(1639738201.661736) can0 728#017E000000000000
(1639738201.901050) can0 720#023E010000000000
(1639738201.903413) can0 728#017E000000000000
