(1644236662.433795) can0 7A6#4D7A20498E728A12
(1644236662.634225) can0 7A6#AF5A8846BCB5CB55
(1644236662.834535) can0 7A6#CE8873135F8CC465
(1644236663.034742) can0 7A6#68E092435D80F761
(1644236663.235032) can0 7A6#CD9F1643371BBD2F
(1644236663.435148) can0 7A6#23309A5AAE06884F
(1644236663.635346) can0 7A6#42BF2B00D997853D
(1644236663.835565) can0 7A6#C4183362AB34F64B
(1644236664.035656) can0 7A6#D351C857A90B2525
(1644236664.235906) can0 7A6#28F1F627524DD723
(1644236664.436030) can0 7A6#A25FAF6B93A1BC47
(1644236664.636213) can0 7A6#20B7940BBAC19054
(1644236664.836448) can0 7A6#6C5A1E048BB3371D
(1644236665.036616) can0 7A6#7CEE2440AE45150D
(1644236665.236865) can0 7A6#D97C48565D8C8C35
(1644236665.437090) can0 7A6#01BAB96426F7681F
(1644236665.450288) can0 7AE#037FBA1100000000
(1644236665.637234) can0 7A6#ECFE1648B014422B
(1644236665.837394) can0 7A6#E2AC3475BA878A5B
(1644236666.037588) can0 7A6#0FA106114A8DC738
(1644236666.038578) can0 7AE#037FA11200000000
(1644236666.237766) can0 7A6#1708823DDD401D54
(1644236666.238809) can0 7AE#3008280000000000
(1644236666.319858) can0 7AE#037F827200000000
(1644236666.437922) can0 7A6#81A884683A381C18
(1644236666.638086) can0 7A6#8B47A523C467B068
(1644236666.838294) can0 7A6#14D0A1554F60D805
(1644236666.840314) can0 7AE#3008280000000000
(1644236666.919897) can0 7AE#037FA17200000000
(1644236667.038391) can0 7A6#6F9CA634E7216A2D
(1644236667.238588) can0 7A6#F96BFD2A988D9D5C
(1644236667.438745) can0 7A6#396F41519BCBAC16
(1644236667.638892) can0 7A6#2B2F5A245926D65C
(1644236667.839033) can0 7A6#558D3D6B97897828
(1644236668.039191) can0 7A6#E4D90D7AD17B622B
(1644236668.239327) can0 7A6#46CF8D35BD565650
(1644236668.439510) can0 7A6#2F08EF604789471A
(1644236668.639695) can0 7A6#E44DBF6F1B070629
(1644236668.840004) can0 7A6#F79D8945C6FAF364
(1644236669.040173) can0 7A6#D58E9004073F9056
(1644236669.240272) can0 7A6#1188BB1DEC961242
(1644236669.241326) can0 7AE#3008280000000000
(1644236669.314674) can0 7AE#037FBB7200000000
(1644236669.440594) can0 7A6#E47FAD2A92304006
(1644236669.640754) can0 7A6#26CF2E5A6FC7524E
(1644236669.840925) can0 7A6#5698F06E3A9FD02F
(1644236670.041088) can0 7A6#BF272B54C6349723
(1644236670.241848) can0 7A6#21C13A5DB893287F
(1644236670.441482) can0 7A6#5EC234005A307C2E
(1644236670.641636) can0 7A6#535FD51589F18E24
(1644236670.841813) can0 7A6#B456520BA8EC1201
(1644236671.041883) can0 7A6#207B074D98306005
(1644236671.242117) can0 7A6#7968752C664A9502
(1644236671.442500) can0 7A6#5687B655A870640D
(1644236671.642649) can0 7A6#ADD3DC1C3AD57545
(1644236671.842921) can0 7A6#C3776A36A5716662
(1644236672.043120) can0 7A6#00D0692A9806FB3A
(1644236672.243277) can0 7A6#ACB0F63811582548
(1644236672.443558) can0 7A6#849D0D7D9030A463
(1644236672.643725) can0 7A6#A488654EAB6C3C57
(1644236672.844045) can0 7A6#FFF7F631FA20563D
(1644236673.044245) can0 7A6#E50B0D07BE1F2206
(1644236673.244301) can0 7A6#C055ED6007CD4764
(1644236673.444548) can0 7A6#76B34A051E182261
(1644236673.644708) can0 7A6#61FDC312C912201B
(1644236673.844880) can0 7A6#A709B1051554161E
(1644236674.045041) can0 7A6#71FF321CC884B852
(1644236674.245210) can0 7A6#AE847623EB67A848
(1644236674.445429) can0 7A6#2ECF4D55040C2D79
(1644236674.645599) can0 7A6#93D80C56DCA22A72
(1644236674.845784) can0 7A6#3EE1A23E5750770C
(1644236675.045927) can0 7A6#811491543EB10C69
(1644236675.246085) can0 7A6#EF5672472DC5870D
(1644236675.446270) can0 7A6#5009323174F47F44
(1644236675.646440) can0 7A6#BDF52B71F491977F
(1644236675.846605) can0 7A6#1F61BC1BBCED2223
(1644236675.847688) can0 7AE#3008280000000000
(1644236675.921780) can0 7AE#037FBC7200000000
(1644236676.046708) can0 7A6#EEB2ED3C046DC922
(1644236676.246961) can0 7A6#7B0D4529AF08DB1D
(1644236676.447213) can0 7A6#0B3A1107F1C08F2E
(1644236676.448204) can0 7AE#037F3A1200000000
(1644236676.647360) can0 7A6#CD20FD7E6D37D519
(1644236676.847653) can0 7A6#BBD3AF49752AAE04
(1644236677.047682) can0 7A6#828BEB372CD3E265
(1644236677.247788) can0 7A6#3DAF66573010625B
(1644236677.447998) can0 7A6#173B8B2E6B7EB42C
(1644236677.449116) can0 7AE#3008280000000000
(1644236677.525162) can0 7AE#037F8B7200000000
(1644236677.648165) can0 7A6#341C8F54AB139804
(1644236677.848318) can0 7A6#4721DF1E72FD3113
(1644236678.048499) can0 7A6#02640F11C8357073
(1644236678.065553) can0 7AE#037F641100000000
(1644236678.248692) can0 7A6#B1AE3E7CF1BA8158
(1644236678.449417) can0 7A6#F5FAF70001B8702D
(1644236678.649005) can0 7A6#65AF011DB2F02372
(1644236678.849157) can0 7A6#F549082D8410BE38
(1644236679.049385) can0 7A6#6FDE4615E3FCF569
(1644236679.249486) can0 7A6#897D875BEAEB8B3E
(1644236679.450407) can0 7A6#9205D10794B79862
(1644236679.649817) can0 7A6#DBAC1B6D6026CE06
(1644236679.849976) can0 7A6#01EF6D7C9680CB36
(1644236679.866768) can0 7AE#037FEF1100000000
(1644236680.050139) can0 7A6#D5507C0B847A5934
(1644236680.250271) can0 7A6#C353AE1C1200E362
(1644236680.451168) can0 7A6#B48ABB0FDA8E394B
(1644236680.650727) can0 7A6#7D7E970FE9A64A64
(1644236680.850878) can0 7A6#85A2D14FC59F762E
(1644236681.050928) can0 7A6#5BA47C778706E160
(1644236681.251164) can0 7A6#8DD5E6210C53BB73
(1644236681.452261) can0 7A6#79C1623983D0DE22
(1644236681.651540) can0 7A6#0D0B2C21DE706456
(1644236681.652549) can0 7AE#037F0B1200000000
(1644236681.851784) can0 7A6#35C102150255344E
(1644236682.051968) can0 7A6#6381220FA49F492A
(1644236682.252110) can0 7A6#E6512A38ECFEA96A
(1644236682.452341) can0 7A6#8E8BD5687857FB3F
(1644236682.652526) can0 7A6#80B6424D6A38F155
(1644236682.852724) can0 7A6#D87DC94682A5B049
(1644236683.052911) can0 7A6#00B9BC0CADCE4552
(1644236683.253095) can0 7A6#06200A7EC30C6B29
(1644236683.268987) can0 7AE#037F201100000000
(1644236683.453300) can0 7A6#BFCE2835BAAAC50D
(1644236683.653416) can0 7A6#9E9BA4743D4DC044
(1644236683.853568) can0 7A6#A3511072233E7644
(1644236684.053731) can0 7A6#02ED3673FFF58C69
(1644236684.069495) can0 7AE#037FED1100000000
(1644236684.253874) can0 7A6#AB4457258FC21D15
(1644236684.454131) can0 7A6#0B49485D2406BA5E
(1644236684.455204) can0 7AE#037F491200000000
(1644236684.654145) can0 7A6#1293FC371954747E
(1644236684.655035) can0 7AE#3008280000000000
(1644236684.717407) can0 7AE#037FFC7200000000
(1644236684.856522) can0 7A6#02771E354854FF4C
(1644236684.875024) can0 7AE#037F771100000000
(1644236685.057598) can0 7A6#1BA9A84C65F84044
(1644236685.058635) can0 7AE#3008280000000000
(1644236685.135202) can0 7AE#037FA87200000000
(1644236685.254976) can0 7A6#ECF3487701FBD204
(1644236685.457887) can0 7A6#51F7EA2E7B7F1E60
(1644236685.655200) can0 7A6#7A52CE44D2AD2D7C
(1644236685.855322) can0 7A6#E5B70F3652D0970B
(1644236686.055509) can0 7A6#5453DE45E570CC42
(1644236686.255679) can0 7A6#009FDD5D5A73E843
(1644236686.455841) can0 7A6#A97D376CBF6D0613
(1644236686.658844) can0 7A6#141EAE514719DC60
(1644236686.659877) can0 7AE#3008280000000000
(1644236686.736150) can0 7AE#037FAE7200000000
(1644236686.857175) can0 7A6#FCBAC657B86FBE43
(1644236687.058588) can0 7A6#6A575225FEA7FD4A
(1644236687.264812) can0 7A6#B7654B2D159CA94A
(1644236687.465806) can0 7A6#8E6A1B60C2AE930A
(1644236687.667116) can0 7A6#39A26329A0FD1718
(1644236687.873451) can0 7A6#DB0208093C19825E
(1644236688.074471) can0 7A6#E8511765F7ABB055
(1644236688.278482) can0 7A6#A111C322D545605C
(1644236688.478201) can0 7A6#F8A6835AF308AE51
(1644236688.678454) can0 7A6#50C57E3C72F9511F
(1644236688.878694) can0 7A6#C5B6DB4D357D8E72
(1644236689.078867) can0 7A6#C5C9E92A190ABA13
(1644236689.279275) can0 7A6#1AEE5A35C568C708
(1644236689.280334) can0 7AE#3008280000000000
(1644236689.353716) can0 7AE#037F5A7200000000
(1644236689.480340) can0 7A6#737DA257C36B9221
(1644236689.679793) can0 7A6#84D6CD1B879B5029
(1644236689.881034) can0 7A6#0A856E0281919473
(1644236689.883012) can0 7AE#037F851200000000
(1644236690.081247) can0 7A6#3F0B0F6D75DCC027
(1644236690.281967) can0 7A6#7F39923EF6705A1A
(1644236690.483302) can0 7A6#8A786A720DA4AD1E
(1644236690.683568) can0 7A6#B91FEE24C41ACE1B
(1644236690.885227) can0 7A6#AEA1C5369422F62D
(1644236691.085532) can0 7A6#0034507A96F3DC1B
(1644236691.285955) can0 7A6#8BCEA603A145131D
(1644236691.488672) can0 7A6#6B393D7884752A5E
(1644236691.688958) can0 7A6#944EC16EBBFEBB34
(1644236691.891615) can0 7A6#F66E7C7D59059D3C
(1644236692.091985) can0 7A6#F07B4A27BB386628
(1644236692.293235) can0 7A6#720F57500B6AA55C
(1644236692.495952) can0 7A6#80A12D31E58CF927
(1644236692.695883) can0 7A6#CED5377E0578FB4C
(1644236692.896353) can0 7A6#6D284A51D95AA600
(1644236693.096725) can0 7A6#86099040AC33593E
(1644236693.297257) can0 7A6#4E3767280543227F
(1644236693.498433) can0 7A6#A3A4B358D8AFD11A
(1644236693.698660) can0 7A6#13E7CF1D5CC4A17D
(1644236693.699745) can0 7AE#3008280000000000
(1644236693.775915) can0 7AE#037FCF7200000000
(1644236693.899200) can0 7A6#9CCA9F36C1889554
(1644236694.099640) can0 7A6#F0E6972B9CFEEF30
(1644236694.300632) can0 7A6#577C72707CB53E2F
(1644236694.501003) can0 7A6#3E44034EC3B5AF68
(1644236694.701127) can0 7A6#002B690DD292C43C
(1644236694.903752) can0 7A6#7EB46B1DF699E50A
(1644236695.103858) can0 7A6#2C9861796F30B644
(1644236695.306373) can0 7A6#B2D24B339EA7B849
(1644236695.505726) can0 7A6#7A9A5B2132747964
(1644236695.705821) can0 7A6#8434B2714870931F
(1644236695.907182) can0 7A6#37EC7431F15CFC42
(1644236696.107326) can0 7A6#21CB3920BDF50472
(1644236696.308126) can0 7A6#9D9055016F02A148
(1644236696.508596) can0 7A6#C33827714035095A
(1644236696.708765) can0 7A6#48B27263D61FF70E
(1644236696.911248) can0 7A6#9CF9AA57E47C121A
(1644236697.109440) can0 7A6#97A88C638DE04203
(1644236697.309943) can0 7A6#817B024BEE24FF53
(1644236697.510379) can0 7A6#09968132BFBF0519
(1644236697.511375) can0 7AE#037F961200000000
(1644236697.713325) can0 7A6#B1DAAE3C09C1EA3F
(1644236697.912004) can0 7A6#9152CA55308F1A5A
(1644236698.112431) can0 7A6#FF5AD04ABDEA2B4F
(1644236698.313051) can0 7A6#9FBFD01EB12D1C7E
(1644236698.514148) can0 7A6#5C92E418195A2C40
(1644236698.715116) can0 7A6#E4A19562E0C6960A
(1644236698.915388) can0 7A6#61CABF5F1B8E0A14
(1644236699.116280) can0 7A6#D123934D8395F97F
(1644236699.316684) can0 7A6#D9830F066EB4E84E
(1644236699.516848) can0 7A6#F2979A489CBC3677
(1644236699.717181) can0 7A6#AFE9F1283A4A0D2C
(1644236699.917370) can0 7A6#72DC2D064BE39C00
(1644236700.117549) can0 7A6#1FC71F460985BA69
(1644236700.118589) can0 7AE#3008280000000000
(1644236700.200090) can0 7AE#037F1F7200000000
(1644236700.317810) can0 7A6#D8C3DF03A0422211
(1644236700.517963) can0 7A6#F7A9B93DE1596136
(1644236700.718245) can0 7A6#5F02282AA984687A
(1644236700.918499) can0 7A6#EA1A4C76F054F27F
(1644236701.118593) can0 7A6#D9138354EA751C41
(1644236701.318869) can0 7A6#AE3F1E4F78D35373
(1644236701.519153) can0 7A6#9BA3383F0AD20268
(1644236701.719355) can0 7A6#912D80337F45CE21
(1644236701.919768) can0 7A6#EA989972F2F73F13
(1644236702.119773) can0 7A6#9BD3D835BBBC2C40
(1644236702.319917) can0 7A6#758D39137457E83B
(1644236702.520182) can0 7A6#2971150F6825D45B
(1644236702.720381) can0 7A6#10141F33D85A0738
(1644236702.721422) can0 7AE#3008280000000000
(1644236702.802006) can0 7AE#037F1F7200000000
(1644236702.921161) can0 7A6#A26FE10782F04C39
(1644236703.120767) can0 7A6#243EA438C136014E
(1644236703.320876) can0 7A6#8B750723FC01843C
(1644236703.521128) can0 7A6#6179235F821FC160
(1644236703.721293) can0 7A6#DE5BE572C07B4B09
(1644236703.921542) can0 7A6#2BA4295BC8763169
(1644236704.121761) can0 7A6#B1D03D0904B8AC2F
(1644236704.322042) can0 7A6#B2EC4D2A5F105C58
(1644236704.522283) can0 7A6#7C8B00234E908669
(1644236704.722478) can0 7A6#69E25E400DB98056
(1644236704.922729) can0 7A6#CDD5540B537BF832
(1644236705.122971) can0 7A6#00B1C06968A92D41
(1644236705.323241) can0 7A6#0E382573753EFA7C
(1644236705.324278) can0 7AE#037F381200000000
(1644236705.525371) can0 7A6#DC00167D37A93A02
(1644236705.723657) can0 7A6#DD63CE58EC143530
(1644236705.923854) can0 7A6#1004423A80D3AF60
(1644236705.925597) can0 7AE#037F427500000000
(1644236706.124062) can0 7A6#6E0582693442E672
(1644236706.324183) can0 7A6#410AB12EF97A890C
(1644236706.524758) can0 7A6#30446A2FA383D40D
(1644236706.725825) can0 7A6#7C9A4A6D0EA04F22
(1644236706.925422) can0 7A6#63FF1F17A73E7448
(1644236707.125961) can0 7A6#D716810B14D05D20
(1644236707.327479) can0 7A6#ACF620788903CF35
(1644236707.525778) can0 7A6#73E0B9782882211B
(1644236707.725937) can0 7A6#D793551FDCC21839
(1644236707.926150) can0 7A6#363BA271A569AA2A
(1644236708.126351) can0 7A6#2F3E116C36EC625B
(1644236708.326589) can0 7A6#0D13D86B3D76365F
(1644236708.327619) can0 7AE#037F131200000000
(1644236708.526742) can0 7A6#AB2A5D58EA13EE68
(1644236708.726912) can0 7A6#751F7161898E2B31
(1644236708.927025) can0 7A6#D62823198523B31B
(1644236709.127308) can0 7A6#0962DB11452EA502
(1644236709.129265) can0 7AE#037F621200000000
(1644236709.327421) can0 7A6#B965990E4A6C8C40
(1644236709.527678) can0 7A6#3EA92E0FE9A9033E
(1644236709.727819) can0 7A6#EDEF604EBA43797C
(1644236709.928007) can0 7A6#F849536051EF8065
(1644236710.128166) can0 7A6#6282ED44CF60D46B
(1644236710.328290) can0 7A6#65BFDE050E790E3D
(1644236710.528493) can0 7A6#5864A321D99F987E
(1644236710.728701) can0 7A6#36FB2F5830F8F840
(1644236710.928812) can0 7A6#B562B1376C36D249
(1644236711.129025) can0 7A6#D561A36BE5A0C223
(1644236711.329106) can0 7A6#A2223525E2747B57
(1644236711.529369) can0 7A6#2217F9024E4D927D
(1644236711.729554) can0 7A6#CC88694097366A64
(1644236711.929678) can0 7A6#D7DBBD2EA3B18C59
(1644236712.129880) can0 7A6#1C5A1D00E03D9940
(1644236712.130922) can0 7AE#3008280000000000
(1644236712.210761) can0 7AE#037F1D7200000000
(1644236712.330060) can0 7A6#E8DF315CD5BFB60E
(1644236712.530715) can0 7A6#2AAA25012689606B
(1644236712.730302) can0 7A6#BF69BA4C189A864F
(1644236712.930525) can0 7A6#E1CCD967B7B30D2D
(1644236713.130701) can0 7A6#69890735434FC72C
(1644236713.330854) can0 7A6#8614E218CE48E63A
(1644236713.533251) can0 7A6#51C8D569DE78853A
(1644236713.731255) can0 7A6#A7E87E3987C30542
(1644236713.931400) can0 7A6#0E717E7B5D4B3071
(1644236713.932394) can0 7AE#037F711200000000
(1644236714.131558) can0 7A6#F4F9D70BE3D22167
(1644236714.331658) can0 7A6#42ECF214961C0D31
(1644236714.531905) can0 7A6#C6479D3E6403EC17
(1644236714.732070) can0 7A6#E4699F2E92D0067F
(1644236714.932254) can0 7A6#FC39567CBB455D5D
(1644236715.132413) can0 7A6#358293581894737C
(1644236715.332508) can0 7A6#9B83F61D1D62C534
(1644236715.532750) can0 7A6#EE532A0BC62D1C1F
(1644236715.732827) can0 7A6#44EB2520ADBDE457
(1644236715.933095) can0 7A6#DEC7A26E25B8FF07
(1644236716.133259) can0 7A6#6471F2044751AA23
(1644236716.333276) can0 7A6#6807C734EA85D41D
(1644236716.533592) can0 7A6#159A905EB9CF9C1E
(1644236716.534635) can0 7AE#3008280000000000
(1644236716.607416) can0 7AE#037F907200000000
(1644236716.733726) can0 7A6#C8FE5958BD820F18
(1644236716.933918) can0 7A6#4093A260D76FD853
(1644236717.134089) can0 7A6#1ACE3F09348D7A6C
(1644236717.135109) can0 7AE#3008280000000000
(1644236717.211288) can0 7AE#037F3F7200000000
(1644236717.334259) can0 7A6#BA42FA3A5CBA321E
(1644236717.534450) can0 7A6#CBA9871D808A9779
(1644236717.734727) can0 7A6#C0BD1E36AF13274C
(1644236717.934770) can0 7A6#135B9E78BCF77432
(1644236717.935792) can0 7AE#3008280000000000
(1644236718.008461) can0 7AE#037F9E7200000000
(1644236718.134926) can0 7A6#6B59842948DD3151
(1644236718.335144) can0 7A6#D58BE82E06DD7A47
(1644236718.535301) can0 7A6#663FF705C3DF123A
(1644236718.735512) can0 7A6#CC0A9766AA2A1D26
(1644236718.935632) can0 7A6#709DF711AAD23955
(1644236719.135806) can0 7A6#CFE21C2ED40EEA16
(1644236719.335903) can0 7A6#F123E47837EAE362
(1644236719.536142) can0 7A6#BE94BE3407BE7457
(1644236719.736520) can0 7A6#F0B980018693180D
(1644236719.936448) can0 7A6#C440846F304D2362
(1644236720.136630) can0 7A6#5D03F160DE0EC478
(1644236720.336695) can0 7A6#65DA9D4E1846EB1B
(1644236720.536953) can0 7A6#3AC9F6163084256C
(1644236720.737130) can0 7A6#98D08215FA86154D
(1644236720.937281) can0 7A6#DF974C38AB2B210E
(1644236721.137506) can0 7A6#B77E8A7F4AF1D061
(1644236721.337553) can0 7A6#F408535F8C0A732E
(1644236721.537803) can0 7A6#51CE4B295A484A65
(1644236721.738010) can0 7A6#4FEA85681DD9E20F
(1644236721.938152) can0 7A6#0473670BBF877D7A
(1644236721.951576) can0 7AE#037F731100000000
(1644236722.138287) can0 7A6#C8AB1C65D3558439
(1644236722.338471) can0 7A6#93966711B9CF005E
(1644236722.538655) can0 7A6#0A40681C512B2646
(1644236722.539657) can0 7AE#037F401200000000
(1644236722.738856) can0 7A6#C08D7535FAF9E81D
(1644236722.938996) can0 7A6#D7BE3E5384CEF924
(1644236723.139182) can0 7A6#2A470C0035C22F34
(1644236723.339329) can0 7A6#62DDBD1D8F21AA4E
(1644236723.539484) can0 7A6#4D081B509CA6B434
(1644236723.739697) can0 7A6#BFA5CF3AE5D89D65
(1644236723.939864) can0 7A6#972DCA019F3D1C73
(1644236724.140012) can0 7A6#9104BF734EAC5401
(1644236724.340100) can0 7A6#E92EED54850D1253
(1644236724.540328) can0 7A6#DAB6C72F3AFD387E
(1644236724.740530) can0 7A6#DF555C3829A14D18
(1644236724.940697) can0 7A6#58D61B0EE3C8C343
(1644236725.140898) can0 7A6#E828CB1220823873
(1644236725.341038) can0 7A6#B61E487D7BBF3224
(1644236725.541206) can0 7A6#D9513951C05EB019
(1644236725.741410) can0 7A6#CCEA586A9ADFAE06
(1644236725.941534) can0 7A6#BA589937A3A9973D
(1644236726.141749) can0 7A6#1EAEA82BE49FA537
(1644236726.142835) can0 7AE#3008280000000000
(1644236726.218113) can0 7AE#037FA87200000000
(1644236726.341758) can0 7A6#D86BC771818B6649
(1644236726.542036) can0 7A6#74C14F062574E241
(1644236726.742235) can0 7A6#1D321B7E33671F41
(1644236726.743259) can0 7AE#3008280000000000
(1644236726.814811) can0 7AE#037F1B7200000000
(1644236726.942428) can0 7A6#0B4D8027B45FE57F
(1644236726.943420) can0 7AE#037F4D1200000000
(1644236727.142551) can0 7A6#D2A43B349C513F1B
(1644236727.342665) can0 7A6#020C3A01BCD32809
(1644236727.355162) can0 7AE#037F0C1100000000
(1644236727.543546) can0 7A6#215F516EDCC20131
(1644236727.743085) can0 7A6#F6D0610700B5AD26
(1644236727.943225) can0 7A6#05644F494EA77D15
(1644236727.955540) can0 7AE#037F641100000000
(1644236728.143435) can0 7A6#E37D716AED8C1A5C
(1644236728.343506) can0 7A6#6E29B608999CB967
(1644236728.543747) can0 7A6#684C4D00487BEF59
(1644236728.743937) can0 7A6#59FB69013437A66A
(1644236728.944091) can0 7A6#E25A9E6013540339
(1644236729.144259) can0 7A6#D8E03D280009470C
(1644236729.344472) can0 7A6#F7F3A870B04C051A
(1644236729.544560) can0 7A6#8194AD556BB5F876
(1644236729.744755) can0 7A6#D6C0E75B9FC6C853
(1644236729.944927) can0 7A6#9F1C1838E10D6803
(1644236730.144918) can0 7A6#5326AE5371C1536C
(1644236730.345217) can0 7A6#7D5FA71E5632E854
(1644236730.545466) can0 7A6#2D957C759EBEF80C
(1644236730.745648) can0 7A6#32F5E9052466DE7C
(1644236730.945790) can0 7A6#9E73A6333859394F
(1644236731.145975) can0 7A6#720D5C1281F1171E
(1644236731.346294) can0 7A6#25E6532BE136121B
(1644236731.546525) can0 7A6#1A8ED1058E32A12B
(1644236731.547558) can0 7AE#3008280000000000
(1644236731.627843) can0 7AE#037FD17200000000
(1644236731.746719) can0 7A6#29B2017573893B07
(1644236731.946852) can0 7A6#C26947160B0DA055
(1644236732.147054) can0 7A6#86DD3E409A4A853E
(1644236732.347130) can0 7A6#0B16E7617DD1E730
(1644236732.348187) can0 7AE#037F161200000000
(1644236732.547335) can0 7A6#4B978A588DAA9437
(1644236732.747531) can0 7A6#E986E02721587234
(1644236732.947701) can0 7A6#2C715D0B88A3F85F
(1644236733.147846) can0 7A6#0266DA377F970B5F
(1644236733.170436) can0 7AE#037F661100000000
(1644236733.347968) can0 7A6#F9644C4C7FC58156
(1644236733.548172) can0 7A6#D5C9F33327FAC841
(1644236733.748368) can0 7A6#1D847A6308BFDD39
(1644236733.749417) can0 7AE#3008280000000000
(1644236733.829124) can0 7AE#037F7A7200000000
(1644236733.948521) can0 7A6#4B60A73EBBF72017
(1644236734.148679) can0 7A6#40181709BD6D0351
(1644236734.348782) can0 7A6#3CE9383565FE6A34
(1644236734.548988) can0 7A6#9EA4156C56770A3B
(1644236734.749174) can0 7A6#F3300C60C7561761
(1644236734.949314) can0 7A6#C9004642B69A5376
(1644236735.149486) can0 7A6#D263B7364FDE8402
(1644236735.349650) can0 7A6#50E5D834DE799E18
(1644236735.549812) can0 7A6#CCAF6C339B7C630D
(1644236735.750000) can0 7A6#6B243350B5364D5B
(1644236735.950188) can0 7A6#BCD4D5419795905B
(1644236736.150382) can0 7A6#3DDA453BBE3AB079
(1644236736.350535) can0 7A6#162D9C3A373F9207
(1644236736.351557) can0 7AE#3008280000000000
(1644236736.430737) can0 7AE#037F9C7200000000
(1644236736.550540) can0 7A6#3D003250ECF68F6E
(1644236736.750855) can0 7A6#5E395B495A84AC33
(1644236736.950909) can0 7A6#F4B56D28A9990208
(1644236737.151176) can0 7A6#157CCD4A34CE8431
(1644236737.152213) can0 7AE#3008280000000000
(1644236737.223752) can0 7AE#037FCD7200000000
(1644236737.351358) can0 7A6#6607065951650600
(1644236737.551496) can0 7A6#99CCEF6505AC1B45
(1644236737.751715) can0 7A6#A7DC103B8DFDFB45
(1644236737.951822) can0 7A6#CC02332670DD567D
(1644236738.151966) can0 7A6#43984F3C9F66EA5C
(1644236738.352145) can0 7A6#BFBBDB7F937D2871
(1644236738.552314) can0 7A6#7DE088758C6B4833
(1644236738.752502) can0 7A6#2FFA8B7EE804BC45
(1644236738.952631) can0 7A6#41A2950EEBCE6140
(1644236739.152786) can0 7A6#7F9A4C217F7CDB49
(1644236739.352957) can0 7A6#AA09123A95C7E85B
(1644236739.553098) can0 7A6#B6BB6D51E709440A
(1644236739.753332) can0 7A6#81BE784A14F5C81A
(1644236739.953440) can0 7A6#428EF03D7574E672
(1644236740.153595) can0 7A6#BD8ECB22570ABE08
(1644236740.353675) can0 7A6#A9426B242396D17B
(1644236740.553923) can0 7A6#A96FC408430F5B0A
(1644236740.754143) can0 7A6#2842ED40504CD543
(1644236740.954263) can0 7A6#D00C5750F5442067
(1644236741.154471) can0 7A6#C1292C4113A5A60C
(1644236741.355451) can0 7A6#94AB0A4480E50741
(1644236741.554750) can0 7A6#A622CF7D118C9339
(1644236741.754967) can0 7A6#0C515074D51C5B7C
(1644236741.755951) can0 7AE#037F511200000000
(1644236741.955204) can0 7A6#F9904F7F4EF3E502
(1644236742.155287) can0 7A6#C1EBBC3C782B9C20
(1644236742.356017) can0 7A6#CD6FC14C6BF5CE76
(1644236742.555649) can0 7A6#0DF3847C832B2F1E
(1644236742.556643) can0 7AE#037FF31200000000
(1644236742.755811) can0 7A6#52FF12018FB1FD46
(1644236742.955959) can0 7A6#9720F838948D033F
(1644236743.156102) can0 7A6#0426E43954AFC35B
(1644236743.177207) can0 7AE#037F261100000000
(1644236753.233232) can0 7A6#4612302CEDA33838
(1644236753.433684) can0 7A6#0DE5727F5743A645
(1644236753.434692) can0 7AE#037FE51200000000
(1644236753.634038) can0 7A6#C601F97E7C330959
(1644236753.834444) can0 7A6#81E344191962672D
(1644236754.034613) can0 7A6#6DF012682D56585B
(1644236754.234734) can0 7A6#E243D972A702F75C
(1644236754.434927) can0 7A6#41961D0EFD0ABB74
(1644236754.635094) can0 7A6#60D8463A2F9CDB21
(1644236754.835661) can0 7A6#529F7D1A6657817B
(1644236755.035524) can0 7A6#0F487055F4024551
(1644236755.036565) can0 7AE#037F481200000000
(1644236755.235608) can0 7A6#2A1882301C535E37
(1644236755.435713) can0 7A6#94B9152D755E4138
(1644236755.635943) can0 7A6#5C49BC56AE310B1E
(1644236755.836112) can0 7A6#C6F8C92AE2EFFB07
(1644236756.036271) can0 7A6#DB412A5D0E969E72
(1644236756.236433) can0 7A6#2365C33D22545A09
(1644236756.436627) can0 7A6#FB39D72A314A363D
(1644236756.636698) can0 7A6#7997004FC13BD029
(1644236756.836844) can0 7A6#AD7D3F16FA7A4568
(1644236757.037214) can0 7A6#DB9D37571A6E527E
(1644236757.237595) can0 7A6#27D19D43BDE1104A
(1644236757.438183) can0 7A6#C170495B6967BB51
(1644236757.638298) can0 7A6#BAECCB3E22499015
(1644236757.838560) can0 7A6#980397730C8C4959
(1644236758.038943) can0 7A6#88A01111A74B0749
(1644236758.239316) can0 7A6#018F8E2AB2B89341
(1644236758.255651) can0 7AE#037F8F1100000000
(1644236758.439734) can0 7A6#C39E65009548A457
(1644236758.640079) can0 7A6#2717D5791FE82157
(1644236758.840451) can0 7A6#437AAF75EE0F9F24
(1644236759.040802) can0 7A6#01D81D5F1FBCD952
(1644236759.056082) can0 7AE#037FD81100000000
(1644236759.241112) can0 7A6#FCA53D17243DE11C
(1644236759.441476) can0 7A6#4110345CF7DF1442
(1644236759.642127) can0 7A6#5587175ABAA7342B
(1644236759.842174) can0 7A6#B81BE56B02055770
(1644236760.042505) can0 7A6#B5227A1393B91C43
(1644236760.242840) can0 7A6#1C73A96EDCF31757
(1644236760.243874) can0 7AE#3008280000000000
(1644236760.316773) can0 7AE#037FA97200000000
(1644236760.443192) can0 7A6#509B2D0DDEE3F249
(1644236760.643583) can0 7A6#455BD3280A88F94B
(1644236760.843964) can0 7A6#002D835FDD5E6A1C
(1644236761.044368) can0 7A6#1714432588CD9470
(1644236761.045359) can0 7AE#3008280000000000
(1644236761.117308) can0 7AE#037F437200000000
(1644236761.244682) can0 7A6#84AA716518A3D14F
(1644236761.445573) can0 7A6#3B8628324749D765
(1644236761.645279) can0 7A6#ADEB7527629DFD2B
(1644236761.845620) can0 7A6#6631F93CF065251D
(1644236762.045768) can0 7A6#50AD9C506709171C
(1644236762.245936) can0 7A6#0F22FF6F4C53DA67
(1644236762.246933) can0 7AE#037F221200000000
(1644236762.446160) can0 7A6#8C46F8385032334C
(1644236762.646328) can0 7A6#4333EF29E1CD0F13
(1644236762.846411) can0 7A6#0BDA6777FC4ED415
(1644236762.847393) can0 7AE#037FDA1200000000
(1644236763.046550) can0 7A6#E4D26603C0FCE10A
(1644236763.246765) can0 7A6#8F08F15800461072
(1644236763.446924) can0 7A6#9CF0F961E0A31E66
(1644236763.647086) can0 7A6#DE29033CE24BCD0A
(1644236763.847304) can0 7A6#EA2B1832DE56861B
(1644236764.047530) can0 7A6#BFAA372701405B57
(1644236764.247677) can0 7A6#67241B0C4455A90C
(1644236764.447850) can0 7A6#19E32C27A2AA433E
(1644236764.448887) can0 7AE#3008280000000000
(1644236764.529054) can0 7AE#037F2C7200000000
(1644236764.648005) can0 7A6#8B9E8072C6CEA24E
(1644236764.848178) can0 7A6#0448416AF2CF792F
(1644236764.872405) can0 7AE#037F481100000000
(1644236765.048338) can0 7A6#B734C86B55F5DD3A
(1644236765.248498) can0 7A6#59D9904BC656C75B
(1644236765.448687) can0 7A6#A148B822E51F8904
(1644236765.648857) can0 7A6#1789FA27E57BA74C
(1644236765.649891) can0 7AE#3008280000000000
(1644236765.729724) can0 7AE#037FFA7200000000
(1644236765.849036) can0 7A6#C7ED98172263621F
(1644236766.049176) can0 7A6#E1CA7B62ABC0FF1A
(1644236766.249326) can0 7A6#E25F442A70D36C3B
(1644236766.449551) can0 7A6#AB06100D7E503E0C
(1644236766.650303) can0 7A6#50778B218A301349
(1644236766.850524) can0 7A6#609C0B173BA3A353
(1644236767.049975) can0 7A6#688799642047433E
(1644236767.250175) can0 7A6#3CE3FE2ACFABB470
(1644236767.450370) can0 7A6#649CEC4A56C62B52
(1644236767.650528) can0 7A6#7156F82EEF3A6D3D
(1644236767.850713) can0 7A6#1C95CE20769E3919
(1644236767.852580) can0 7AE#3008280000000000
(1644236767.930878) can0 7AE#037FCE7200000000
(1644236768.050857) can0 7A6#E10AE76CD3C9960C
(1644236768.252019) can0 7A6#CB9317543BE47738
(1644236768.451129) can0 7A6#9A205E686CDCCF76
(1644236768.651389) can0 7A6#2004013DB1A95810
(1644236768.851539) can0 7A6#51587743E7F19954
(1644236769.051701) can0 7A6#D30CBB2F3223F325
(1644236769.251917) can0 7A6#92B2996FB56CFF59
(1644236769.451982) can0 7A6#A3F65F613EB9A97C
(1644236769.652194) can0 7A6#33BD3D66F36DEB02
(1644236769.852355) can0 7A6#C8E9BC459459497D
(1644236770.052523) can0 7A6#2E118F563071562A
(1644236770.252811) can0 7A6#B4A08C3B6BF48D01
(1644236770.452893) can0 7A6#001D0B1B183D7906
(1644236770.653038) can0 7A6#C1BAB9537173034A
(1644236770.853225) can0 7A6#0778E643DD4F8874
(1644236770.874614) can0 7AE#037F781100000000
(1644236771.053598) can0 7A6#E7113D63E982CD30
(1644236771.254764) can0 7A6#B1191F01B2A55437
(1644236771.454516) can0 7A6#246745694B3A7D69
(1644236771.654917) can0 7A6#1F82242E446B4626
(1644236771.655917) can0 7AE#3008280000000000
(1644236771.732926) can0 7AE#037F247200000000
(1644236771.855228) can0 7A6#FCE3D57970DA9B71
(1644236772.055605) can0 7A6#2C5DE07ACFF09029
(1644236772.256596) can0 7A6#A3FD8E17BE0F7A6A
(1644236772.456469) can0 7A6#845D900346F4EE78
(1644236772.656812) can0 7A6#FCC82367B71ACE69
(1644236772.857007) can0 7A6#3962DA7BC4B2E02C
(1644236773.057168) can0 7A6#4B74176768736952
(1644236773.257466) can0 7A6#F5233757FF14A422
(1644236773.457520) can0 7A6#D367F753F5404272
(1644236773.657693) can0 7A6#17521D299422B127
(1644236773.659690) can0 7AE#3008280000000000
(1644236773.734058) can0 7AE#037F1D7200000000
(1644236773.857892) can0 7A6#66B4453C1FCA036D
(1644236774.058038) can0 7A6#7172391C4EC6821F
(1644236774.258199) can0 7A6#084DD11D228C581D
(1644236774.261169) can0 7AE#037F4D1200000000
(1644236774.458315) can0 7A6#006CD7562CB41607
(1644236774.658536) can0 7A6#6DC6D5061FEEFB04
(1644236774.858695) can0 7A6#701F5D2D69AAAB00
(1644236775.058858) can0 7A6#90C897769C7C3D28
(1644236775.260933) can0 7A6#389B3C2A33C6260E
(1644236775.459184) can0 7A6#5B8CB712BCF8CC2D
(1644236775.660114) can0 7A6#79BA15075755DB79
(1644236775.860228) can0 7A6#74139B17B21CF002
(1644236776.059911) can0 7A6#1C08BC26BF87B27E
(1644236776.060932) can0 7AE#3008280000000000
(1644236776.135344) can0 7AE#037FBC7200000000
(1644236776.260251) can0 7A6#1A905955112CF37D
(1644236776.261356) can0 7AE#3008280000000000
(1644236776.335454) can0 7AE#037F597200000000
(1644236776.460555) can0 7A6#BF9C5621EDF75029
(1644236776.661164) can0 7A6#066D3570D6EE734A
(1644236776.677286) can0 7AE#037F6D1100000000
(1644236776.861579) can0 7A6#811A02516C217B2C
(1644236777.061724) can0 7A6#F5B87737F38C3B6D
(1644236777.261899) can0 7A6#BAE7FD4BFD054955
(1644236777.462061) can0 7A6#1519940ABB53D522
(1644236777.463084) can0 7AE#3008280000000000
(1644236777.536095) can0 7AE#037F947200000000
(1644236777.662251) can0 7A6#29BA5F5C83DF6911
(1644236777.862386) can0 7A6#DA41D1279AD9BC09
(1644236778.062547) can0 7A6#EC8915126A0A691E
(1644236778.262709) can0 7A6#3656FA312525523C
(1644236778.462862) can0 7A6#9DD08F2C91E2B144
(1644236778.663023) can0 7A6#E11D1F6A168BA533
(1644236778.863207) can0 7A6#E9378D3E5531BA01
(1644236779.063414) can0 7A6#C9A7953605404965
(1644236779.263628) can0 7A6#15B96C00E337EF0B
(1644236779.264664) can0 7AE#3008280000000000
(1644236779.337069) can0 7AE#037F6C7200000000
(1644236779.463743) can0 7A6#166C3C63D455C321
(1644236779.464778) can0 7AE#3008280000000000
(1644236779.537165) can0 7AE#037F3C7200000000
(1644236779.663900) can0 7A6#D12F40351CD97153
(1644236779.864082) can0 7A6#AA44376C524A4206
(1644236780.064258) can0 7A6#88FAEC7FA0FDAE23
(1644236780.264448) can0 7A6#45D77D7343E2EA4B
(1644236780.464528) can0 7A6#9D03F8785BF0117E
(1644236780.664720) can0 7A6#FE35C06EC7BD5755
(1644236780.864900) can0 7A6#DECF7B0FD8779116
(1644236781.064990) can0 7A6#6197145FCA599121
(1644236781.265245) can0 7A6#4382FA3497ED0E11
(1644236781.465730) can0 7A6#EF7EE35DE0528A61
(1644236781.665613) can0 7A6#29D0C055D19C0248
(1644236781.865691) can0 7A6#F7DD2F1512084E14
(1644236782.065954) can0 7A6#26CEBC49C085C54B
(1644236782.266101) can0 7A6#174897793B87294A
(1644236782.267137) can0 7AE#3008280000000000
(1644236782.340548) can0 7AE#037F977200000000
(1644236782.467136) can0 7A6#A3BDB4572DB4D35C
(1644236782.666434) can0 7A6#0FDDEC6B74EDF40C
(1644236782.667406) can0 7AE#037FDD1200000000
(1644236782.866584) can0 7A6#498D4530BA212458
(1644236783.066746) can0 7A6#C7373713D1873230
(1644236783.266919) can0 7A6#5A1FD37B0C0FB506
(1644236783.467793) can0 7A6#146A1D7CF722CB74
(1644236783.468829) can0 7AE#3008280000000000
(1644236783.541191) can0 7AE#037F1D7200000000
(1644236783.667468) can0 7A6#67FFC60412A0DD6A
(1644236783.867550) can0 7A6#BEE0224A45CF4214
(1644236784.067761) can0 7A6#EB176F011F783729
(1644236784.267903) can0 7A6#1029D4352E9A6936
(1644236784.269005) can0 7AE#3008280000000000
(1644236784.341685) can0 7AE#037FD47200000000
(1644236784.468067) can0 7A6#B765463AFFA7B713
(1644236784.668257) can0 7A6#0EEDF317E0350710
(1644236784.669262) can0 7AE#037FED1200000000
(1644236784.868395) can0 7A6#D044BA5B05CB232D
(1644236785.068536) can0 7A6#F23D5524F7127725
(1644236785.268705) can0 7A6#C550E9780986EC1D
(1644236785.468880) can0 7A6#329AA06F690E9E50
(1644236785.669042) can0 7A6#363AC07A42778D5B
(1644236785.869213) can0 7A6#DDFB925D7FC7052B
(1644236786.069344) can0 7A6#FC98B133A433CA70
(1644236786.201690) can0 7A6#023E010000000000
(1644236786.216652) can0 7AE#017E000000000000
(1644236786.269508) can0 7A6#504F385B56B8842F
(1644236786.469705) can0 7A6#B1427F7765B95557
(1644236786.669836) can0 7A6#4DDB4F241842467C
(1644236786.869855) can0 7A6#775933420CBC726E
(1644236787.070117) can0 7A6#5E1189106271A243
(1644236787.270259) can0 7A6#2B34AA176E3A5D46
(1644236787.470375) can0 7A6#900B0C7AE299F051
(1644236787.670581) can0 7A6#6DE2145A9FF8FF11
(1644236787.870758) can0 7A6#C2CFF7613E27CF35
(1644236788.070930) can0 7A6#A4C3233FB40D4D06
(1644236788.271080) can0 7A6#353A465B6A140D38
(1644236788.471503) can0 7A6#BD93392467D4E64A
(1644236788.671657) can0 7A6#D322AB08F3CDF91E
(1644236788.871783) can0 7A6#A94B7426B01E3E66
(1644236789.071998) can0 7A6#7295FF49A5E4255A
(1644236789.272169) can0 7A6#55520857C3E43725
(1644236789.472602) can0 7A6#FB9CAA090695874E
(1644236789.672762) can0 7A6#289E8D7C4978FA2D
(1644236789.872956) can0 7A6#1ED7CD4A9FF7C03E
(1644236789.874012) can0 7AE#3008280000000000
(1644236789.945391) can0 7AE#037FCD7200000000
(1644236790.073091) can0 7A6#55346D1C7CE8565B
(1644236790.273267) can0 7A6#0269630280681734
(1644236790.285651) can0 7AE#037F691100000000
(1644236790.473334) can0 7A6#EA22B42192746F7C
(1644236790.673579) can0 7A6#630208065805C97B
(1644236790.873721) can0 7A6#316D6F0E25D2FF67
(1644236791.073871) can0 7A6#962C9831D630934D
(1644236791.274040) can0 7A6#DADF4C6ECB66DE0C
(1644236791.474223) can0 7A6#4045A00597738612
(1644236791.674403) can0 7A6#323BC55713684B0E
(1644236791.874439) can0 7A6#8B418031DC86397E
(1644236792.074693) can0 7A6#C3868974FDD67F7B
(1644236792.274881) can0 7A6#816B5F5818D9914B
(1644236792.475035) can0 7A6#C0BBB7207D080A62
(1644236792.675187) can0 7A6#1E6E191AE859451D
(1644236792.676217) can0 7AE#3008280000000000
(1644236792.757248) can0 7AE#037F197200000000
(1644236792.875383) can0 7A6#C68004103D45E764
(1644236793.075596) can0 7A6#8851065C1BB5712C
(1644236793.275754) can0 7A6#B92D3E408ABA695E
(1644236793.475914) can0 7A6#9B1D8960A450F261
(1644236793.676094) can0 7A6#1C2FD95AFE1F9166
(1644236793.677128) can0 7AE#3008280000000000
(1644236793.757889) can0 7AE#037FD97200000000
(1644236793.876104) can0 7A6#FC55BB5D4E9C4869
(1644236794.076388) can0 7A6#24F2904E9282530F
(1644236794.276535) can0 7A6#24CDDB36FED1DD3C
(1644236794.477345) can0 7A6#5DE9311C64127C3C
(1644236794.676787) can0 7A6#9545644F8F24F773
(1644236794.877077) can0 7A6#777AC74A2087E400
(1644236795.077255) can0 7A6#6BAB30723A01513F
(1644236795.277410) can0 7A6#1E5E647CED16904A
(1644236795.278452) can0 7AE#3008280000000000
(1644236795.353151) can0 7AE#037F647200000000
(1644236795.477573) can0 7A6#53DAE20ADE191C1D
(1644236795.677757) can0 7A6#6A1F9A2C7148FC24
(1644236795.877912) can0 7A6#C773613A30A09E3C
(1644236796.078077) can0 7A6#AE8DE3094FC56716
(1644236796.278264) can0 7A6#4B55106968BB214A
(1644236796.478417) can0 7A6#D97FD174E6729949
(1644236796.678605) can0 7A6#0C0C142CF5AEAA4F
(1644236796.679599) can0 7AE#037F0C1200000000
(1644236796.878580) can0 7A6#E5922A300862CF09
(1644236797.078907) can0 7A6#434BF3380985BB7E
(1644236797.279049) can0 7A6#9AE422196718CF6F
(1644236797.479238) can0 7A6#0757993BF7CD5435
(1644236797.492879) can0 7AE#037F571100000000
(1644236797.679393) can0 7A6#CB2A4B2C9C9CFD0A
(1644236797.879459) can0 7A6#86F24B2942A51277
(1644236798.079731) can0 7A6#BD23E20BF29D7C1B
(1644236798.279902) can0 7A6#7DA66336DB814608
(1644236798.480084) can0 7A6#DFB40C66D0804641
(1644236798.680239) can0 7A6#B99B622549D4A612
(1644236798.880433) can0 7A6#41C94266800FC45F
(1644236799.080583) can0 7A6#7974454FF0562670
(1644236799.280727) can0 7A6#CFD42B76C4C95538
(1644236799.480903) can0 7A6#5812483AA854FD6A
(1644236799.681063) can0 7A6#AA3CEF01641E5C66
(1644236799.881250) can0 7A6#9E03A83A8FCF1932
(1644236800.081391) can0 7A6#6C802B70E14E9B73
(1644236800.281566) can0 7A6#9854D53006654E09
(1644236800.481716) can0 7A6#49676A639FAB6E6C
(1644236800.681882) can0 7A6#FD32A33E1492B50F
(1644236800.882052) can0 7A6#3C486C778325EF67
(1644236801.082231) can0 7A6#5737C806F96B4E03
(1644236801.282365) can0 7A6#75C36B03D4DD2B3D
(1644236808.948894) can0 7A6#15D5AD772A8D5323
(1644236808.949921) can0 7AE#3008280000000000
(1644236809.029059) can0 7AE#037FAD7200000000
(1644236809.149331) can0 7A6#84AB83520A2F8853
(1644236809.349759) can0 7A6#CE17EC6493ADA678
(1644236809.550227) can0 7A6#0AAB3C68FFEC5752
(1644236809.551225) can0 7AE#037FAB1200000000
(1644236809.750668) can0 7A6#55666E633C2F9D70
(1644236809.950990) can0 7A6#525C3324F8E13321
(1644236810.151106) can0 7A6#3DA9837DF33C3604
(1644236810.351215) can0 7A6#EE70AF4789288951
(1644236810.551390) can0 7A6#D7ACD63144196764
(1644236810.751577) can0 7A6#A8327C4F8F455036
(1644236810.951730) can0 7A6#B1B8460987EC6C36
(1644236811.151873) can0 7A6#B94E3A1ADA4BC95D
(1644236811.352071) can0 7A6#4D7C874E8208867A
(1644236811.552232) can0 7A6#3BCF4441BC2E922C
(1644236811.752390) can0 7A6#708EE8073A508E17
(1644236811.952637) can0 7A6#23A99B308563967F
(1644236812.152815) can0 7A6#64DDE13AA7541F03
(1644236812.353040) can0 7A6#90921E5332F5CD1F
(1644236812.553284) can0 7A6#3A02C67B9A3D5B3B
(1644236812.753470) can0 7A6#32E225728F68345F
(1644236812.953632) can0 7A6#D76CF82B843E5916
(1644236813.154793) can0 7A6#874A680014167C29
(1644236813.353947) can0 7A6#777B8F1A75BB1748
(1644236813.554060) can0 7A6#9D3E057B4F28664C
(1644236813.754956) can0 7A6#B9D47E2C4571814A
(1644236813.954477) can0 7A6#DE6DB6026A8DC535
(1644236814.154662) can0 7A6#CD5DEE0097BCF01C
(1644236814.354797) can0 7A6#45D98E131ADA754F
(1644236814.555187) can0 7A6#19C5761780A8D354
(1644236814.556466) can0 7AE#3008280000000000
(1644236814.634810) can0 7AE#037F767200000000
(1644236814.755761) can0 7A6#D608087C8A535F1F
(1644236814.955325) can0 7A6#BAF8616CF9B1A32C
(1644236815.155564) can0 7A6#0FB7F51E1ED64327
(1644236815.156795) can0 7AE#037FB71200000000
(1644236815.356179) can0 7A6#A106C32F9F491472
(1644236815.557199) can0 7A6#51CB1147DB08892B
(1644236815.756258) can0 7A6#3A876F2D83AD3739
(1644236815.956122) can0 7A6#6B71BD0A11F46759
(1644236816.156312) can0 7A6#07EC904FF2BB250B
(1644236816.177382) can0 7AE#037FEC1100000000
(1644236816.356467) can0 7A6#250AE4027E67206A
(1644236816.556557) can0 7A6#68773D53C348E97D
(1644236816.757238) can0 7A6#CD8F8636214CBC7F
(1644236816.957336) can0 7A6#08BA6A48ABFD3C39
(1644236816.958326) can0 7AE#037FBA1200000000
(1644236817.157444) can0 7A6#8CD98135D5175949
(1644236817.357563) can0 7A6#43BA2D56D1B21049
(1644236817.557970) can0 7A6#F0F1CE185C7FA46D
(1644236817.757789) can0 7A6#515BE41DC6FAD614
(1644236817.957877) can0 7A6#E6D2030D0B54460A
(1644236818.158202) can0 7A6#C0AC7A41F689F92B
(1644236818.358366) can0 7A6#292A8A3161B33D71
(1644236818.558598) can0 7A6#95D30D1E7AF59B78
(1644236818.758773) can0 7A6#3CBCC61CCF5A7D4B
(1644236818.958863) can0 7A6#FDA2D331A72D8427
(1644236819.159107) can0 7A6#E04EE524048F6401
(1644236819.359234) can0 7A6#9AE9A9320659C927
(1644236819.559359) can0 7A6#83F6846B0261E705
(1644236819.759557) can0 7A6#C9A1B22550860B22
(1644236819.959720) can0 7A6#23ADA305D15B1D6E
(1644236820.159898) can0 7A6#FC83485BAF86253B
(1644236820.360043) can0 7A6#A77376373F3E7631
(1644236820.560147) can0 7A6#8039360497654550
(1644236820.760355) can0 7A6#9BBD1A1FD1941A22
(1644236820.960532) can0 7A6#5D601C6582901E2C
(1644236821.160618) can0 7A6#DCE8602C1D0D9726
(1644236821.360846) can0 7A6#781A18580613EB5D
(1644236821.561036) can0 7A6#7EC0D4170DEE2576
(1644236821.761884) can0 7A6#80088756BB7C9B34
(1644236821.961288) can0 7A6#DD48A3417EAB5A08
(1644236822.161532) can0 7A6#62AA1F5CBD978866
(1644236822.361694) can0 7A6#823ABF09FC93C90E
(1644236822.561879) can0 7A6#C3F0510E05314475
(1644236822.762030) can0 7A6#FEF4B0148C920434
(1644236822.962219) can0 7A6#56B74F1722A2541A
(1644236823.162346) can0 7A6#5EEE2122523B9872
(1644236823.362522) can0 7A6#D1287A5505629859
(1644236823.562597) can0 7A6#91790E245262B059
(1644236823.763434) can0 7A6#9CC7DD292C372943
(1644236823.963030) can0 7A6#23F7CA7BF927FA0E
(1644236824.163174) can0 7A6#AEC7476F00E02B28
(1644236824.363313) can0 7A6#1735913526E25F47
(1644236824.364394) can0 7AE#3008280000000000
(1644236824.438154) can0 7AE#037F917200000000
(1644236824.563474) can0 7A6#06F3160695F5654D
(1644236824.582899) can0 7AE#037FF31100000000
(1644236824.763820) can0 7A6#34D0853D86FB9D5C
(1644236824.964681) can0 7A6#507201021119297F
(1644236825.164474) can0 7A6#04A7F864B31C215E
(1644236825.178616) can0 7AE#037FA71100000000
(1644236825.364605) can0 7A6#CEB0B16587E1B76E
(1644236825.565005) can0 7A6#AFB0EA6C92A10374
(1644236825.765170) can0 7A6#8C12FC63AEA59B01
(1644236825.965257) can0 7A6#1E340828E2C94B7B
(1644236825.967265) can0 7AE#3008280000000000
(1644236826.039135) can0 7AE#037F087200000000
(1644236826.165529) can0 7A6#D047F01B7C222A4A
(1644236826.365635) can0 7A6#3405E46DA1706A71
(1644236826.565803) can0 7A6#8184C223C57EF211
(1644236826.765960) can0 7A6#F3D21A4B1D4CA04D
(1644236826.966114) can0 7A6#F2B51B5517CAE546
(1644236827.166310) can0 7A6#17749A5CA07D6344
(1644236827.167350) can0 7AE#3008280000000000
(1644236827.239798) can0 7AE#037F9A7200000000
(1644236827.366453) can0 7A6#17AA116F2EA92B12
(1644236827.367523) can0 7AE#3008280000000000
(1644236827.439919) can0 7AE#037F117200000000
(1644236827.566636) can0 7A6#C75FC30B1D9D2875
(1644236827.766798) can0 7A6#C39E915FFB2F4949
(1644236827.966871) can0 7A6#A398C65114119361
(1644236828.167156) can0 7A6#0C497248A83FBF36
(1644236828.168148) can0 7AE#037F491200000000
(1644236828.367306) can0 7A6#C72DB43FDAF9232E
(1644236828.567389) can0 7A6#2F21772576DE9E2C
(1644236828.768263) can0 7A6#6C9B2722BB337309
(1644236828.967677) can0 7A6#24843A2E8BCF2F4A
(1644236829.167954) can0 7A6#9EFDBE04F4CB2A4A
(1644236829.368123) can0 7A6#07F25914D202A372
(1644236829.384894) can0 7AE#037FF21100000000
(1644236829.568183) can0 7A6#963C953B89761C38
(1644236829.768444) can0 7A6#98819504890FB006
(1644236829.968500) can0 7A6#A6C2BC058A37B159
(1644236830.168723) can0 7A6#A0D9954DBD365762
(1644236830.368900) can0 7A6#2AB5141EB783A73C
(1644236830.569084) can0 7A6#EBDF8274F114D829
(1644236830.769215) can0 7A6#D420D031AF7E1454
(1644236830.969376) can0 7A6#EC44217378B99603
(1644236831.169548) can0 7A6#C38FA735F88D933B
(1644236831.369723) can0 7A6#20F9553A8ABD5B75
(1644236831.569910) can0 7A6#D387B7694F1ACD5F
(1644236831.770103) can0 7A6#009CFA213F23DF0B
(1644236831.970243) can0 7A6#0A4E406925203550
(1644236831.971262) can0 7AE#037F4E1200000000
(1644236832.170284) can0 7A6#CAF20E56A84BFF6D
(1644236832.370561) can0 7A6#19EC5F1AD2E4686A
(1644236832.371611) can0 7AE#3008280000000000
(1644236832.446641) can0 7AE#037F5F7200000000
(1644236832.570708) can0 7A6#7B4EA260AF28F555
(1644236832.770880) can0 7A6#5B5B852213D03765
(1644236832.971041) can0 7A6#3938A55C011E4228
(1644236833.171221) can0 7A6#9D07E93ED9113B2A
(1644236833.371387) can0 7A6#BF54990AC7BCFD5C
(1644236833.571571) can0 7A6#9195E266AA341C7F
(1644236833.771729) can0 7A6#B9D1D50665B6B218
(1644236833.971889) can0 7A6#59B33053A516F779
(1644236834.172068) can0 7A6#DD6F491C1C43D808
(1644236834.372229) can0 7A6#9EA48A35FD689F56
(1644236834.572420) can0 7A6#A600347E712C421F
(1644236834.772549) can0 7A6#4C836C36A79C2E20
(1644236834.972741) can0 7A6#B04F212B57D1AC1F
(1644236835.172898) can0 7A6#CCBC63707B423001
(1644236835.373040) can0 7A6#FF1CAC0DE5A8C30A
(1644236835.573211) can0 7A6#4D27996B7A6B4E6E
(1644236835.773377) can0 7A6#95D1B860A8821E0E
(1644236835.973522) can0 7A6#8D3B8653CE095E3D
(1644236836.173683) can0 7A6#A9A060362A436F12
(1644236836.373856) can0 7A6#A71B996768F5F940
(1644236836.574016) can0 7A6#F2FF6C6F38B17B4E
(1644236836.774166) can0 7A6#132A1640ABD14276
(1644236836.775209) can0 7AE#3008280000000000
(1644236836.849105) can0 7AE#037F167200000000
(1644236836.974390) can0 7A6#9E672E676CDD4613
(1644236837.174616) can0 7A6#50E839707BD77703
(1644236837.374685) can0 7A6#89201F1CEE8CC425
(1644236837.574868) can0 7A6#7940175A2F21531A
(1644236837.774970) can0 7A6#5FB90645C5C38310
(1644236837.975210) can0 7A6#D6BD813A10092870
(1644236838.175377) can0 7A6#1C953030A27AE52A
(1644236838.176418) can0 7AE#3008280000000000
(1644236838.252448) can0 7AE#037F307200000000
(1644236838.375556) can0 7A6#8B4B58711CB2DC3D
(1644236838.575778) can0 7A6#8823A935D872F15C
(1644236838.775944) can0 7A6#961D2B2C1DF56116
(1644236838.976028) can0 7A6#80F50F6B2459B17F
(1644236839.176265) can0 7A6#EBFEBF5329967021
(1644236839.376427) can0 7A6#4E9C2012921A593B
(1644236839.576597) can0 7A6#928B6A62409C8D01
(1644236839.776754) can0 7A6#CBCBD409A5B58022
(1644236839.976931) can0 7A6#EB6DD07769330371
(1644236840.177089) can0 7A6#1193C7353C560A68
(1644236840.178149) can0 7AE#3008280000000000
(1644236840.253545) can0 7AE#037FC77200000000
(1644236840.377248) can0 7A6#E40A7B749AB3E651
(1644236840.577351) can0 7A6#2AE3CE0D5D4B924E
(1644236840.777528) can0 7A6#CAD4396C8A9CD552
(1644236840.977727) can0 7A6#230F165FA092BB26
(1644236841.177880) can0 7A6#9AA5FD423FA4460F
(1644236841.378024) can0 7A6#430DA15125F15534
(1644236841.578185) can0 7A6#5B56234DCB304A07
(1644236841.778347) can0 7A6#FD634711F2734E79
(1644236841.978517) can0 7A6#E825AC1D7D59577C
(1644236842.178663) can0 7A6#16CDFF78D3246C71
(1644236842.179711) can0 7AE#3008280000000000
(1644236842.254645) can0 7AE#037FFF7200000000
(1644236842.378823) can0 7A6#A6EFC71D6469200B
(1644236842.579003) can0 7A6#653FC52C387B3200
(1644236842.779150) can0 7A6#A505AE0C300B9A36
(1644236842.979313) can0 7A6#DD30B32290737E04
(1644236843.179466) can0 7A6#993E9D27EFC37A58
(1644236843.379615) can0 7A6#CCC9886C7E49181C
(1644236843.579757) can0 7A6#8977612AF7AC577A
(1644236843.779922) can0 7A6#DB94AA6A534C9B16
(1644236843.980036) can0 7A6#81492D4DFEA3C049
(1644236844.180228) can0 7A6#F4DE563D1BEF2A10
(1644236844.380398) can0 7A6#3E48075937ECF70E
(1644236844.580568) can0 7A6#40E08044999E2A26
(1644236844.780706) can0 7A6#021D42163D44C855
(1644236844.796101) can0 7AE#037F1D1100000000
(1644236844.980884) can0 7A6#8B12791FEA42EE33
(1644236845.181049) can0 7A6#BA9D1F52A1DF7818
(1644236845.381199) can0 7A6#BD675A25608DE76F
(1644236845.581310) can0 7A6#0649992322A71F52
(1644236845.596529) can0 7AE#037F491100000000
(1644236845.781511) can0 7A6#99081A70AB4E4730
(1644236845.981682) can0 7A6#53B2B9087639CD12
(1644236846.181944) can0 7A6#3BC2C534ECF05630
(1644236846.382196) can0 7A6#65FD476B088C4E21
(1644236846.582364) can0 7A6#6A3A6F4CEF74A915
(1644236846.782639) can0 7A6#FF38A61B46CF1937
(1644236846.982817) can0 7A6#42C1442C8082D368
(1644236847.183023) can0 7A6#4473DA0036A09B69
(1644236847.383171) can0 7A6#9B71FE7882BBE159
(1644236847.583322) can0 7A6#6D8C9378DB517F3D
(1644236847.783529) can0 7A6#1C5A0C006FA9D50E
(1644236847.784727) can0 7AE#3008280000000000
(1644236847.857800) can0 7AE#037F0C7200000000
(1644236847.983666) can0 7A6#18964713A76C851F
(1644236847.984709) can0 7AE#3008280000000000
(1644236848.057898) can0 7AE#037F477200000000
(1644236848.183812) can0 7A6#59ECC342D2336765
(1644236848.384004) can0 7A6#494CFE3716541E68
(1644236848.584161) can0 7A6#32C14E554F95975B
(1644236848.784359) can0 7A6#39FB3D3ACBC96845
(1644236848.984667) can0 7A6#FAE3DE0B8CADF742
(1644236849.185026) can0 7A6#4203365835A6A440
(1644236849.385182) can0 7A6#789E4E73A7007E43
(1644236849.585356) can0 7A6#3D32F361E3D8BD3F
(1644236849.785537) can0 7A6#967527593C6B997D
(1644236849.986473) can0 7A6#29A8D776D9366C05
(1644236850.185713) can0 7A6#BCED6C666D1BB277
(1644236850.386032) can0 7A6#0FD7076F575F6B5F
(1644236850.387017) can0 7AE#037FD71200000000
(1644236850.586175) can0 7A6#F0D693517D639B67
(1644236850.786348) can0 7A6#32B1EA1C0C31A051
(1644236850.986626) can0 7A6#EC0C71764A473230
(1644236851.188054) can0 7A6#B39D257146F93439
(1644236851.387438) can0 7A6#1C7B9915FCE92329
(1644236851.388460) can0 7AE#3008280000000000
(1644236851.459765) can0 7AE#037F997200000000
(1644236851.587705) can0 7A6#5C4D53214F3CE86A
(1644236851.787954) can0 7A6#4B7FBB049548915B
(1644236851.988113) can0 7A6#1A06513045639A10
(1644236851.989162) can0 7AE#3008280000000000
(1644236852.070082) can0 7AE#037F517200000000
(1644236852.188640) can0 7A6#21F6881E5C098708
(1644236852.388320) can0 7A6#7B093F519A94D711
(1644236852.588609) can0 7A6#040A054CB83B3233
(1644236852.600415) can0 7AE#037F0A1100000000
(1644236852.788786) can0 7A6#7D6D95519A7F2C25
(1644236852.989251) can0 7A6#F5A6CB30A6156D48
(1644236853.189134) can0 7A6#73B6982AB1943817
(1644236853.389295) can0 7A6#13311F40838DA019
(1644236853.390329) can0 7AE#3008280000000000
(1644236853.470906) can0 7AE#037F1F7200000000
(1644236853.589460) can0 7A6#09F4A3760308B311
(1644236853.590462) can0 7AE#037FF41200000000
(1644236853.789619) can0 7A6#00F13B013BA58E13
(1644236853.989824) can0 7A6#0F395363ECFDAC77
(1644236853.990846) can0 7AE#037F391200000000
(1644236854.190678) can0 7A6#86ECC043C3D67854
(1644236854.390223) can0 7A6#32F7E130A2675A59
(1644236854.591133) can0 7A6#BFC09C7D8F443552
(1644236854.790572) can0 7A6#F1A342440B405802
(1644236854.990725) can0 7A6#248DC62D0CAA9374
(1644236855.191255) can0 7A6#50A3F21246834F4C
(1644236855.391049) can0 7A6#68B31A7DCBAC3164
(1644236855.591235) can0 7A6#E017275E6CBD1F49
(1644236855.791404) can0 7A6#84E863175D85BC2F
(1644236855.991578) can0 7A6#073D4C6E798F2F48
(1644236856.012271) can0 7AE#037F3D1100000000
(1644236856.191790) can0 7A6#039B29787AF3E418
(1644236856.212389) can0 7AE#037F9B1100000000
(1644236856.392088) can0 7A6#2A24685F16CC4838
(1644236856.595424) can0 7A6#FD80853233180C56
(1644236856.797570) can0 7A6#1AD4FB49FD71C133
(1644236856.800577) can0 7AE#3008280000000000
(1644236856.872757) can0 7AE#037FFB7200000000
(1644236856.994667) can0 7A6#6FBD9A69290D4F2D
(1644236857.194791) can0 7A6#EA6F6E2BF5A95B2D
(1644236857.396888) can0 7A6#ECE3C7011C67505C
(1644236857.595008) can0 7A6#9711B606ACA4647F
(1644236857.796093) can0 7A6#ABAB852E89B5F84A
(1644236857.996191) can0 7A6#B7E4BC01D0384C5C
(1644236858.195529) can0 7A6#955F8C3F0788AF14
(1644236858.395862) can0 7A6#16BC9B28FD12A73C
(1644236858.396887) can0 7AE#3008280000000000
(1644236858.474625) can0 7AE#037F9B7200000000
(1644236858.596505) can0 7A6#D334E178F6D3C206
(1644236858.796641) can0 7A6#6AD0C605571D4510
(1644236858.996222) can0 7A6#53597F36710D1374
(1644236859.197452) can0 7A6#D0AC745856F4A82E
(1644236859.397586) can0 7A6#EB00F80CFAD0DC37
(1644236859.598668) can0 7A6#6CC0F166E9817D3F
(1644236859.797766) can0 7A6#2EE9E80D8694ED30
(1644236860.000757) can0 7A6#E6F33E739DA68377
(1644236860.198943) can0 7A6#B0A13C5ED063AD1E
(1644236860.398080) can0 7A6#9250DF249C850460
(1644236860.599061) can0 7A6#EDCAFD7A2962952B
(1644236860.799259) can0 7A6#482A695F98768329
(1644236860.998342) can0 7A6#B2178E76FF0E2661
(1644236861.198453) can0 7A6#68AFCF0547771A36
(1644236861.399575) can0 7A6#0797D5757E6B6B2E
(1644236861.417774) can0 7AE#037F971100000000
(1644236861.598647) can0 7A6#458AC172DACBB66E
(1644236861.799655) can0 7A6#743F2E35AF5A8878
(1644236862.003710) can0 7A6#31E9FB7EC798AD6B
(1644236862.198987) can0 7A6#20689B6C01967057
(1644236862.399162) can0 7A6#1D8D561A0B699379
(1644236862.400287) can0 7AE#3008280000000000
(1644236862.481103) can0 7AE#037F567200000000
(1644236862.600175) can0 7A6#FB664D0F8A4D4801
(1644236862.800213) can0 7A6#F4EA10392950361D
(1644236863.000266) can0 7A6#10E23532DBDE4F2C
(1644236863.001305) can0 7AE#3008280000000000
(1644236863.081399) can0 7AE#037F357200000000
(1644236863.200455) can0 7A6#C6F6B914C0837210
(1644236863.400066) can0 7A6#AB42FD4A58479939
(1644236863.600247) can0 7A6#5D097770980DFB45
(1644236863.800754) can0 7A6#82A92E65A533E04F
(1644236864.000647) can0 7A6#31847E6F34C1BC5B
(1644236864.200845) can0 7A6#A542063199334E75
(1644236864.401036) can0 7A6#7C38D711ACD9DB26
(1644236864.601133) can0 7A6#189FB923C1C29804
(1644236864.602174) can0 7AE#3008280000000000
(1644236864.682816) can0 7AE#037FB97200000000
(1644236864.801303) can0 7A6#86A592158CDEE758
(1644236865.001751) can0 7A6#701D217DB78E8E14
(1644236865.201668) can0 7A6#547795449085BC69
(1644236865.402203) can0 7A6#B824FF6B7104EC5E
(1644236865.602616) can0 7A6#9BEE4F63B38B4C7B
(1644236865.802223) can0 7A6#FB51346090D9601C
(1644236866.002359) can0 7A6#DDDB82180C346A12
(1644236866.202509) can0 7A6#6BB8B048A3D23C2D
(1644236866.402677) can0 7A6#CCB7DC2216FBAD13
(1644236866.602917) can0 7A6#FC19D66629C15313
(1644236866.803050) can0 7A6#AF08A9597EC3044C
(1644236867.003257) can0 7A6#CFF43363E08C2749
(1644236867.203375) can0 7A6#B284C12774373A14
(1644236867.403434) can0 7A6#79C0753E2EBD9839
(1644236867.603695) can0 7A6#2011163B915F2F62
(1644236867.803846) can0 7A6#EF7F313EA6B6A850
(1644236868.004047) can0 7A6#1E3E173B5F9D523B
(1644236868.005091) can0 7AE#3008280000000000
(1644236868.083030) can0 7AE#037F177200000000
(1644236868.204169) can0 7A6#5D45376572B5AC7F
(1644236868.404359) can0 7A6#EF220F25156A3651
(1644236868.604499) can0 7A6#E3B9985E8B115F08
(1644236868.804678) can0 7A6#C8F5824CDF0BCD3E
(1644236869.004850) can0 7A6#1BEBBF24A5D10565
(1644236869.005898) can0 7AE#3008280000000000
(1644236869.084380) can0 7AE#037FBF7200000000
(1644236869.204982) can0 7A6#EB3F375186A3706D
(1644236869.405138) can0 7A6#49A44212B7F71374
(1644236869.605337) can0 7A6#9C9E1E0145BE1879
(1644236869.805521) can0 7A6#E1B867074BA7C75A
(1644236870.005628) can0 7A6#C3811D45B0AD9B6A
(1644236870.205805) can0 7A6#2B34EF237506DF6C
(1644236870.406010) can0 7A6#24E5D57EA5F46462
(1644236870.606145) can0 7A6#A4C3772644F6EB39
(1644236870.806316) can0 7A6#365494449343A964
(1644236871.006501) can0 7A6#EAAC940A5492AB7F
(1644236871.206692) can0 7A6#F3E0FB1F47F2CB6F
(1644236871.406828) can0 7A6#C647587FE2030B45
(1644236871.607007) can0 7A6#5C5C0241AA01F15D
(1644236871.807131) can0 7A6#6D156A4D2452850D
(1644236872.007338) can0 7A6#890DBE1C88002A72
(1644236872.207470) can0 7A6#CA238B72744DF56D
(1644236872.407558) can0 7A6#0EA49A5F13C8CD04
(1644236872.408546) can0 7AE#037FA41200000000
(1644236872.607819) can0 7A6#2B450962AB42B960
(1644236872.807996) can0 7A6#5886E67D0CFE7069
(1644236873.008353) can0 7A6#F6E9803B1B080443
(1644236873.208726) can0 7A6#BCAB0C54221E705F
(1644236873.409082) can0 7A6#900EE32FE090E252
(1644236873.609408) can0 7A6#C712D54134D25A56
(1644236873.809791) can0 7A6#2487CE0CFD666906
(1644236874.010121) can0 7A6#C815043B0E346317
(1644236874.210535) can0 7A6#52F91406BBF6FF5A
(1644236874.410950) can0 7A6#55262F0718416D05
(1644236874.611333) can0 7A6#9DFA0A20B1823148
(1644236874.811454) can0 7A6#C2425E630B10756D
(1644236875.011638) can0 7A6#D6D4B6554B501C00
(1644236875.211823) can0 7A6#93109F5FA0F84148
(1644236875.411971) can0 7A6#BF9D116EA2B4393F
(1644236875.612170) can0 7A6#B3C00F4DEBE21A50
(1644236875.812331) can0 7A6#4DF7F21F0B47F64A
(1644236876.012503) can0 7A6#F7E08B3943E1735B
(1644236876.212648) can0 7A6#264FFA0DB48C980D
(1644236876.412802) can0 7A6#65FFE33AB65DDD3D
(1644236876.612998) can0 7A6#941D7B602C12B97C
(1644236876.813124) can0 7A6#EB2F3814B9A4496D
(1644236877.013308) can0 7A6#2A792203B3453C4F
(1644236877.213473) can0 7A6#C7D8AC047C723709
(1644236877.413628) can0 7A6#6E3C3C2A1DFFDB0B
(1644236877.613795) can0 7A6#94B3A40E0B37474A
(1644236877.813983) can0 7A6#CE810D5457F60272
(1644236878.014217) can0 7A6#1647BC37A456C429
(1644236878.015246) can0 7AE#3008280000000000
(1644236878.088827) can0 7AE#037FBC7200000000
(1644236878.214415) can0 7A6#A2461F72AA575B17
(1644236878.414588) can0 7A6#444F067262E43060
(1644236878.615425) can0 7A6#4C0C9556F70F163F
(1644236878.814909) can0 7A6#4DC74B3099038876
(1644236879.015094) can0 7A6#02570C0A44A8D769
(1644236879.028757) can0 7AE#037F571100000000
(1644236879.215271) can0 7A6#DCE4FB5128A60618
(1644236879.415498) can0 7A6#F834707742E4DF0C
(1644236879.615614) can0 7A6#DF03E4558D52EB57
(1644236879.815798) can0 7A6#6EF69809CA331C6A
(1644236880.015963) can0 7A6#46F73445986FBB0C
(1644236880.216139) can0 7A6#7D7958390DD0E149
(1644236880.416288) can0 7A6#14E2F215EBB59463
(1644236880.417321) can0 7AE#3008280000000000
(1644236880.498173) can0 7AE#037FF27200000000
(1644236880.616472) can0 7A6#2ACFBD55A9959724
(1644236880.816630) can0 7A6#F6ECDB2DF950CB29
(1644236881.016836) can0 7A6#008C9A160D349865
(1644236881.216870) can0 7A6#9DA78F53A2D2B908
(1644236881.417141) can0 7A6#B78BF37CE2F69545
(1644236881.617603) can0 7A6#04B7EA6803988853
(1644236881.630611) can0 7AE#037FB71100000000
(1644236881.817937) can0 7A6#D906AC04517E3619
(1644236882.018087) can0 7A6#9C9B104ADC5DB80E
(1644236882.218263) can0 7A6#96260E0378800C1C
(1644236882.419229) can0 7A6#0404BF268E5B7E7A
(1644236882.431061) can0 7AE#037F041100000000
(1644236882.618516) can0 7A6#BA64EC28E307A37C
(1644236882.818708) can0 7A6#1BAE6952295B8532
(1644236882.819742) can0 7AE#3008280000000000
(1644236882.891272) can0 7AE#037F697200000000
(1644236883.018868) can0 7A6#AD3BBF6661A59E17
(1644236883.219049) can0 7A6#C1CA403F2AB51720
(1644236883.419750) can0 7A6#6F758061D6AC3355
(1644236883.619289) can0 7A6#156BAC0399443E37
(1644236883.620385) can0 7AE#3008280000000000
(1644236883.691704) can0 7AE#037FAC7200000000
(1644236883.819423) can0 7A6#7F42CB790C588831
(1644236884.019623) can0 7A6#929509617FCE6510
(1644236884.219794) can0 7A6#198C2017303D9934
(1644236884.221734) can0 7AE#3008280000000000
(1644236884.302043) can0 7AE#037F207200000000
(1644236884.420296) can0 7A6#21A11F19D0171414
(1644236884.620115) can0 7A6#12342F7A26580A02
(1644236884.622056) can0 7AE#3008280000000000
(1644236884.702257) can0 7AE#037F2F7200000000
(1644236884.820187) can0 7A6#D3AF9C67EB3ADB7E
(1644236885.020406) can0 7A6#77D6401B6F4BAD31
(1644236885.220767) can0 7A6#C798930D0DFD4E1E
(1644236885.420806) can0 7A6#E7CBB94DCC9C5234
(1644236885.620862) can0 7A6#9C58CD18A230A676
(1644236885.821037) can0 7A6#AFA4F530B706376B
(1644236886.021211) can0 7A6#CB8B2B295DE0B417
(1644236886.221357) can0 7A6#19ACD5028C566C68
(1644236886.223301) can0 7AE#3008280000000000
(1644236886.303128) can0 7AE#037FD57200000000
(1644236886.423286) can0 7A6#8795CC3788215664
(1644236886.621620) can0 7A6#6203A03D9D00793B
(1644236886.821869) can0 7A6#2166941BE1456B37
(1644236887.024793) can0 7A6#A958016DB4FB9D7C
(1644236887.223103) can0 7A6#6014D147C2E42104
(1644236887.423882) can0 7A6#E438373182B5F060
(1644236887.623300) can0 7A6#92FC3518F66C662B
(1644236887.823402) can0 7A6#A80DFB6265ACD27F
(1644236888.029109) can0 7A6#E1A7412A1FE43B7E
(1644236888.223609) can0 7A6#D4F77F31A940D537
(1644236888.424412) can0 7A6#2DE18A1CBBC3397F
(1644236888.623768) can0 7A6#75DD276CC9395835
(1644236888.824260) can0 7A6#5DF4DF7524821D1D
(1644236889.029656) can0 7A6#80408F2028800B1F
(1644236889.224968) can0 7A6#8162D23499EC6423
(1644236889.425314) can0 7A6#B5D6770709F89E6C
(1644236889.625536) can0 7A6#210EBB0717DA1745
(1644236889.825635) can0 7A6#A6F8172843744F23
(1644236890.030366) can0 7A6#F91F837C4F511915
(1644236890.225975) can0 7A6#F76FED1F59345444
(1644236890.426115) can0 7A6#11363B19DBA82451
(1644236890.427142) can0 7AE#3008280000000000
(1644236890.505394) can0 7AE#037F3B7200000000
(1644236890.626180) can0 7A6#DBE94425A3327131
(1644236890.826431) can0 7A6#D1158B7C83F73F08
(1644236891.031427) can0 7A6#08DF4331B2BDCC26
(1644236891.032434) can0 7AE#037FDF1200000000
(1644236891.226753) can0 7A6#A3DB7B06DCD6C362
(1644236891.426973) can0 7A6#5BFEA15ED0BC0623
(1644236891.627161) can0 7A6#979AFD61D0DBC94A
(1644236891.827342) can0 7A6#99F65E58F58EDD57
(1644236892.032207) can0 7A6#F55DE7671937EE78
(1644236892.227687) can0 7A6#1D0FE97676C0B91C
(1644236892.228720) can0 7AE#3008280000000000
(1644236892.306587) can0 7AE#037FE97200000000
(1644236892.428011) can0 7A6#B323531CD2E5607E
(1644236892.628049) can0 7A6#7FB85809D4310E24
(1644236892.828204) can0 7A6#EABF784325B17031
(1644236893.033255) can0 7A6#17A65D47E3DFFB3F
(1644236893.034290) can0 7AE#3008280000000000
(1644236893.106754) can0 7AE#037F5D7200000000
(1644236893.228559) can0 7A6#74028A460E164B67
(1644236893.428735) can0 7A6#3C1450048538C55F
(1644236893.628905) can0 7A6#E9BE6F3818FE9429
(1644236893.829067) can0 7A6#286B3611BAD4FA34
(1644236894.029870) can0 7A6#9BF5D431304A7A42
(1644236894.229411) can0 7A6#6D92C75B3ED15038
(1644236894.429566) can0 7A6#0C213E25C890693A
(1644236894.430560) can0 7AE#037F211200000000
(1644236894.629725) can0 7A6#0E8E575BA4BB3B07
(1644236894.630754) can0 7AE#037F8E1200000000
(1644236894.829866) can0 7A6#996C3305A784B633
(1644236895.030405) can0 7A6#994A195F8ECA1A6D
(1644236895.230219) can0 7A6#C1BBA42CB6590256
(1644236895.430390) can0 7A6#048BD40974DFF748
(1644236895.448052) can0 7AE#037F8B1100000000
(1644236895.630556) can0 7A6#893F635484432D13
(1644236895.830759) can0 7A6#4811066D73FFDB17
(1644236896.031003) can0 7A6#A9F49D4460B76334
(1644236896.231080) can0 7A6#56DFD7571EF7270B
(1644236896.431225) can0 7A6#6ECDAE1B92F3275C
(1644236896.631428) can0 7A6#A32FED6A588C1E54
(1644236896.831495) can0 7A6#AAF1BC05CC9A237C
(1644236897.032232) can0 7A6#1261190946E79137
(1644236897.034219) can0 7AE#3008280000000000
(1644236897.108933) can0 7AE#037F197200000000
(1644236897.231938) can0 7A6#FCE49D3E7FF3E064
(1644236897.432068) can0 7A6#84B8E26F0906DC63
(1644236897.632238) can0 7A6#48844A1F93463A4B
(1644236897.832438) can0 7A6#ADC1176BE1F07D24
(1644236898.033059) can0 7A6#3ACBF07E460C314A
(1644236898.232793) can0 7A6#6FBB9811FB86952B
(1644236898.432939) can0 7A6#FC65332073466D1B
(1644236898.633085) can0 7A6#6F668D7485A59674
(1644236898.833270) can0 7A6#F7899A2EB8779361
(1644236899.033595) can0 7A6#F8A4720CA17E3873
(1644236899.233647) can0 7A6#182FF7154E844A64
(1644236899.234686) can0 7AE#3008280000000000
(1644236899.310122) can0 7AE#037FF77200000000
(1644236899.433820) can0 7A6#BF75607E86FCA531
(1644236899.633977) can0 7A6#E177724062A54D69
(1644236899.834128) can0 7A6#DE88C4058B692F46
(1644236900.034554) can0 7A6#2E407165F1E9DD0E
(1644236900.234697) can0 7A6#D150C17D2B250F24
(1644236900.434874) can0 7A6#70DDBE735609A46D
(1644236900.634960) can0 7A6#342BEB07B8610913
(1644236900.835181) can0 7A6#E94FDE38E1EC0273
(1644236901.035366) can0 7A6#99528737231BCF37
(1644236901.235611) can0 7A6#27F9333D080E2049
(1644236901.435750) can0 7A6#1FA26463235F675D
(1644236901.436793) can0 7AE#3008280000000000
(1644236901.511305) can0 7AE#037F647200000000
(1644236901.635830) can0 7A6#7C548D648E08F257
(1644236901.836069) can0 7A6#A904FE5173DE2713
(1644236902.036233) can0 7A6#46808539A1A9705E
(1644236902.236497) can0 7A6#145D60065EAF7C4F
(1644236902.237585) can0 7AE#3008280000000000
(1644236902.311757) can0 7AE#037F607200000000
(1644236902.436563) can0 7A6#F02DBB42D3D2C004
(1644236902.636589) can0 7A6#E5AB2201D1A52D03
(1644236902.836884) can0 7A6#36780E6EC334E706
(1644236903.037055) can0 7A6#5C0F5D4964B87F53
(1644236903.237186) can0 7A6#B41EC5152E601E47
(1644236903.437442) can0 7A6#8FDD8E7725FC8309
(1644236903.637629) can0 7A6#8469C234C3087A7F
(1644236903.837786) can0 7A6#DD5D8D1C6DB9A06D
(1644236904.037975) can0 7A6#A4F57C7277B01454
(1644236904.238147) can0 7A6#90D46F25CBEEB02F
(1644236904.438313) can0 7A6#7FBE341DAF76D408
(1644236904.638395) can0 7A6#EF4D180DFB12C201
(1644236904.838633) can0 7A6#3E7FC6609852165F
(1644236905.038797) can0 7A6#6FF1E91484FF4B1A
(1644236905.238949) can0 7A6#39FC863D834E4A1B
(1644236905.439110) can0 7A6#E3AEC869292A4200
(1644236905.639194) can0 7A6#57210B20C85AEB6A
(1644236905.839359) can0 7A6#FACF6F038D99190E
(1644236906.042540) can0 7A6#8B8FD27157DFCC4C
(1644236906.244005) can0 7A6#F151996140AE9707
(1644236906.444624) can0 7A6#853FEB13812F2859
(1644236906.644297) can0 7A6#65AA1B1109A9AD48
(1644236906.844480) can0 7A6#4438A2584208A92D
(1644236907.044894) can0 7A6#76624E36E92D1F4B
(1644236907.249530) can0 7A6#B9B8BD010637BE5B
(1644236907.445079) can0 7A6#B41CD07A3977F21E
(1644236907.645222) can0 7A6#B6AD9264A36AE807
(1644236907.845446) can0 7A6#348AB420F42C5945
(1644236908.045655) can0 7A6#3BBDFE66A37B9E35
(1644236908.245860) can0 7A6#782CA55F75B98524
(1644236908.446007) can0 7A6#27CAE8505BDB6D49
(1644236908.646197) can0 7A6#9EE3C7247EEBF370
(1644236908.846334) can0 7A6#2336593499B33728
(1644236909.046569) can0 7A6#0B850D7FAFC52B26
(1644236909.047579) can0 7AE#037F851200000000
(1644236909.246777) can0 7A6#F0920475FCD6A660
(1644236909.446954) can0 7A6#EF73C32D75D2EF08
(1644236909.647191) can0 7A6#7D06CF39541EDF3E
(1644236909.847301) can0 7A6#7E7B9D51C23E7112
(1644236910.047573) can0 7A6#9626886CF4DDEB07
(1644236910.247655) can0 7A6#AB6C905D50DF456E
(1644236910.447962) can0 7A6#FA14AA635F896058
(1644236910.648057) can0 7A6#8956380DB0C23C48
(1644236910.848365) can0 7A6#03F44860BDE0EC2D
(1644236910.870095) can0 7AE#037FF41100000000
(1644236911.048608) can0 7A6#A4EF950D3EB14747
(1644236911.248796) can0 7A6#615C8B631D1C3B6D
(1644236911.449170) can0 7A6#B36ACD6B88267434
(1644236911.649459) can0 7A6#78F7A836524E9510
(1644236911.849904) can0 7A6#061268259C2D026B
(1644236911.870617) can0 7AE#037F121100000000
(1644236912.052412) can0 7A6#EB01CD3811977524
(1644236912.253041) can0 7A6#4BF32D11DB94D12D
(1644236912.455742) can0 7A6#0D6E1C053A67F13E
(1644236912.456739) can0 7AE#037F6E1200000000
(1644236912.655766) can0 7A6#5067C1368B74EB3E
(1644236912.856225) can0 7A6#8E85D07DCEE25E08
(1644236913.056971) can0 7A6#4DB35C5124AC586A
(1644236913.256988) can0 7A6#C2C04A10F81FED2E
(1644236913.457480) can0 7A6#748B9E58BCD5F473
(1644236913.657985) can0 7A6#57A94D07FDE1D665
(1644236913.858414) can0 7A6#6D98313C5A9D9667
(1644236914.059259) can0 7A6#BBC2C3131188C749
(1644236914.259609) can0 7A6#994EDE2E1C1F4F77
(1644236914.460083) can0 7A6#2EA402374CB9AB1A
(1644236914.660505) can0 7A6#A445C32BA79BAB6D
(1644236914.862771) can0 7A6#9E07412BAA572B51
(1644236915.064919) can0 7A6#43C9AD5889090E64
(1644236915.263346) can0 7A6#BBEEA0758EBCDB69
(1644236915.463622) can0 7A6#649EDF11C85CBD7A
(1644236915.663912) can0 7A6#C823CD28B405A148
(1644236915.864131) can0 7A6#53D1A83956A99D26
(1644236916.064475) can0 7A6#82E8FF50A084050B
(1644236916.265587) can0 7A6#7A55F61044A94A61
(1644236916.466762) can0 7A6#98A4F239EFE09469
(1644236916.667121) can0 7A6#017F3F55F04D4041
(1644236916.685447) can0 7AE#037F7F1100000000
(1644236916.868409) can0 7A6#ECC26B4F6E177111
(1644236917.071450) can0 7A6#4AEBD628A7852F63
(1644236917.270778) can0 7A6#7F9F385BE339B557
(1644236917.472066) can0 7A6#C3A47E5AAE433B12
(1644236917.671410) can0 7A6#30F3607267EA4106
(1644236917.872090) can0 7A6#55DFE67FCEFAA11D
(1644236918.072398) can0 7A6#11426D5798A89458
(1644236918.073409) can0 7AE#3008280000000000
(1644236918.149470) can0 7AE#037F6D7200000000
(1644236918.272575) can0 7A6#5804B001CC300E4D
(1644236918.472801) can0 7A6#26657042BCA28F13
(1644236918.673028) can0 7A6#958DCB47EE883D6B
(1644236918.873270) can0 7A6#71A8305CE85E7401
(1644236919.073678) can0 7A6#4432DB11F390302D
(1644236919.274428) can0 7A6#89E3790CBE87D122
(1644236919.475741) can0 7A6#383A7B0E21886C46
(1644236919.676154) can0 7A6#AD68660C39B9BA63
(1644236919.877345) can0 7A6#11D6AC079A2BD25B
(1644236919.878454) can0 7AE#3008280000000000
(1644236919.955115) can0 7AE#037FAC7200000000
(1644236920.077743) can0 7A6#A7D02B755CC18330
(1644236920.278904) can0 7A6#41B1013F26706450
(1644236920.480490) can0 7A6#3FFB380805568019
(1644236920.681897) can0 7A6#D4B39F626FEE997A
(1644236920.881793) can0 7A6#6C40C21F29938662
(1644236921.082213) can0 7A6#3EE93B187E822F77
(1644236921.283360) can0 7A6#C13B1B3B96EDEB19
(1644236921.484933) can0 7A6#4AB33D44E7A08B7D
(1644236921.684709) can0 7A6#52907B2DDF40090C
(1644236921.885866) can0 7A6#D529C968C338AC09
(1644236922.086063) can0 7A6#C89F7D0D195CA47A
(1644236922.286662) can0 7A6#B7C9DC365183F719
(1644236922.487755) can0 7A6#D8E3751DEF035845
(1644236922.687920) can0 7A6#720B6460854CDC29
(1644236922.888954) can0 7A6#28BD122984E11068
(1644236923.088832) can0 7A6#1F78AE05CF8D3E1E
(1644236923.089870) can0 7AE#3008280000000000
(1644236923.161444) can0 7AE#037FAE7200000000
(1644236923.289493) can0 7A6#E0A294186129B044
(1644236923.491567) can0 7A6#F5FDA26E1F9ECD20
(1644236923.691065) can0 7A6#667F305ECAB14251
(1644236923.891062) can0 7A6#8F8C671BD2BFF27D
(1644236924.091233) can0 7A6#F344C933CD75A333
(1644236924.291725) can0 7A6#50422275B580E46E
(1644236924.492430) can0 7A6#63638F4D9BF55F39
(1644236924.692630) can0 7A6#9C21706CB5F30A7B
(1644236924.893250) can0 7A6#7A366945724B3955
(1644236925.093473) can0 7A6#792CB70442D6E652
(1644236925.293704) can0 7A6#8BA7DD4F30F6933B
(1644236925.494838) can0 7A6#9359DE6C638B536D
(1644236925.695043) can0 7A6#1FFAEB000665424D
(1644236925.696086) can0 7AE#3008280000000000
(1644236925.767875) can0 7AE#037FEB7200000000
(1644236925.895513) can0 7A6#E9D72F1747B7FE29
(1644236926.095739) can0 7A6#8A4653350850DE1C
(1644236926.296504) can0 7A6#16453D486AE9E74D
(1644236926.297382) can0 7AE#3008280000000000
(1644236926.363635) can0 7AE#037F3D7200000000
(1644236926.497133) can0 7A6#69798E610B43E036
(1644236926.697545) can0 7A6#8987B56ECFF8BE3F
(1644236926.898520) can0 7A6#D5F4220818141D0A
(1644236927.098755) can0 7A6#A2B8B13DC939EC3B
(1644236927.299437) can0 7A6#E589C03DF2FAD332
(1644236927.500236) can0 7A6#7EBAD02A48ED4F0B
(1644236927.700421) can0 7A6#8DF0336C1ADC4017
(1644236927.901064) can0 7A6#FEE05A0608279D31
(1644236928.101240) can0 7A6#8C277A6C770D120B
(1644236928.301755) can0 7A6#4AFD830418CF573C
(1644236928.502545) can0 7A6#A703A646DE566271
(1644236928.702767) can0 7A6#7B5AAB29C6FD9147
(1644236928.903358) can0 7A6#E4BBA43E6432DB40
(1644236929.103762) can0 7A6#0DB590716E02F873
(1644236929.104755) can0 7AE#037FB51200000000
(1644236929.304477) can0 7A6#6D82B95D23FACD39
(1644236929.505114) can0 7A6#D8EBDF41D6FB473F
(1644236929.705637) can0 7A6#2E3DAE7061739530
(1644236929.906270) can0 7A6#A6F4067F0432D178
(1644236930.106630) can0 7A6#7A87B23A48ADB83C
(1644236930.307511) can0 7A6#CD6BBD345F117378
(1644236930.507989) can0 7A6#3AA88C6F4B268E5F
(1644236930.708358) can0 7A6#A8FEC203C898C05B
(1644236930.909484) can0 7A6#6502CF76A6DF1D0A
(1644236931.109656) can0 7A6#D0BF5D0DF2294963
(1644236931.310377) can0 7A6#1DED2F151ABDE111
(1644236931.311410) can0 7AE#3008280000000000
(1644236931.391199) can0 7AE#037F2F7200000000
(1644236931.510831) can0 7A6#0AF9A01FC4F0D55B
(1644236931.511831) can0 7AE#037FF91200000000
(1644236931.711192) can0 7A6#F813440385534C49
(1644236931.911930) can0 7A6#8AEE6723DCCFE841
(1644236932.112140) can0 7A6#EA85270A97A3F814
(1644236932.312716) can0 7A6#4AD2E0355708E167
(1644236932.513404) can0 7A6#BA9DC64E22BEC077
(1644236932.713850) can0 7A6#2D042927E8DA743F
(1644236932.914061) can0 7A6#84315628D3F82F26
(1644236933.114287) can0 7A6#EC0C4638FEB80863
(1644236933.314830) can0 7A6#1BA6E862B978036D
(1644236933.315871) can0 7AE#3008280000000000
(1644236933.395920) can0 7AE#037FE87200000000
(1644236933.515351) can0 7A6#5DCA7B5B564E7552
(1644236933.715649) can0 7A6#049F914C05C93E5F
(1644236933.727170) can0 7AE#037F9F1100000000
(1644236933.916142) can0 7A6#1EE7352E6AA16043
(1644236933.917179) can0 7AE#3008280000000000
(1644236933.998131) can0 7AE#037F357200000000
(1644236934.116316) can0 7A6#ABA85C69EEA6933B
(1644236934.316735) can0 7A6#5CCBA926C8958C7E
(1644236934.518174) can0 7A6#0864754D66C44A46
(1644236934.519172) can0 7AE#037F641200000000
(1644236934.717492) can0 7A6#8C86625A0178B950
(1644236934.917674) can0 7A6#EB17970F1675CA7D
(1644236935.117940) can0 7A6#DD47A212D59DBE19
(1644236935.318401) can0 7A6#AD18C312281A8348
(1644236935.518810) can0 7A6#2CA69F0167B68961
(1644236935.719114) can0 7A6#4AD843405AAAC828
(1644236935.919443) can0 7A6#5091FE20CE099A68
(1644236936.119779) can0 7A6#2DA3F84E3C9E4459
(1644236936.319852) can0 7A6#CCC2A24B4949E131
(1644236936.520056) can0 7A6#F61648462A8D1E27
(1644236936.720191) can0 7A6#9F975604FAB5D912
(1644236936.920851) can0 7A6#2F565D06BD7E8C32
(1644236937.121934) can0 7A6#64573A56DBFEB96F
(1644236937.321420) can0 7A6#AB25206EC022E47C
(1644236937.521928) can0 7A6#A394466EB389953B
(1644236937.722266) can0 7A6#26E72E43301BA948
(1644236937.922579) can0 7A6#B4014F0C12FFC552
(1644236938.123246) can0 7A6#469073469249F11E
(1644236938.323281) can0 7A6#E79C846CF4A83659
(1644236938.523722) can0 7A6#BA6374671443246E
(1644236938.724010) can0 7A6#5B5FC03A043CB827
(1644236938.924460) can0 7A6#6EEDEC16ABF0BE5B
(1644236939.124598) can0 7A6#D34552109B90E565
(1644236939.324994) can0 7A6#E88E03359F08F55B
(1644236939.525501) can0 7A6#E4D9C617DEA54B7B
(1644236939.725628) can0 7A6#C995130383711D1C
(1644236939.927905) can0 7A6#D85B250EF9EB7009
(1644236940.126066) can0 7A6#40F0A94E3DB35F64
(1644236940.326430) can0 7A6#D4EA2A79EB15CA3C
(1644236940.527419) can0 7A6#FDD54361777F7167
(1644236940.727953) can0 7A6#9F9F5F7824BD7224
(1644236940.927324) can0 7A6#A79A1A3053A1AE04
(1644236941.127310) can0 7A6#36BC3877EE2A8E76
(1644236941.327890) can0 7A6#E5EA9F231D59BD63
(1644236941.528421) can0 7A6#E2D3C44F9F4E140B
(1644236941.728596) can0 7A6#319CE1513D33850A
(1644236941.928778) can0 7A6#A48ACC329F89CE68
(1644236942.128979) can0 7A6#E923446677D01E43
(1644236942.329362) can0 7A6#3B1AB44ED1B2471B
(1644236942.529703) can0 7A6#16D9131F1FF47A66
(1644236942.530741) can0 7AE#3008280000000000
(1644236942.605619) can0 7AE#037F137200000000
(1644236942.729917) can0 7A6#AF589316E06E2722
(1644236942.930064) can0 7A6#A365980287B4B824
(1644236943.130363) can0 7A6#D95A982BE3554251
(1644236943.330631) can0 7A6#C4671809AD45C324
(1644236943.531108) can0 7A6#CF6B0C0EC23D5C6A
(1644236943.731395) can0 7A6#24C5340C6E0B6C06
(1644236943.931871) can0 7A6#E6FACE0ECC5F4F3C
(1644236944.132086) can0 7A6#C1AC1A0B1CB70706
(1644236944.332479) can0 7A6#BA8ADD32A797BA2E
(1644236944.532760) can0 7A6#3910C5699C5EA202
(1644236944.732919) can0 7A6#46E6CE396BACA63B
(1644236944.933397) can0 7A6#D991270DEA709B6C
(1644236945.133599) can0 7A6#0A367524C2B56B73
(1644236945.134618) can0 7AE#037F361200000000
(1644236945.333995) can0 7A6#6141BA2F45502973
(1644236945.534403) can0 7A6#9368B30E781ACE4E
(1644236945.734610) can0 7A6#6544A45942C14625
(1644236945.934983) can0 7A6#5889F57008AA3C5C
(1644236946.135195) can0 7A6#CA75FF4931E48D1C
(1644236946.335530) can0 7A6#EBFF7E2D8EDD1753
(1644236946.535809) can0 7A6#DE295141BA6B8B3B
(1644236946.736846) can0 7A6#501B743D02EF854D
(1644236946.936372) can0 7A6#2877F7413616434C
(1644236947.136634) can0 7A6#CE4ED509EA23124D
(1644236947.336875) can0 7A6#52CD4A5288D9B23C
(1644236947.537187) can0 7A6#91BBCC7B8CDD0F3C
(1644236947.737422) can0 7A6#2438553FD7A19B35
(1644236947.937471) can0 7A6#F789B677FEC97C4C
(1644236948.138109) can0 7A6#C212372201C02B1C
(1644236948.338515) can0 7A6#C07FE83F2354F151
(1644236948.538983) can0 7A6#4710550F54E89B4E
(1644236948.739168) can0 7A6#9B6EBF20AC54F968
(1644236948.939634) can0 7A6#96A9E273F3F7B411
(1644236949.139836) can0 7A6#B4FE3545601FE23D
(1644236949.340292) can0 7A6#24DC422E9FFEB472
(1644236949.540514) can0 7A6#EFFCF9100206946F
(1644236949.740686) can0 7A6#5A6A402E3F186E4E
(1644236949.940994) can0 7A6#05F5193D82E13770
(1644236949.952603) can0 7AE#037FF51100000000
(1644236950.141153) can0 7A6#762EB11AD343EF46
(1644236950.341498) can0 7A6#6C054A3DC8FBFB6C
(1644236950.542663) can0 7A6#5C1DA203FDC01639
(1644236950.741964) can0 7A6#54D90B298055F742
(1644236950.942326) can0 7A6#D562B26E4B63C220
(1644236951.142578) can0 7A6#7E1F740F9775E910
(1644236951.342827) can0 7A6#4D23EE3C3F9F5C4F
(1644236951.543143) can0 7A6#BAC9DA629433434C
(1644236951.743343) can0 7A6#9387F81D56389A03
(1644236951.943696) can0 7A6#40883C352931DB11
(1644236952.143881) can0 7A6#49304F15F486727A
(1644236952.344048) can0 7A6#8A50BD4F6E0C9243
(1644236952.544375) can0 7A6#9385276D794DB760
(1644236952.744565) can0 7A6#70122633EDEF671B
(1644236952.944806) can0 7A6#B865252F75074070
(1644236953.145297) can0 7A6#70D19F0B2E94D649
(1644236953.345750) can0 7A6#494B2F37DCD6E948
(1644236953.546336) can0 7A6#F78FD236A568D13A
(1644236953.746719) can0 7A6#DA9700024B69DE5F
(1644236953.947215) can0 7A6#25BEC87DAFFAB270
(1644236954.148037) can0 7A6#97CCA000A4DD3C0D
(1644236954.348281) can0 7A6#46709C01E4EF8E3D
(1644236954.548551) can0 7A6#E37C995C003A7764
(1644236954.748835) can0 7A6#7823D2097604927A
(1644236954.949072) can0 7A6#56721168B8AB0E3F
(1644236955.149365) can0 7A6#9F356D0CA0A2607D
(1644236955.349604) can0 7A6#AC32813929862A5C
(1644236955.549923) can0 7A6#0EAFF2403FB8A826
(1644236955.550920) can0 7AE#037FAF1200000000
(1644236955.750163) can0 7A6#A2D3E13C7EC11874
(1644236955.950763) can0 7A6#2DA810425B39076C
(1644236956.150647) can0 7A6#F4C858649D79B04D
(1644236956.350968) can0 7A6#89CDDD353D14881B
(1644236956.551241) can0 7A6#79509A16805DB06C
(1644236956.752410) can0 7A6#E27C595653E89A18
(1644236956.952619) can0 7A6#CCC68E4C073B2254
(1644236957.153547) can0 7A6#02E34D0963932F4D
(1644236957.174295) can0 7AE#037FE31100000000
(1644236957.352232) can0 7A6#AB185F614853EA0A
(1644236957.552458) can0 7A6#4783BE0A8E95F83D
(1644236957.752637) can0 7A6#498D616FBFA69014
(1644236957.952903) can0 7A6#049A8A389FFF7257
(1644236957.965256) can0 7AE#037F9A1100000000
(1644236958.154744) can0 7A6#77529F53A4CFF744
(1644236958.354911) can0 7A6#3FA2D3542385200D
(1644236958.554122) can0 7A6#CD5522214D51C615
(1644236958.754402) can0 7A6#623DC9337029045E
(1644236958.955544) can0 7A6#CC12DF098FE5D975
(1644236959.158605) can0 7A6#CB620B4AC0DB376E
(1644236959.354253) can0 7A6#2C5F8A435430E97F
(1644236959.554598) can0 7A6#FDEFBF09A6AF245A
(1644236959.754799) can0 7A6#D58D996CDF6C1960
(1644236959.955153) can0 7A6#F997BF72A1542839
(1644236960.155501) can0 7A6#E6A73B34FC7A0D7C
(1644236960.355727) can0 7A6#04E8570692C09A15
(1644236960.372582) can0 7AE#037FE81100000000
(1644236960.556047) can0 7A6#44CEF7064B6B1611
(1644236960.756128) can0 7A6#205693538D5B5976
(1644236960.956510) can0 7A6#0A12A72525F01D0C
(1644236960.957503) can0 7AE#037F121200000000
(1644236961.156751) can0 7A6#2D5BCC4D81644679
(1644236961.356921) can0 7A6#C9BF15516CFD9F22
(1644236961.557080) can0 7A6#A4E9660696153872
(1644236961.757189) can0 7A6#BA4E66380627303A
(1644236961.957423) can0 7A6#063F3C5086614542
(1644236961.974294) can0 7AE#037F3F1100000000
(1644236962.157630) can0 7A6#960C0A30D1A1471A
(1644236962.357840) can0 7A6#463D7D30C26B9473
(1644236962.558259) can0 7A6#26D2301A432D3D3A
(1644236962.758648) can0 7A6#681BB94DFB5FCA06
(1644236962.959002) can0 7A6#229A561A62B37840
(1644236963.159179) can0 7A6#9CB4F23F0842924E
(1644236963.359348) can0 7A6#5E2E863CA09C4A46
(1644236963.559581) can0 7A6#9A022D64A2FC7D43
(1644236963.759744) can0 7A6#EB076157BB58C037
(1644236963.960063) can0 7A6#3058D739F519087D
(1644236964.160224) can0 7A6#E048DE435DB3A307
(1644236964.360500) can0 7A6#767E4E76A908F414
(1644236964.560853) can0 7A6#C9B0432A1A68B57C
(1644236964.761074) can0 7A6#3F1E2C0783FFA962
(1644236964.961377) can0 7A6#208FE536465D6857
(1644236965.161573) can0 7A6#0961EF24B69BEF66
(1644236965.163527) can0 7AE#037F611200000000
(1644236965.361817) can0 7A6#17FFAF714F9E6C55
(1644236965.364797) can0 7AE#3008280000000000
(1644236965.437728) can0 7AE#037FAF7200000000
(1644236965.562088) can0 7A6#7907845A3DD1E00B
(1644236965.762226) can0 7A6#92CBA90FE1223D28
(1644236965.962673) can0 7A6#3831AB12B465002A
(1644236966.164013) can0 7A6#43D6B568D4E59D52
(1644236966.364185) can0 7A6#BDA79278A1043C25
(1644236966.565380) can0 7A6#7482E81857AABF5C
(1644236966.764542) can0 7A6#4401BA685F8A4970
(1644236966.964742) can0 7A6#1203801474599122
(1644236966.965771) can0 7AE#3008280000000000
(1644236967.039213) can0 7AE#037F807200000000
(1644236967.165871) can0 7A6#54A4516DF24B5E58
(1644236967.365065) can0 7A6#D10C352ACA22A063
(1644236967.565202) can0 7A6#9B54526D9ABD7854
(1644236967.766379) can0 7A6#E48A5560DB727E74
(1644236967.965564) can0 7A6#1EBD2237051A3B17
(1644236967.966536) can0 7AE#3008280000000000
(1644236968.040028) can0 7AE#037F227200000000
(1644236968.165724) can0 7A6#21D0E64B271E125C
(1644236968.366871) can0 7A6#BBB52A7E38CF963D
(1644236968.566407) can0 7A6#77BC7E3134BDAE58
(1644236968.766612) can0 7A6#76A0774909882841
(1644236968.967376) can0 7A6#16E0EB00AED1225C
(1644236968.969354) can0 7AE#3008280000000000
(1644236969.040950) can0 7AE#037FEB7200000000
(1644236969.166901) can0 7A6#BEED286B59B6A169
(1644236969.367159) can0 7A6#83B7C02E7B95BB63
(1644236969.567848) can0 7A6#FBBADD0EF739A947
(1644236969.767538) can0 7A6#D23F7B403FBC9777
(1644236969.968211) can0 7A6#57C4F237E542FB54
(1644236970.168311) can0 7A6#B315291AAB684425
(1644236970.368132) can0 7A6#D78E592D84225E44
(1644236970.568390) can0 7A6#768BE40873E3AB1A
(1644236970.768800) can0 7A6#1EE0D6185A163A69
(1644236970.769865) can0 7AE#3008280000000000
(1644236970.842487) can0 7AE#037FD67200000000
(1644236970.968769) can0 7A6#4E562A0F3C9DF94F
(1644236971.168959) can0 7A6#5F3075006F26115B
(1644236971.369271) can0 7A6#64BB0B2C1BE69F7E
(1644236971.569431) can0 7A6#A7F5A718DB778A5D
(1644236971.769540) can0 7A6#4FA34E571D961F62
(1644236971.969851) can0 7A6#E4FFB21E65833A58
(1644236972.170042) can0 7A6#CC67423EA2EDDB09
(1644236972.370305) can0 7A6#BF39DC414F1F036D
(1644236972.570613) can0 7A6#1D83976DBAF4B950
(1644236972.571630) can0 7AE#3008280000000000
(1644236972.643938) can0 7AE#037F977200000000
(1644236972.771742) can0 7A6#4659AC34F0C2122E
(1644236972.971933) can0 7A6#F9B051489D1D9F6C
(1644236973.171237) can0 7A6#D5050E03ACC67A62
(1644236973.371504) can0 7A6#4986E311AC946730
(1644236973.571818) can0 7A6#30E9D826BF11C81A
(1644236973.771991) can0 7A6#1F78134B4EC9AF3F
(1644236973.773031) can0 7AE#3008280000000000
(1644236973.844892) can0 7AE#037F137200000000
(1644236973.972698) can0 7A6#192802046DCE3D5A
(1644236973.973765) can0 7AE#3008280000000000
(1644236974.045036) can0 7AE#037F027200000000
(1644236974.172303) can0 7A6#8B66A90F79587704
(1644236974.372555) can0 7A6#DCF44E35EF21B53B
(1644236974.572788) can0 7A6#943E170384EAF64D
(1644236974.772964) can0 7A6#CA993F19E3E1655A
(1644236974.973427) can0 7A6#A1801630AE99F237
(1644236975.173410) can0 7A6#4965A0326DE8586E
(1644236975.373649) can0 7A6#5187CE41089F7C74
(1644236975.573896) can0 7A6#BC075C5B6E0A662F
(1644236975.774054) can0 7A6#C293364503610810
(1644236975.974290) can0 7A6#5ECD785DBB44880D
(1644236976.175317) can0 7A6#A07EA77C33D38660
(1644236976.375947) can0 7A6#670B0370E9048B0E
(1644236976.576873) can0 7A6#E067EE1097F4DB16
(1644236976.778191) can0 7A6#A8165329FFDF015C
(1644236976.978056) can0 7A6#E5BD8B56C23E552D
(1644236977.178921) can0 7A6#6DAE3F3670243566
(1644236977.380069) can0 7A6#3B97CC3149A38E6B
(1644236977.580760) can0 7A6#5F46EA21CFD5E334
(1644236977.781105) can0 7A6#CD8D853929E0293B
(1644236977.982538) can0 7A6#B2B7490F6F0E9C69
(1644236978.183344) can0 7A6#D8791C73FB1CEA41
(1644236978.383613) can0 7A6#DCF6F4572901EB34
(1644236978.584590) can0 7A6#03BC663699FE5033
(1644236978.597613) can0 7AE#037FBC1100000000
(1644236978.784989) can0 7A6#970B5164C54F9D7B
(1644236978.985932) can0 7A6#9C5F5943F6D8C941
(1644236979.187017) can0 7A6#809425093CDE0040
(1644236979.386529) can0 7A6#29AC5022E79F2879
(1644236979.587270) can0 7A6#26E38B4E09143F33
(1644236979.787523) can0 7A6#7E940410CEF9DE77
(1644236979.988420) can0 7A6#09F4400F64529066
(1644236979.989466) can0 7AE#037FF41200000000
(1644236980.188979) can0 7A6#9038342576A28045
(1644236980.389794) can0 7A6#D476C54CCBCF0057
(1644236980.590474) can0 7A6#BF450F3134BDAF6E
(1644236980.790663) can0 7A6#9AA5E40B8DD3946A
(1644236980.991364) can0 7A6#5D9DD9294D5D2E1B
(1644236981.193701) can0 7A6#FCE130543517F61C
(1644236981.392935) can0 7A6#487A185DD8D8252C
(1644236981.595272) can0 7A6#5E18E1514C367F13
(1644236981.793150) can0 7A6#71D7765FF6233236
(1644236981.993685) can0 7A6#11861C0F0D37D022
(1644236981.994721) can0 7AE#3008280000000000
(1644236982.071417) can0 7AE#037F1C7200000000
(1644236982.194179) can0 7A6#ECFCFB77921A4218
(1644236982.394761) can0 7A6#4A15D16215A94C1A
(1644236982.595274) can0 7A6#79BA6A1170F85C31
(1644236982.795646) can0 7A6#1FBD8B4DF84E6F21
(1644236982.797444) can0 7AE#3008280000000000
(1644236982.876292) can0 7AE#037F8B7200000000
(1644236982.996551) can0 7A6#3EF23B2928B1CC5C
(1644236983.196614) can0 7A6#5CA1FF07CF2A704E
(1644236983.397339) can0 7A6#9E534D223018C554
(1644236983.597909) can0 7A6#9AFA70255D995C53
(1644236983.798013) can0 7A6#64D5744335A05531
(1644236983.998238) can0 7A6#EA6CF13DC2724E6D
(1644236984.198445) can0 7A6#82FD834CE64E2212
(1644236984.398621) can0 7A6#F789440ACA779C29
(1644236984.598787) can0 7A6#BF27483E56A2255C
(1644236984.798968) can0 7A6#16AE1B3D30FFBE1D
(1644236984.800004) can0 7AE#3008280000000000
(1644236984.885706) can0 7AE#037F1B7200000000
(1644236985.000122) can0 7A6#4CC657122834384C
(1644236985.199334) can0 7A6#3E368F4038C3530A
(1644236985.400280) can0 7A6#BA4E7A64884B6023
(1644236985.600262) can0 7A6#4D6CA0243309E575
(1644236985.801233) can0 7A6#F843BD546C292C72
(1644236986.006493) can0 7A6#2B5854173636F97D
(1644236986.203240) can0 7A6#94DAF84E87F9531F
(1644236986.204740) can0 7A6#023E010000000000
(1644236986.216756) can0 7AE#017E000000000000
(1644236986.404164) can0 7A6#0561694C322E4671
(1644236986.417677) can0 7AE#037F611100000000
(1644236986.606116) can0 7A6#B8111974A05BDA71
(1644236986.802429) can0 7A6#90C7A2441CE78D37
(1644236987.003217) can0 7A6#D5FB2F237A349402
(1644236987.203184) can0 7A6#DE59DC2457F9B36F
(1644236987.403891) can0 7A6#6183B614D6E3202F
(1644236987.604832) can0 7A6#2171501920ABFE52
(1644236987.805034) can0 7A6#2C86460B381F6C56
(1644236988.006049) can0 7A6#50AABD70784C9E1D
(1644236988.206164) can0 7A6#6053A4228EE04C31
(1644236988.407769) can0 7A6#B00FF2271AA21E07
(1644236988.608316) can0 7A6#162CAD54FD7B924C
(1644236988.610246) can0 7AE#3008280000000000
(1644236988.687882) can0 7AE#037FAD7200000000
(1644236988.808943) can0 7A6#4DAB037D0E706A29
(1644236989.009926) can0 7A6#6AA5BE3E79035814
(1644236989.210548) can0 7A6#45A66327FE7FB70D
(1644236989.411548) can0 7A6#00FDAB334A07CD73
(1644236989.611734) can0 7A6#31AEFD7EB80EC527
(1644236989.812489) can0 7A6#EA62A765C175A043
(1644236990.013484) can0 7A6#D5F5525FBF5ED708
(1644236990.213779) can0 7A6#3BAA3446B34F2F04
(1644236990.415478) can0 7A6#16588B789C2DEB5A
(1644236990.417385) can0 7AE#3008280000000000
(1644236990.495145) can0 7AE#037F8B7200000000
(1644236990.615464) can0 7A6#8933503338C9DB11
(1644236990.816355) can0 7A6#BCD8E92DB5B9963E
(1644236991.016929) can0 7A6#70E847680D83A71E
(1644236991.217312) can0 7A6#2D06355CD03BEC0A
(1644236991.418197) can0 7A6#9B63F44FDD152704
(1644236991.619106) can0 7A6#EADD0A12B28FA124
(1644236991.819409) can0 7A6#DB91B95037890E0F
(1644236992.018978) can0 7A6#C0FF0B4E4537780F
(1644236992.219220) can0 7A6#B08C662305A66F75
(1644236992.419749) can0 7A6#43B72F1DB1891257
(1644236992.619924) can0 7A6#50AD3C6974652D1C
(1644236992.820124) can0 7A6#6998D77E3A10E44E
(1644236993.020314) can0 7A6#35DBCD5F3E8E2A5E
(1644236993.220491) can0 7A6#FA6EBB5771850226
(1644236993.421051) can0 7A6#F2DD596210C74650
(1644236993.621392) can0 7A6#0DB3ED007B11AA15
(1644236993.622410) can0 7AE#037FB31200000000
(1644236993.821902) can0 7A6#48902262CA8BD72E
(1644236994.022262) can0 7A6#31CB4054B8786A4A
(1644236994.222955) can0 7A6#D70E7F4D5ED17530
(1644236994.424202) can0 7A6#88B456557272731D
(1644236994.624264) can0 7A6#3CE79C3472926167
(1644236994.824697) can0 7A6#2402154217795605
(1644236995.025988) can0 7A6#AA1B7076E5012110
(1644236995.226094) can0 7A6#5CB0CE145AA8D619
(1644236995.427251) can0 7A6#EAA790059F67FE31
(1644236995.627467) can0 7A6#0B32E9703A55CD6E
(1644236995.628455) can0 7AE#037F321200000000
(1644236995.827547) can0 7A6#14CD2B4E75CAC06F
(1644236995.828586) can0 7AE#3008280000000000
(1644236995.903008) can0 7AE#037F2B7200000000
(1644236996.028541) can0 7A6#7565B13D49A8F92D
(1644236996.229943) can0 7A6#B358EB4D6FD46C15
(1644236996.428403) can0 7A6#BA2DFC53A5364530
(1644236996.628877) can0 7A6#7F9BB365C8E0E954
(1644236996.829045) can0 7A6#2148EF45C82BD647
(1644236997.029914) can0 7A6#926CC1035213301A
(1644236997.229581) can0 7A6#80A44012697B4051
(1644236997.430075) can0 7A6#B0E4A54A09599767
(1644236997.630476) can0 7A6#DBEDB36EECCB427F
(1644236997.830713) can0 7A6#7BEBF84E00F0C830
(1644236998.031374) can0 7A6#0345990425076945
(1644236998.044974) can0 7AE#037F451100000000
(1644236998.231338) can0 7A6#E5F1E9405FF56719
(1644236998.431739) can0 7A6#80AF3F5FCF997A46
(1644236998.632463) can0 7A6#FF5C664B8BE12850
(1644236998.832804) can0 7A6#0AEF4735132A9219
(1644236998.834565) can0 7AE#037FEF1200000000
(1644236999.033549) can0 7A6#00ACE93F7F54F972
(1644236999.233967) can0 7A6#5CD28B47B404D50D
(1644236999.434413) can0 7A6#EE2866081700881B
(1644236999.634903) can0 7A6#593B1A3E6DC4196E
(1644236999.835143) can0 7A6#DFE071707A830904
(1644237000.035572) can0 7A6#35F0EF35714D3374
(1644237000.235902) can0 7A6#CC96391EB6943048
(1644237000.436272) can0 7A6#DAC873457D7BDF68
(1644237000.636651) can0 7A6#BFEDC72FB5B62734
(1644237000.836885) can0 7A6#694722683AD9C07E
(1644237001.037018) can0 7A6#B5A6F0646D8CBB6C
(1644237001.237405) can0 7A6#60E029449A98DA25
(1644237001.438139) can0 7A6#CC812306E08F6923
(1644237001.638733) can0 7A6#6A32556CCBDE8951
(1644237001.839083) can0 7A6#6B71927374219D21
(1644237002.039744) can0 7A6#DE081C6B6C1D7C33
(1644237002.240728) can0 7A6#F37596143BDBA732
(1644237002.440482) can0 7A6#20225141E19EFC1C
(1644237002.640817) can0 7A6#52DB2F4E795D6B7F
(1644237002.840996) can0 7A6#4E63160B31BCA13E
(1644237003.041184) can0 7A6#F4E0740384530641
(1644237003.241340) can0 7A6#A209D532C077AE21
(1644237003.441526) can0 7A6#3AE836097CD24878
(1644237003.641868) can0 7A6#3DF38D0AF9D5FE38
(1644237003.841849) can0 7A6#3189702CA73AB072
(1644237004.042053) can0 7A6#33AFBF37E72F6111
(1644237004.242204) can0 7A6#14C76B5F938FE97B
(1644237004.243230) can0 7AE#3008280000000000
(1644237004.317137) can0 7AE#037F6B7200000000
(1644237004.442422) can0 7A6#81C83B37E0488F65
(1644237004.642616) can0 7A6#731F531FEBFA9023
(1644237004.842747) can0 7A6#AC271937DF90E512
(1644237005.042912) can0 7A6#5F1C2E458A303522
(1644237005.243092) can0 7A6#4BAE61465292C459
(1644237005.443278) can0 7A6#C50BDD546BD0B207
(1644237005.643585) can0 7A6#3331C17617E70C23
(1644237005.843644) can0 7A6#E42D1E078294D701
(1644237006.044888) can0 7A6#48A3AE61D80E930A
(1644237006.243982) can0 7A6#06E8DD42EAAC8314
(1644237006.260695) can0 7AE#037FE81100000000
(1644237006.444244) can0 7A6#9986412C40D0144C
(1644237006.645929) can0 7A6#667FCC0CD679CF36
(1644237006.844781) can0 7A6#39A6130598083D39
(1644237007.045087) can0 7A6#7DB47F296C55D33C
(1644237007.246852) can0 7A6#7F389E4A917BEB08
(1644237007.445633) can0 7A6#00E5BC380001DA01
(1644237007.646599) can0 7A6#72C47A6E73041058
(1644237007.846863) can0 7A6#ECFB6A251EEC9325
(1644237008.046390) can0 7A6#5295F56A4B18996A
(1644237008.246619) can0 7A6#A81CC9479D435731
(1644237008.446766) can0 7A6#9EAA5D446E28A61C
(1644237008.647168) can0 7A6#08140A39D1DB1E3B
(1644237008.649161) can0 7AE#037F141200000000
(1644237008.847083) can0 7A6#850FB33FED412840
(1644237009.047641) can0 7A6#5370F63CCEB26121
(1644237009.247741) can0 7A6#C550BB4A5958D47F
(1644237009.448097) can0 7A6#B85FE5355ED7FC76
(1644237009.650671) can0 7A6#9928E94B1FDFB142
(1644237009.848651) can0 7A6#3551CC2DD2CEFC50
(1644237010.049036) can0 7A6#B7E7EE7BB2054C57
(1644237010.249250) can0 7A6#3F24D00D36208D46
(1644237010.449572) can0 7A6#448137603F098D46
(1644237010.650142) can0 7A6#36216748B645B24E
(1644237010.850032) can0 7A6#B20D9D1E221DD26D
(1644237011.050677) can0 7A6#D431467405A39209
(1644237011.250367) can0 7A6#6E356B587C4E0F3C
(1644237011.450674) can0 7A6#A2E6E93A0CE0C81C
(1644237011.651554) can0 7A6#EA76B558ABFAF373
(1644237011.851100) can0 7A6#DDBBE75770866818
(1644237012.053252) can0 7A6#983C1C34312CDE14
(1644237012.251770) can0 7A6#3E39CA395D8DD77E
(1644237012.452084) can0 7A6#8A84B214F698AF6F
(1644237012.654910) can0 7A6#BC64D47524AD9B60
(1644237012.852463) can0 7A6#15786132F1B5A023
(1644237012.853547) can0 7AE#3008280000000000
(1644237012.930687) can0 7AE#037F617200000000
(1644237013.052775) can0 7A6#F67B9831CC5F502E
(1644237013.253356) can0 7A6#A3BBEC7A35A0683F
(1644237013.453254) can0 7A6#0280DD74E73C245B
(1644237013.473884) can0 7AE#037F801100000000
(1644237013.653582) can0 7A6#74A9F50539A1443D
(1644237013.853668) can0 7A6#9D82D62927B79224
(1644237014.054116) can0 7A6#5BBE162B71B41C1E
(1644237014.254358) can0 7A6#2C5A252EC9F38103
(1644237014.454608) can0 7A6#EE022C5ACE400F69
(1644237014.654872) can0 7A6#D5D34A20D879E132
(1644237014.854971) can0 7A6#793B035DB38F3278
(1644237015.055219) can0 7A6#48004A4B11781F11
(1644237015.255548) can0 7A6#E4BB100D86391405
(1644237015.455803) can0 7A6#6F05F70F6E40C321
(1644237015.656080) can0 7A6#7DD2C3742B6ACB05
(1644237015.856168) can0 7A6#92ED5E02924A2527
(1644237016.056480) can0 7A6#1C206C298969F733
(1644237016.057555) can0 7AE#3008280000000000
(1644237016.140769) can0 7AE#037F6C7200000000
(1644237016.256642) can0 7A6#5FAA7555BFDB5824
(1644237016.456816) can0 7A6#BE096073612A534A
(1644237016.656958) can0 7A6#A7187D7F33B35579
(1644237016.857132) can0 7A6#9ACB9707449B5329
(1644237017.057495) can0 7A6#5A6AE81DF689AE32
(1644237017.257799) can0 7A6#B64F704786C40D4C
(1644237017.458100) can0 7A6#BF7D3036A4529C21
(1644237017.658313) can0 7A6#54051D3595517B56
(1644237017.858501) can0 7A6#7CCC7D54CE402012
(1644237018.058581) can0 7A6#48E1AD4EC5CCC71F
(1644237018.259707) can0 7A6#DFB83F232C9DBE5B
(1644237018.459108) can0 7A6#4B06DC244EBE3633
(1644237018.659357) can0 7A6#9ADD817DC8D89F19
(1644237018.859555) can0 7A6#792802392DCBE07F
(1644237019.059705) can0 7A6#5B23C54095486E62
(1644237019.260121) can0 7A6#B634D833BACD3A16
(1644237019.460290) can0 7A6#5524C706743E3827
(1644237019.660656) can0 7A6#1BF88D60FC3C4406
(1644237019.661694) can0 7AE#3008280000000000
(1644237019.733002) can0 7AE#037F8D7200000000
(1644237019.860859) can0 7A6#A7F18D20B6C32568
(1644237020.061080) can0 7A6#40D8972F015C763E
(1644237020.261258) can0 7A6#AC4DD41AF6270877
(1644237020.461540) can0 7A6#8720840A6BCB0451
(1644237020.661806) can0 7A6#9A7AA418DC25A13F
(1644237020.862008) can0 7A6#001D80271747226D
(1644237021.062234) can0 7A6#AA66C15148FE2D76
(1644237021.262568) can0 7A6#DC13EA0C891F0175
(1644237021.462735) can0 7A6#749BEC51271AC631
(1644237021.662930) can0 7A6#D8DD37280F796E4F
(1644237021.863114) can0 7A6#F0F2654B51063A61
(1644237022.063330) can0 7A6#3C444F4F4B162B0C
(1644237022.263624) can0 7A6#E74EA843F2782703
(1644237022.463881) can0 7A6#05E465223C736F4A
(1644237022.477395) can0 7AE#037FE41100000000
(1644237022.664068) can0 7A6#66B75F2A20DCF302
(1644237022.864241) can0 7A6#38B0B3500EA9ED4A
(1644237023.064454) can0 7A6#D69F196B78884B00
(1644237023.264719) can0 7A6#0F05640982EDED05
(1644237023.265698) can0 7AE#037F051200000000
(1644237023.464834) can0 7A6#6FB053779725E813
(1644237023.665077) can0 7A6#EEB8F256092BF80F
(1644237023.865247) can0 7A6#734B8953EED5727E
(1644237024.065463) can0 7A6#20721A7D1DB24A25
(1644237024.265681) can0 7A6#37D4A074FC85040A
(1644237024.465897) can0 7A6#A6D14B1AAB6F8D46
(1644237024.666161) can0 7A6#24A0CA3B7EAF8342
(1644237024.866327) can0 7A6#BAE8FB1514933007
(1644237025.066535) can0 7A6#D0B5BD23F62C4B65
(1644237025.266707) can0 7A6#5FA95B13B7046667
(1644237025.466779) can0 7A6#E8A57268648DC135
(1644237025.667001) can0 7A6#F377D5314F5DD212
(1644237025.867184) can0 7A6#8469B5382B288902
(1644237026.067385) can0 7A6#5D06C05D5B09CF23
(1644237026.267549) can0 7A6#A3B0D4026C0B2467
(1644237026.467716) can0 7A6#DDF6BC291261287A
(1644237026.667884) can0 7A6#03310C7BCBAFAF00
(1644237026.680870) can0 7AE#037F313100000000
(1644237026.867967) can0 7A6#1C8C200A767C954E
(1644237026.869001) can0 7AE#3008280000000000
(1644237026.941106) can0 7AE#037F207200000000
(1644237027.068172) can0 7A6#BA85227F3CFE3A07
(1644237027.268327) can0 7A6#932EE073F159C373
(1644237027.468526) can0 7A6#39843F113A002C0E
(1644237027.668661) can0 7A6#9CC9503A5D240A4D
(1644237027.868736) can0 7A6#B8AFAF5057B24C50
(1644237028.068953) can0 7A6#71B73A5488656D74
(1644237028.269154) can0 7A6#4DDF9735D0609667
(1644237028.469184) can0 7A6#3F6AD35B36850A1E
(1644237028.669445) can0 7A6#34EE571D32E2A80D
(1644237028.869593) can0 7A6#85E2DC30B8570D56
(1644237029.069756) can0 7A6#5D0A3210E2E89C0E
(1644237029.269909) can0 7A6#1361DC7901BB0613
(1644237029.270983) can0 7AE#3008280000000000
(1644237029.343063) can0 7AE#037FDC7200000000
(1644237029.470093) can0 7A6#4EF4C075F1579923
(1644237029.670334) can0 7A6#131C2F0D5225CD70
(1644237029.671361) can0 7AE#3008280000000000
(1644237029.743401) can0 7AE#037F2F7200000000
(1644237029.870420) can0 7A6#BC0749242FA84F17
(1644237030.070526) can0 7A6#C8A1623F768D6B23
(1644237030.270764) can0 7A6#6CA68A1E5CD04233
(1644237030.470953) can0 7A6#67E72E17A52ACA2F
(1644237030.671127) can0 7A6#96D06E4104B17F51
(1644237030.871329) can0 7A6#024FD47C4E801E12
(1644237030.886815) can0 7AE#037F4F1100000000
(1644237031.071446) can0 7A6#5B63CC2173060F51
(1644237031.271609) can0 7A6#D7E58B06A8426457
(1644237031.471791) can0 7A6#4367A53816505F62
(1644237031.671927) can0 7A6#DEC76E757755FD55
(1644237031.872108) can0 7A6#4932087063AA4B26
(1644237032.072268) can0 7A6#2FAD0A2CA63C3A00
(1644237032.272412) can0 7A6#4593E834430EE725
(1644237032.472588) can0 7A6#A7F740139487A92A
(1644237032.672748) can0 7A6#34668049BB137020
(1644237032.872908) can0 7A6#E6AC761BF06DC96D
(1644237033.073054) can0 7A6#EABBBF37AE4ED95A
(1644237033.273236) can0 7A6#67FB341156624A56
(1644237033.473237) can0 7A6#0A1F1C0ECEE26328
(1644237033.474240) can0 7AE#037F1F1200000000
(1644237033.673559) can0 7A6#FB8C1406A0EF8A4F
(1644237033.873692) can0 7A6#D293E379FDDBE802
(1644237034.073845) can0 7A6#EF6FA9612DF7AF1B
(1644237034.274009) can0 7A6#70E2F753C6553568
(1644237034.474175) can0 7A6#D6391473B3499D0C
(1644237034.674407) can0 7A6#DCA5944AB4018368
(1644237034.874506) can0 7A6#2A9F9A6225D89C3A
(1644237035.074683) can0 7A6#18ACCE0E5A4CA50E
(1644237035.075712) can0 7AE#3008280000000000
(1644237035.151650) can0 7AE#037FCE7200000000
(1644237035.274845) can0 7A6#CC14D73A5D3FB743
(1644237035.475009) can0 7A6#9D5A8C34730C184E
(1644237035.675204) can0 7A6#F1C6606ED1C00C7E
(1644237035.875256) can0 7A6#2E20886ED773D709
(1644237036.075461) can0 7A6#C12ED66B19DC4726
(1644237036.275632) can0 7A6#86C2B064282A0B7D
(1644237036.475794) can0 7A6#6F3E927C90E1CC72
(1644237036.675954) can0 7A6#F70C6F256BCBA602
(1644237036.876137) can0 7A6#31D15742C9A0521F
(1644237037.076305) can0 7A6#68A78F0520410124
(1644237037.276450) can0 7A6#F797023BD9898759
(1644237037.476630) can0 7A6#E696360CCDD1162E
(1644237037.676780) can0 7A6#8CD32466C23CCB56
(1644237037.876951) can0 7A6#81D39916B772BF48
(1644237038.077121) can0 7A6#E8146811997F6825
(1644237038.277294) can0 7A6#11BF6457B4293F4C
(1644237038.278322) can0 7AE#3008280000000000
(1644237038.357956) can0 7AE#037F647200000000
(1644237038.477335) can0 7A6#F7BE1F69AE19F10B
(1644237038.677585) can0 7A6#2736571AE8858057
(1644237038.877761) can0 7A6#7FDAFD095656DF08
(1644237039.077937) can0 7A6#C0F957614009D475
(1644237039.278057) can0 7A6#6F32272F46BC0846
(1644237039.478639) can0 7A6#6933DF72DE70B92B
(1644237039.678428) can0 7A6#D69DD53860404E18
(1644237039.878640) can0 7A6#493C602E076F2D7B
(1644237040.078826) can0 7A6#29E1A037B2E3EF33
(1644237040.279507) can0 7A6#27B02E1F2079A372
(1644237040.480489) can0 7A6#8B6D770D0D47652B
(1644237040.681297) can0 7A6#ED4ABA2017419C73
(1644237040.882225) can0 7A6#D08330026F1E5437
(1644237041.082649) can0 7A6#CEB35B3CB8989813
(1644237041.283428) can0 7A6#089EBC5CDF72C013
(1644237041.285358) can0 7AE#037F9E1200000000
(1644237041.484271) can0 7A6#6CC2D75FFF5CDC45
(1644237041.685635) can0 7A6#8D8CB11F93F82E7A
(1644237041.885867) can0 7A6#E8E25C1D0C67AF29
(1644237042.086112) can0 7A6#E94E0E03A8DCB47E
(1644237042.287293) can0 7A6#4D70831F58813532
(1644237042.488016) can0 7A6#EE98BD44B6A36212
(1644237042.689144) can0 7A6#37F2EE5DC436937D
(1644237042.890281) can0 7A6#16E4B02A802E4F0C
(1644237042.892267) can0 7AE#3008280000000000
(1644237042.965737) can0 7AE#037FB07200000000
(1644237043.090046) can0 7A6#CCA5C0783FC55162
(1644237043.290727) can0 7A6#32123F40F355EF17
(1644237043.491999) can0 7A6#603EF554BD7FB64D
(1644237043.690937) can0 7A6#019D54434D89AF75
(1644237043.710737) can0 7AE#037F9D1100000000
(1644237043.891161) can0 7A6#D5C05241D1208545
(1644237044.091397) can0 7A6#BCA7032DA374AE7D
(1644237044.291849) can0 7A6#89B91D59C545C009
(1644237044.492560) can0 7A6#83E76E11F57BF538
(1644237044.693120) can0 7A6#C4A29C4F10742031
(1644237044.893950) can0 7A6#88742433AC85F96C
(1644237045.093806) can0 7A6#1DDBCF5A72C33236
(1644237045.094871) can0 7AE#3008280000000000
(1644237045.170013) can0 7AE#037FCF7200000000
(1644237045.294574) can0 7A6#5462AE6B6A4B537A
(1644237045.495191) can0 7A6#CA44686842FB6B30
(1644237045.695466) can0 7A6#20EFB50C01375746
(1644237045.895595) can0 7A6#0732FF2D36D36637
(1644237045.914487) can0 7AE#037F323100000000
(1644237046.096442) can0 7A6#8265A652D3D7BF26
(1644237046.296100) can0 7A6#7598B819B477E512
(1644237046.496262) can0 7A6#C62DAF3ED5D6AD6E
(1644237046.696560) can0 7A6#72F79B60C7CA0302
(1644237046.896660) can0 7A6#23605D6447B8EE21
(1644237047.097000) can0 7A6#98EB8847DF076111
(1644237047.297268) can0 7A6#EA2C9D1F21A5A620
(1644237047.497351) can0 7A6#A44D211B6D140C31
(1644237047.697714) can0 7A6#16219C5969F0BD6A
(1644237047.698773) can0 7AE#3008280000000000
(1644237047.774760) can0 7AE#037F9C7200000000
(1644237047.897899) can0 7A6#7E882C629F95C00C
