(1662812790.009000) can0 2E6#341E140000000000
(1662812790.009895) can0 2EC#2D462E8A321E0000
(1662812790.010891) can0 2EF#328A3346341E0400
(1662812790.011888) can0 2F2#000A0A0B0A20C504
(1662812790.012961) can0 2F4#3000FFFFFFFC0000
(1662812790.014034) can0 2F9#0000000000000000
(1662812790.014983) can0 409#24084008000A4921
(1662812790.015904) can0 309#474F4C4431303433
(1662812790.016895) can0 30B#501A6074DC03E800
(1662812790.017871) can0 128#10D6000000000000
(1662812790.018844) can0 30D#0000000140160000
(1662812790.019851) can0 30F#110D070F12020000
(1662812790.020881) can0 311#1F941F0A1F1F5011
(1662812790.021856) can0 317#5739453836313031
(1662812790.022950) can0 6FC#0000000000000000
(1662812790.027694) can0 340#0000000000000000
(1662812790.028830) can0 2FC#0000000003000046
(1662812790.037691) can0 353#338100000B820000
(1662812790.057688) can0 330#0000000200000000
(1662812790.058673) can0 541#5502000000000000
(1662812790.087678) can0 353#338100000B820000
(1662812790.117671) can0 128#10D6000000000000
(1662812790.118658) can0 330#0000000200000000
(1662812790.127701) can0 340#0000000000000000
(1662812790.128687) can0 2CA#0000000000000000
(1662812790.129679) can0 2FC#0000000003000046
(1662812790.137681) can0 353#338100000B820000
(1662812790.140886) can0 555#5C02000000000000
(1662812790.160869) can0 2D4#0000000020100800
(1662812790.177681) can0 330#0000000200000000
(1662812790.178660) can0 2E1#4000000000000000
(1662812790.179666) can0 2E3#0000000000000000
(1662812790.187674) can0 353#338100000B820000
(1662812790.209520) can0 2E6#341E140000000000
(1662812790.210484) can0 2EC#2D462E8A321E0000
(1662812790.211524) can0 2EF#328A3346341E0400
(1662812790.212496) can0 2F2#000A0A0B0A20C504
(1662812790.213511) can0 30F#110D070F12020000
(1662812790.214526) can0 311#1F941F0A1F1F5011
(1662812790.217677) can0 128#10D6000000000000
(1662812790.218582) can0 6F6#1564C221E546BF5E
(1662812790.227708) can0 340#0000000000000000
(1662812790.228862) can0 2E2#0000000000000000
(1662812790.229873) can0 2FC#0000000003000046
(1662812790.230905) can0 307#0000008000000000
(1662812790.231921) can0 313#7800000000000000
(1662812790.232963) can0 315#00000007FF000000
(1662812790.237705) can0 330#0000000200000000
(1662812790.238684) can0 353#338100000B820000
(1662812790.239674) can0 55C#0102000000000000
(1662812790.264466) can0 409#24084008000A4921
(1662812790.265373) can0 403#820400252500F100
(1662812790.266363) can0 406#0504000700000000
(1662812790.287692) can0 353#338100000B820000
(1662812790.297712) can0 330#0000000200000000
(1662812790.317684) can0 128#10D6000000000000
(1662812790.318659) can0 340#0000000000000000
(1662812790.322476) can0 360#0000000000000000
(1662812790.323471) can0 365#0000000000000000
(1662812790.328135) can0 2CA#0000000000000000
(1662812790.329128) can0 2FC#0000000003000046
(1662812790.334607) can0 501#0C026E0000000000
(1662812790.337668) can0 353#338100000B820000
(1662812790.357695) can0 330#0000000200000000
(1662812790.387666) can0 353#338100000B820000
(1662812790.410359) can0 2E6#341E140000000000
(1662812790.411362) can0 2D4#0000000020100800
(1662812790.412266) can0 2EC#2D462E8A321E0000
(1662812790.413263) can0 2EF#328A3346341E0400
(1662812790.414262) can0 2F2#000A0A0B0A20C504
(1662812790.415292) can0 30F#110D070F12020000
(1662812790.416322) can0 311#1F941F0A1F1F5011
(1662812790.417652) can0 128#10D6000000000000
(1662812790.418663) can0 330#0000000200000000
(1662812790.427691) can0 340#0000000000000000
(1662812790.428669) can0 2E1#4000000000000000
(1662812790.429660) can0 2FC#0000000003000046
(1662812790.430650) can0 2E3#0000000000000000
(1662812790.431626) can0 50C#11026E0000000000
(1662812790.437666) can0 353#338100000B820000
(1662812790.457617) can0 6F6#1564C221E546BF5E
(1662812790.477671) can0 330#0000000200000000
(1662812790.478850) can0 2E2#0000000000000000
(1662812790.479858) can0 313#7800000000000000
(1662812790.480872) can0 315#00000007FF000000
(1662812790.487680) can0 353#338100000B820000
(1662812790.510330) can0 2F4#3000FFFFFFFC0000
(1662812790.511428) can0 2F9#0000000000000000
(1662812790.512373) can0 309#474F4C4431303433
(1662812790.513381) can0 30B#501A6074DC03E800
(1662812790.514428) can0 30D#0000000140160000
(1662812790.515379) can0 409#24084008000A4921
(1662812790.517648) can0 128#10D6000000000000
(1662812790.518647) can0 340#0000000000000000
(1662812790.527688) can0 511#41026E0000040400
(1662812790.528679) can0 2CA#0000000000000000
(1662812790.529670) can0 2FC#0000000003000046
(1662812790.537665) can0 330#0000000200000000
(1662812790.538647) can0 353#338100000B820000
(1662812790.567691) can0 640#0000000000000000
(1662812790.587657) can0 353#338100000B820000
(1662812790.597700) can0 330#0000000200000000
(1662812790.609453) can0 2E6#341E140000000000
(1662812790.610445) can0 2EC#2D462E8A321E0000
(1662812790.611455) can0 2EF#328A3346341E0400
(1662812790.612433) can0 2F2#000A0A0B0A20C504
(1662812790.613469) can0 30F#110D070F12020000
(1662812790.614485) can0 311#1F941F0A1F1F5011
(1662812790.617668) can0 128#10D6000000000000
(1662812790.618649) can0 541#5502000000000000
(1662812790.627694) can0 340#0000000000000000
(1662812790.628868) can0 2FC#0000000003000046
(1662812790.637684) can0 353#338100000B820000
(1662812790.657692) can0 330#0000000200000000
(1662812790.660898) can0 2D4#0000000020100800
(1662812790.678158) can0 2E1#4000000000000000
(1662812790.679160) can0 2E3#0000000000000000
(1662812790.687679) can0 353#338100000B820000
(1662812790.697615) can0 6F6#1564C221E546BF5E
(1662812790.700914) can0 555#5C02000000000000
(1662812790.717653) can0 128#10D6000000000000
(1662812790.718641) can0 330#0000000200000000
(1662812790.719641) can0 340#0000000000000000
(1662812790.728141) can0 2CA#0000000000000000
(1662812790.729126) can0 2E2#0000000000000000
(1662812790.730141) can0 2FC#0000000003000046
(1662812790.731165) can0 307#0000008000000000
(1662812790.732181) can0 313#7800000000000000
(1662812790.733195) can0 315#00000007FF000000
(1662812790.737652) can0 353#338100000B820000
(1662812790.764996) can0 409#24084008000A4921
(1662812790.765935) can0 403#820400252500F100
(1662812790.766926) can0 406#0504000700000000
(1662812790.777664) can0 330#0000000200000000
(1662812790.787661) can0 353#338100000B820000
(1662812790.798957) can0 55C#0102000000000000
(1662812790.809702) can0 2E6#341E140000000000
(1662812790.810683) can0 2EC#2D462E8A321E0000
(1662812790.811693) can0 2EF#328A3346341E0400
(1662812790.812683) can0 2F2#000A0A0B0A20C504
(1662812790.813698) can0 30F#110D070F12020000
(1662812790.814737) can0 311#1F941F0A1F1F5011
(1662812790.817691) can0 128#10D6000000000000
(1662812790.827704) can0 340#0000000000000000
(1662812790.828849) can0 2FC#0000000003000046
(1662812790.834036) can0 360#0000000000000000
(1662812790.835026) can0 365#0000000000000000
(1662812790.837679) can0 330#0000000200000000
(1662812790.838653) can0 353#338100000B820000
(1662812790.887671) can0 353#338100000B820000
(1662812790.895271) can0 501#0C026E0000000000
(1662812790.897655) can0 330#0000000200000000
(1662812790.910881) can0 2D4#0000000020100800
(1662812790.917649) can0 128#10D6000000000000
(1662812790.927672) can0 340#0000000000000000
(1662812790.928660) can0 2CA#0000000000000000
(1662812790.929653) can0 2FC#0000000003000046
(1662812790.930634) can0 2E1#4000000000000000
(1662812790.931643) can0 2E3#0000000000000000
(1662812790.937638) can0 353#338100000B820000
(1662812790.938536) can0 6F6#1564C221E546BF5E
(1662812790.957651) can0 330#0000000200000000
(1662812790.978836) can0 2E2#0000000000000000
(1662812790.979852) can0 313#7800000000000000
(1662812790.980872) can0 315#00000007FF000000
(1662812790.987633) can0 353#338100000B820000
(1662812790.990935) can0 50C#11026E0000000000
(1662812790.991910) can0 7A6#023E020000000000
(1662812791.010039) can0 2E6#341E140000000000
(1662812791.011020) can0 2EC#2D462E8A321E0000
(1662812791.012023) can0 2EF#328A3346341E0400
(1662812791.013020) can0 2F2#000A0A0B0A20C504
(1662812791.014088) can0 2F4#3000FFFFFFFC0000
(1662812791.015160) can0 2F9#0000000000000000
(1662812791.016111) can0 409#24084008000A4921
(1662812791.017015) can0 309#474F4C4431303433
(1662812791.018000) can0 128#10D6000000000000
(1662812791.018927) can0 30B#501A6074DC03E800
(1662812791.019918) can0 330#0000000200000000
(1662812791.020915) can0 30D#0000000140160000
(1662812791.021922) can0 30F#110D070F12020000
(1662812791.022931) can0 311#1F941F0A1F1F5011
(1662812791.023921) can0 317#5739453836313031
(1662812791.025000) can0 6FC#0000000000000000
(1662812791.027672) can0 340#0000000000000000
(1662812791.028856) can0 2FC#0000000003000046
(1662812791.037671) can0 353#338100000B820000
(1662812791.077694) can0 330#0000000200000000
(1662812791.087690) can0 353#338100000B820000
(1662812791.088611) can0 511#41026E0000040400
(1662812791.117653) can0 128#10D6000000000000
(1662812791.118639) can0 340#0000000000000000
(1662812791.128156) can0 2CA#0000000000000000
(1662812791.129115) can0 2FC#0000000003000046
(1662812791.137634) can0 330#0000000200000000
(1662812791.138640) can0 353#338100000B820000
(1662812791.160868) can0 2D4#0000000020100800
(1662812791.177563) can0 6F6#157AD734E09AF21E
(1662812791.178543) can0 2E1#4000000000000000
(1662812791.179572) can0 2E3#0000000000000000
(1662812791.180558) can0 541#5502000000000000
(1662812791.187659) can0 353#338100000B820000
(1662812791.197670) can0 330#0000000200000000
(1662812791.212022) can0 2E6#341E140000000000
(1662812791.212962) can0 2EC#2D462E8A321E0000
(1662812791.213961) can0 2EF#328A3346341E0400
(1662812791.214961) can0 2F2#000A0A0B0A20C504
(1662812791.215974) can0 30F#110D070F12020000
(1662812791.216996) can0 311#1F941F0A1F1F5011
(1662812791.217958) can0 128#10D6000000000000
(1662812791.218983) can0 340#0000000000000000
(1662812791.228870) can0 2E2#0000000000000000
(1662812791.229858) can0 2FC#0000000003000046
(1662812791.230886) can0 307#0000008000000000
(1662812791.231904) can0 313#7800000000000000
(1662812791.232937) can0 315#00000007FF000000
(1662812791.237631) can0 353#338100000B820000
(1662812791.257690) can0 330#0000000200000000
(1662812791.265651) can0 409#24084008000A4921
(1662812791.266597) can0 403#820400252500F100
(1662812791.267566) can0 406#0504000700000000
(1662812791.280886) can0 555#5C02000000000000
(1662812791.287641) can0 353#338100000B820000
(1662812791.317615) can0 128#10D6000000000000
(1662812791.318601) can0 330#0000000200000000
(1662812791.319600) can0 340#0000000000000000
(1662812791.328131) can0 2CA#0000000000000000
(1662812791.329119) can0 2FC#0000000003000046
(1662812791.337622) can0 353#338100000B820000
(1662812791.345543) can0 360#0000000000000000
(1662812791.346530) can0 365#0000000000000000
(1662812791.377646) can0 330#0000000200000000
(1662812791.378947) can0 55C#0102000000000000
(1662812791.387619) can0 353#338100000B820000
(1662812791.410866) can0 2D4#0000000020100800
(1662812791.412483) can0 2E6#341E140000000000
(1662812791.413447) can0 2EC#2D462E8A321E0000
(1662812791.414445) can0 2EF#328A3346341E0400
(1662812791.415443) can0 2F2#000A0A0B0A20C504
(1662812791.416458) can0 30F#110D070F12020000
(1662812791.417473) can0 311#1F941F0A1F1F5011
(1662812791.418448) can0 128#10D6000000000000
(1662812791.419483) can0 340#0000000000000000
(1662812791.420371) can0 6F6#157AD734E09AF21E
(1662812791.428144) can0 2E1#4000000000000000
(1662812791.429133) can0 2FC#0000000003000046
(1662812791.430124) can0 2E3#0000000000000000
(1662812791.437636) can0 330#0000000200000000
(1662812791.438617) can0 353#338100000B820000
(1662812791.475965) can0 501#0C026E0000000000
(1662812791.478861) can0 2E2#0000000000000000
(1662812791.479874) can0 313#7800000000000000
(1662812791.480897) can0 315#00000007FF000000
(1662812791.487633) can0 353#338100000B820000
(1662812791.497639) can0 330#0000000200000000
(1662812791.512265) can0 2F4#3000FFFFFFFC0000
(1662812791.513332) can0 2F9#0000000000000000
(1662812791.514305) can0 309#474F4C4431303433
(1662812791.515312) can0 30B#501A6074DC03E800
(1662812791.516266) can0 409#24084008000A4921
(1662812791.517239) can0 30D#0000000140160000
(1662812791.518265) can0 128#10D6000000000000
(1662812791.519214) can0 340#0000000000000000
(1662812791.528149) can0 2CA#0000000000000000
(1662812791.529137) can0 2FC#0000000003000046
(1662812791.537633) can0 353#338100000B820000
(1662812791.557639) can0 330#0000000200000000
(1662812791.558645) can0 640#0000000000000000
(1662812791.572706) can0 50C#11026E0000000000
(1662812791.587657) can0 353#338100000B820000
(1662812791.612261) can0 2E6#341E140000000000
(1662812791.613240) can0 2EC#2D462E8A321E0000
(1662812791.614234) can0 2EF#328A3346341E0400
(1662812791.615233) can0 2F2#000A0A0B0A20C504
(1662812791.616257) can0 30F#110D070F12020000
(1662812791.617273) can0 311#1F941F0A1F1F5011
(1662812791.618246) can0 128#10D6000000000000
(1662812791.619240) can0 330#0000000200000000
(1662812791.620246) can0 340#0000000000000000
(1662812791.628870) can0 2FC#0000000003000046
(1662812791.637632) can0 353#338100000B820000
(1662812791.657570) can0 6F6#157AD734E09AF21E
(1662812791.660890) can0 2D4#0000000020100800
(1662812791.667660) can0 511#41026E0000040400
(1662812791.677636) can0 330#0000000200000000
(1662812791.678616) can0 2E1#4000000000000000
(1662812791.679622) can0 2E3#0000000000000000
(1662812791.687630) can0 353#338100000B820000
(1662812791.717616) can0 128#10D6000000000000
(1662812791.718608) can0 340#0000000000000000
(1662812791.728173) can0 2CA#0000000000000000
(1662812791.729164) can0 2E2#0000000000000000
(1662812791.730176) can0 2FC#0000000003000046
(1662812791.731198) can0 307#0000008000000000
(1662812791.732215) can0 313#7800000000000000
(1662812791.733230) can0 315#00000007FF000000
(1662812791.737652) can0 330#0000000200000000
(1662812791.738637) can0 353#338100000B820000
(1662812791.758231) can0 541#5502000000000000
(1662812791.766254) can0 409#24084008000A4921
(1662812791.767195) can0 403#820400252500F100
(1662812791.768187) can0 406#0504000700000000
(1662812791.787649) can0 353#338100000B820000
(1662812791.797662) can0 330#0000000200000000
(1662812791.811951) can0 2E6#341E140000000000
(1662812791.812929) can0 2EC#2D462E8A321E0000
(1662812791.813925) can0 2EF#328A3346341E0400
(1662812791.814924) can0 2F2#000A0A0B0A20C504
(1662812791.815939) can0 30F#110D070F12020000
(1662812791.816955) can0 311#1F941F0A1F1F5011
(1662812791.817961) can0 128#10D6000000000000
(1662812791.818929) can0 340#0000000000000000
(1662812791.828872) can0 2FC#0000000003000046
(1662812791.837619) can0 353#338100000B820000
(1662812791.840906) can0 555#5C02000000000000
(1662812791.857083) can0 360#0000000000000000
(1662812791.858057) can0 330#0000000200000000
(1662812791.859044) can0 365#0000000000000000
(1662812791.887639) can0 353#338100000B820000
(1662812791.897557) can0 6F6#157AD734E09AF21E
(1662812791.910892) can0 2D4#0000000020100800
(1662812791.917627) can0 128#10D6000000000000
(1662812791.918617) can0 330#0000000200000000
(1662812791.919615) can0 340#0000000000000000
(1662812791.928159) can0 2CA#0000000000000000
(1662812791.929162) can0 2FC#0000000003000046
(1662812791.930127) can0 2E1#4000000000000000
(1662812791.931141) can0 2E3#0000000000000000
(1662812791.937614) can0 353#338100000B820000
(1662812791.938980) can0 55C#0102000000000000
(1662812791.977625) can0 330#0000000200000000
(1662812791.978869) can0 2E2#0000000000000000
(1662812791.979885) can0 313#7800000000000000
(1662812791.980907) can0 315#00000007FF000000
(1662812791.987619) can0 353#338100000B820000
(1662812792.012018) can0 2E6#341E140000000000
(1662812792.012993) can0 2EC#2D462E8A321E0000
(1662812792.013992) can0 2EF#328A3346341E0400
(1662812792.014991) can0 2F2#000A0A0B0A20C504
(1662812792.016063) can0 2F4#3000FFFFFFFC0000
(1662812792.017046) can0 409#24084008000A4921
(1662812792.018019) can0 128#10D6000000000000
(1662812792.018998) can0 2F9#0000000000000000
(1662812792.019997) can0 340#0000000000000000
(1662812792.020899) can0 309#474F4C4431303433
(1662812792.021910) can0 30B#501A6074DC03E800
(1662812792.022965) can0 30D#0000000140160000
(1662812792.023963) can0 30F#110D070F12020000
(1662812792.024979) can0 311#1F941F0A1F1F5011
(1662812792.025971) can0 317#5739453836313031
(1662812792.027109) can0 6FC#0000000000000000
(1662812792.028873) can0 2FC#0000000003000046
(1662812792.036625) can0 501#0C026E0000000000
(1662812792.037656) can0 330#0000000200000000
(1662812792.038638) can0 353#338100000B820000
(1662812792.087616) can0 353#338100000B820000
(1662812792.097633) can0 330#0000000200000000
(1662812792.117611) can0 128#10D6000000000000
(1662812792.118603) can0 340#0000000000000000
(1662812792.128163) can0 2CA#0000000000000000
(1662812792.129145) can0 2FC#0000000003000046
(1662812792.134093) can0 50C#11026E0000000000
(1662812792.137632) can0 353#338100000B820000
(1662812792.138568) can0 6F6#1542E407C3609978
(1662812792.157628) can0 330#0000000200000000
(1662812792.160917) can0 2D4#0000000020100800
(1662812792.178147) can0 2E1#4000000000000000
(1662812792.179151) can0 2E3#0000000000000000
(1662812792.187610) can0 353#338100000B820000
(1662812792.213185) can0 2E6#341E140000000000
(1662812792.214176) can0 2EC#2D462E8A321E0000
(1662812792.215176) can0 2EF#328A3346341E0400
(1662812792.216175) can0 2F2#000A0A0B0A20C504
(1662812792.217188) can0 30F#110D070F12020000
(1662812792.218164) can0 128#10D6000000000000
(1662812792.219105) can0 311#1F941F0A1F1F5011
(1662812792.220100) can0 330#0000000200000000
(1662812792.221095) can0 340#0000000000000000
(1662812792.227643) can0 511#41026E0000040400
(1662812792.228889) can0 2E2#0000000000000000
(1662812792.229904) can0 2FC#0000000003000046
(1662812792.230926) can0 307#0000008000000000
(1662812792.231945) can0 313#7800000000000000
(1662812792.232956) can0 315#00000007FF000000
(1662812792.237613) can0 353#338100000B820000
(1662812792.266771) can0 409#24084008000A4921
(1662812792.267713) can0 403#820400252500F100
(1662812792.268702) can0 406#0504000700000000
(1662812792.277615) can0 330#0000000200000000
(1662812792.287614) can0 353#338100000B820000
(1662812792.317596) can0 128#10D6000000000000
(1662812792.318595) can0 340#0000000000000000
(1662812792.319577) can0 541#5502000000000000
(1662812792.328163) can0 2CA#0000000000000000
(1662812792.329161) can0 2FC#0000000003000046
(1662812792.337619) can0 330#0000000200000000
(1662812792.338599) can0 353#338100000B820000
(1662812792.368610) can0 360#0000000000000000
(1662812792.369599) can0 365#0000000000000000
(1662812792.377571) can0 6F6#1542E407C3609978
(1662812792.387605) can0 353#338100000B820000
(1662812792.397619) can0 330#0000000200000000
(1662812792.400914) can0 555#5C02000000000000
(1662812792.410915) can0 2D4#0000000020100800
(1662812792.413323) can0 2E6#341E140000000000
(1662812792.414303) can0 2EC#2D462E8A321E0000
(1662812792.415304) can0 2EF#328A3346341E0400
(1662812792.416317) can0 2F2#000A0A0B0A20C504
(1662812792.417331) can0 30F#110D070F12020000
(1662812792.418307) can0 128#10D6000000000000
(1662812792.419248) can0 311#1F941F0A1F1F5011
(1662812792.420249) can0 340#0000000000000000
(1662812792.428205) can0 2E1#4000000000000000
(1662812792.429165) can0 2FC#0000000003000046
(1662812792.430147) can0 2E3#0000000000000000
(1662812792.437605) can0 353#338100000B820000
(1662812792.457618) can0 330#0000000200000000
(1662812792.478882) can0 2E2#0000000000000000
(1662812792.479892) can0 313#7800000000000000
(1662812792.480917) can0 315#00000007FF000000
(1662812792.487608) can0 353#338100000B820000
(1662812792.498990) can0 55C#0102000000000000
(1662812792.513894) can0 2F4#3000FFFFFFFC0000
(1662812792.514964) can0 2F9#0000000000000000
(1662812792.515939) can0 309#474F4C4431303433
(1662812792.516945) can0 30B#501A6074DC03E800
(1662812792.517922) can0 128#10D6000000000000
(1662812792.518895) can0 30D#0000000140160000
(1662812792.519885) can0 330#0000000200000000
(1662812792.520884) can0 340#0000000000000000
(1662812792.521834) can0 409#24084008000A4921
(1662812792.528165) can0 2CA#0000000000000000
(1662812792.529165) can0 2FC#0000000003000046
(1662812792.537601) can0 353#338100000B820000
(1662812792.557636) can0 640#0000000000000000
(1662812792.562246) can0 2F5#1041426574746572
(1662812792.563280) can0 2F6#300A000000000000
(1662812792.573794) can0 2F5#21204D7573696320
(1662812792.577632) can0 330#0000000200000000
(1662812792.583059) can0 2F5#22616E64204D6F72
(1662812792.587608) can0 353#338100000B820000
(1662812792.593249) can0 2F5#2365206F66204974
(1662812792.597293) can0 501#0C026E0000000000
(1662812792.603068) can0 2F5#24202D20476F6C64
(1662812792.613120) can0 2F5#25203130342E3320
(1662812792.614171) can0 2E6#341E140000000000
(1662812792.615154) can0 2EC#2D462E8A321E0000
(1662812792.616155) can0 2EF#328A3346341E0400
(1662812792.617153) can0 2F2#000A0A0B0A20C504
(1662812792.618128) can0 128#10D6000000000000
(1662812792.619063) can0 30F#110D070F12020000
(1662812792.620065) can0 340#0000000000000000
(1662812792.621005) can0 311#1F941F0A1F1F5011
(1662812792.621933) can0 6F6#1542E407C3609978
(1662812792.623838) can0 2F5#2620202020202020
(1662812792.628884) can0 2FC#0000000003000046
(1662812792.633269) can0 2F5#2720202020202020
(1662812792.637608) can0 330#0000000200000000
(1662812792.638590) can0 353#338100000B820000
(1662812792.644081) can0 2F5#2820202020202020
(1662812792.653193) can0 2F5#2920200300000000
(1662812792.660931) can0 2D4#0000000020100800
(1662812792.678162) can0 2E1#4000000000000000
(1662812792.679161) can0 2E3#0000000000000000
(1662812792.687621) can0 353#338100000B820000
(1662812792.694095) can0 50C#11026E0000000000
(1662812792.697611) can0 330#0000000200000000
(1662812792.717587) can0 128#10D6000000000000
(1662812792.718586) can0 340#0000000000000000
(1662812792.728162) can0 2CA#0000000000000000
(1662812792.729151) can0 2E2#0000000000000000
(1662812792.730166) can0 2FC#0000000003000046
(1662812792.731201) can0 307#0000008000000000
(1662812792.732206) can0 313#7800000000000000
(1662812792.733238) can0 315#00000007FF000000
(1662812792.737600) can0 353#338100000B820000
(1662812792.757604) can0 330#0000000200000000
(1662812792.767428) can0 409#24084008000A4921
(1662812792.768371) can0 403#820400252500F100
(1662812792.769361) can0 406#0504000700000000
(1662812792.787593) can0 353#338100000B820000
(1662812792.788552) can0 511#41026E0000040400
(1662812792.813862) can0 2E6#341E140000000000
(1662812792.814831) can0 2EC#2D462E8A321E0000
(1662812792.815829) can0 2EF#328A3346341E0400
(1662812792.816828) can0 2F2#000A0A0B0A20C504
(1662812792.817803) can0 128#10D6000000000000
(1662812792.818738) can0 30F#110D070F12020000
(1662812792.819729) can0 330#0000000200000000
(1662812792.820674) can0 311#1F941F0A1F1F5011
(1662812792.821675) can0 340#0000000000000000
(1662812792.828890) can0 2FC#0000000003000046
(1662812792.837588) can0 353#338100000B820000
(1662812792.857580) can0 6F6#1542E407C3609978
(1662812792.877597) can0 330#0000000200000000
(1662812792.878574) can0 541#5502000000000000
(1662812792.880184) can0 360#0000000000000000
(1662812792.881170) can0 365#0000000000000000
(1662812792.887597) can0 353#338100000B820000
(1662812792.910909) can0 2D4#0000000020100800
(1662812792.917578) can0 128#10D6000000000000
(1662812792.918581) can0 340#0000000000000000
(1662812792.928160) can0 2CA#0000000000000000
(1662812792.929153) can0 2FC#0000000003000046
(1662812792.930133) can0 2E1#4000000000000000
(1662812792.931149) can0 2E3#0000000000000000
(1662812792.937603) can0 330#0000000200000000
(1662812792.938576) can0 353#338100000B820000
(1662812792.960920) can0 555#5C02000000000000
(1662812792.978890) can0 2E2#0000000000000000
(1662812792.979905) can0 313#7800000000000000
(1662812792.980918) can0 315#00000007FF000000
(1662812792.987594) can0 353#338100000B820000
(1662812792.991257) can0 7A6#023E020000000000
(1662812792.997597) can0 330#0000000200000000
(1662812793.013726) can0 2E6#341E140000000000
(1662812793.014708) can0 2EC#2D462E8A321E0000
(1662812793.015706) can0 2EF#328A3346341E0400
(1662812793.016723) can0 2F2#000A0A0B0A20C504
(1662812793.017696) can0 128#10D6000000000000
(1662812793.018703) can0 2F4#3000FFFFFFFC0000
(1662812793.019701) can0 340#0000000000000000
(1662812793.020708) can0 2F9#0000000000000000
(1662812793.021663) can0 409#24084008000A4921
(1662812793.022559) can0 309#474F4C4431303433
(1662812793.023567) can0 30B#501A6074DC03E800
(1662812793.024619) can0 30D#0000000140160000
(1662812793.025624) can0 30F#110D070F12020000
(1662812793.026639) can0 311#1F941F0A1F1F5011
(1662812793.027638) can0 317#5739453836313031
(1662812793.028725) can0 6FC#0000000000000000
(1662812793.029717) can0 2FC#0000000003000046
(1662812793.037591) can0 353#338100000B820000
(1662812793.057602) can0 330#0000000200000000
(1662812793.058998) can0 55C#0102000000000000
(1662812793.087592) can0 353#338100000B820000
(1662812793.097538) can0 6F6#1542E407C3609978
(1662812793.117576) can0 128#10D6000000000000
(1662812793.118565) can0 330#0000000200000000
(1662812793.119566) can0 340#0000000000000000
(1662812793.128172) can0 2CA#0000000000000000
(1662812793.129164) can0 2FC#0000000003000046
(1662812793.137590) can0 353#338100000B820000
(1662812793.157958) can0 501#0C026E0000000000
(1662812793.160916) can0 2D4#0000000020100800
(1662812793.177587) can0 330#0000000200000000
(1662812793.178573) can0 2E1#4000000000000000
(1662812793.179577) can0 2E3#0000000000000000
(1662812793.187598) can0 353#338100000B820000
(1662812793.213461) can0 2E6#341E140000000000
(1662812793.214423) can0 2EC#2D462E8A321E0000
(1662812793.215437) can0 2EF#328A3346341E0400
(1662812793.216435) can0 2F2#000A0A0B0A20C504
(1662812793.217452) can0 30F#110D070F12020000
(1662812793.218426) can0 128#10D6000000000000
(1662812793.219368) can0 311#1F941F0A1F1F5011
(1662812793.220368) can0 340#0000000000000000
(1662812793.228897) can0 2E2#0000000000000000
(1662812793.229911) can0 2FC#0000000003000046
(1662812793.230942) can0 307#0000008000000000
(1662812793.231963) can0 313#7800000000000000
(1662812793.232971) can0 315#00000007FF000000
(1662812793.237609) can0 330#0000000200000000
(1662812793.238590) can0 353#338100000B820000
(1662812793.254041) can0 50C#11026E0000000000
(1662812793.267969) can0 409#24084008000A4921
(1662812793.268907) can0 403#820400252500F100
(1662812793.269899) can0 406#0504000700000000
(1662812793.287582) can0 353#338100000B820000
(1662812793.297591) can0 330#0000000200000000
(1662812793.317569) can0 128#10D6000000000000
(1662812793.318567) can0 340#0000000000000000
(1662812793.328173) can0 2CA#0000000000000000
(1662812793.329166) can0 2FC#0000000003000046
(1662812793.337580) can0 353#338100000B820000
(1662812793.338498) can0 6F6#15A8896A4E94FC10
(1662812793.347634) can0 511#41026E0000040400
(1662812793.357609) can0 330#0000000200000000
(1662812793.387577) can0 353#338100000B820000
(1662812793.391664) can0 360#0000000000000000
(1662812793.392669) can0 365#0000000000000000
(1662812793.410925) can0 2D4#0000000020100800
(1662812793.414310) can0 2E6#341E140000000000
(1662812793.415351) can0 2EC#2D462E8A321E0000
(1662812793.416289) can0 2EF#328A3346341E0400
(1662812793.417288) can0 2F2#000A0A0B0A20C504
(1662812793.418263) can0 128#10D6000000000000
(1662812793.419198) can0 30F#110D070F12020000
(1662812793.420209) can0 330#0000000200000000
(1662812793.421132) can0 311#1F941F0A1F1F5011
(1662812793.422132) can0 340#0000000000000000
(1662812793.428171) can0 2E1#4000000000000000
(1662812793.429163) can0 2FC#0000000003000046
(1662812793.430154) can0 2E3#0000000000000000
(1662812793.437573) can0 353#338100000B820000
(1662812793.438556) can0 541#5502000000000000
(1662812793.477587) can0 330#0000000200000000
(1662812793.478881) can0 2E2#0000000000000000
(1662812793.479888) can0 313#7800000000000000
(1662812793.480903) can0 315#00000007FF000000
(1662812793.487578) can0 353#338100000B820000
(1662812793.514508) can0 2F4#3000FFFFFFFC0000
(1662812793.515571) can0 2F9#0000000000000000
(1662812793.516544) can0 309#474F4C4431303433
(1662812793.517551) can0 30B#501A6074DC03E800
(1662812793.518527) can0 128#10D6000000000000
(1662812793.519501) can0 30D#0000000140160000
(1662812793.520499) can0 340#0000000000000000
(1662812793.521485) can0 409#24084008000A4921
(1662812793.522425) can0 555#5C02000000000000
(1662812793.528172) can0 2CA#0000000000000000
(1662812793.529165) can0 2FC#0000000003000046
(1662812793.537588) can0 330#0000000200000000
(1662812793.538573) can0 353#338100000B820000
(1662812793.547604) can0 640#0000000000000000
(1662812793.577517) can0 6F6#15A8896A4E94FC10
(1662812793.587580) can0 353#338100000B820000
(1662812793.597586) can0 330#0000000200000000
(1662812793.616532) can0 2E6#341E140000000000
(1662812793.617508) can0 2EC#2D462E8A321E0000
(1662812793.618482) can0 128#10D6000000000000
(1662812793.619425) can0 2EF#328A3346341E0400
(1662812793.620424) can0 340#0000000000000000
(1662812793.621369) can0 2F2#000A0A0B0A20C504
(1662812793.622362) can0 55C#0102000000000000
(1662812793.623293) can0 30F#110D070F12020000
(1662812793.624308) can0 311#1F941F0A1F1F5011
(1662812793.628902) can0 2FC#0000000003000046
(1662812793.637572) can0 353#338100000B820000
(1662812793.657578) can0 330#0000000200000000
(1662812793.660923) can0 2D4#0000000020100800
(1662812793.678184) can0 2E1#4000000000000000
(1662812793.679174) can0 2E3#0000000000000000
(1662812793.687570) can0 353#338100000B820000
(1662812793.717559) can0 128#10D6000000000000
(1662812793.718550) can0 330#0000000200000000
(1662812793.719549) can0 340#0000000000000000
(1662812793.720526) can0 501#0C026E0000000000
(1662812793.728172) can0 2CA#0000000000000000
(1662812793.729181) can0 2E2#0000000000000000
(1662812793.730179) can0 2FC#0000000003000046
(1662812793.731202) can0 307#0000008000000000
(1662812793.732217) can0 313#7800000000000000
(1662812793.733231) can0 315#00000007FF000000
(1662812793.737568) can0 353#338100000B820000
(1662812793.768554) can0 409#24084008000A4921
(1662812793.769497) can0 403#820400252500F100
(1662812793.770488) can0 406#0504000700000000
(1662812793.777568) can0 330#0000000200000000
(1662812793.787595) can0 353#338100000B820000
(1662812793.816672) can0 2E6#341E140000000000
(1662812793.817647) can0 128#10D6000000000000
(1662812793.818572) can0 2EC#2D462E8A321E0000
(1662812793.819571) can0 340#0000000000000000
(1662812793.820514) can0 2EF#328A3346341E0400
(1662812793.821456) can0 6F6#15A8896A4E94FC10
(1662812793.822397) can0 2F2#000A0A0B0A20C504
(1662812793.823393) can0 30F#110D070F12020000
(1662812793.824410) can0 311#1F941F0A1F1F5011
(1662812793.825464) can0 50C#11026E0000000000
(1662812793.828904) can0 2FC#0000000003000046
(1662812793.837572) can0 330#0000000200000000
(1662812793.838549) can0 353#338100000B820000
(1662812793.887579) can0 353#338100000B820000
(1662812793.897595) can0 330#0000000200000000
(1662812793.903244) can0 360#0000000000000000
(1662812793.904248) can0 365#0000000000000000
(1662812793.910928) can0 2D4#0000000020100800
(1662812793.917551) can0 128#10D6000000000000
(1662812793.918548) can0 340#0000000000000000
(1662812793.919507) can0 511#41026E0000040400
(1662812793.928181) can0 2CA#0000000000000000
(1662812793.929172) can0 2FC#0000000003000046
(1662812793.930154) can0 2E1#4000000000000000
(1662812793.931169) can0 2E3#0000000000000000
(1662812793.937565) can0 353#338100000B820000
(1662812793.957577) can0 330#0000000200000000
(1662812793.978900) can0 2E2#0000000000000000
(1662812793.979904) can0 313#7800000000000000
(1662812793.980921) can0 315#00000007FF000000
(1662812793.987559) can0 353#338100000B820000
(1662812794.016642) can0 2E6#341E140000000000
(1662812794.017605) can0 128#10D6000000000000
(1662812794.018531) can0 2EC#2D462E8A321E0000
(1662812794.019521) can0 330#0000000200000000
(1662812794.020464) can0 2EF#328A3346341E0400
(1662812794.021494) can0 340#0000000000000000
(1662812794.022406) can0 2F2#000A0A0B0A20C504
(1662812794.023358) can0 409#24084008000A4921
(1662812794.024365) can0 2F4#3000FFFFFFFC0000
(1662812794.025348) can0 541#5502000000000000
(1662812794.026355) can0 2F9#0000000000000000
(1662812794.027330) can0 309#474F4C4431303433
(1662812794.028338) can0 30B#501A6074DC03E800
(1662812794.029328) can0 2FC#0000000003000046
(1662812794.030304) can0 30D#0000000140160000
(1662812794.031311) can0 30F#110D070F12020000
(1662812794.032340) can0 311#1F941F0A1F1F5011
(1662812794.033331) can0 317#5739453836313031
(1662812794.034409) can0 6FC#0000000000000000
(1662812794.037554) can0 353#338100000B820000
(1662812794.057499) can0 6F6#15A8896A4E94FC10
(1662812794.077562) can0 330#0000000200000000
(1662812794.087561) can0 353#338100000B820000
(1662812794.117572) can0 128#10D6000000000000
(1662812794.118564) can0 340#0000000000000000
(1662812794.120940) can0 555#5C02000000000000
(1662812794.128184) can0 2CA#0000000000000000
(1662812794.129173) can0 2FC#0000000003000046
(1662812794.137564) can0 330#0000000200000000
(1662812794.138546) can0 353#338100000B820000
(1662812794.160939) can0 2D4#0000000020100800
(1662812794.178201) can0 2E1#4000000000000000
(1662812794.179212) can0 2E3#0000000000000000
(1662812794.187588) can0 353#338100000B820000
(1662812794.197651) can0 330#0000000200000000
(1662812794.216919) can0 2E6#341E140000000000
(1662812794.217891) can0 128#10D6000000000000
(1662812794.218816) can0 2EC#2D462E8A321E0000
(1662812794.219816) can0 340#0000000000000000
(1662812794.220757) can0 2EF#328A3346341E0400
(1662812794.221756) can0 55C#0102000000000000
(1662812794.222694) can0 2F2#000A0A0B0A20C504
(1662812794.223753) can0 30F#110D070F12020000
(1662812794.224724) can0 311#1F941F0A1F1F5011
(1662812794.229053) can0 2E2#0000000000000000
(1662812794.230093) can0 2FC#0000000003000046
(1662812794.231099) can0 307#0000008000000000
(1662812794.232116) can0 313#7800000000000000
(1662812794.233131) can0 315#00000007FF000000
(1662812794.237571) can0 353#338100000B820000
(1662812794.257598) can0 330#0000000200000000
(1662812794.269180) can0 409#24084008000A4921
(1662812794.270109) can0 403#820400252500F100
(1662812794.271099) can0 406#0504000700000000
(1662812794.287556) can0 353#338100000B820000
(1662812794.297487) can0 6F6#15389E7DB91AE302
(1662812794.317540) can0 128#10D6000000000000
(1662812794.318530) can0 330#0000000200000000
(1662812794.319528) can0 340#0000000000000000
(1662812794.320503) can0 501#0C026E0000000000
(1662812794.328184) can0 2CA#0000000000000000
(1662812794.329177) can0 2FC#0000000003000046
(1662812794.337566) can0 353#338100000B820000
(1662812794.377575) can0 330#0000000200000000
(1662812794.387549) can0 353#338100000B820000
(1662812794.410933) can0 2D4#0000000020100800
(1662812794.414718) can0 360#0000000000000000
(1662812794.415724) can0 365#0000000000000000
(1662812794.417164) can0 2E6#341E140000000000
(1662812794.418137) can0 128#10D6000000000000
(1662812794.419066) can0 2EC#2D462E8A321E0000
(1662812794.420062) can0 340#0000000000000000
(1662812794.421005) can0 2EF#328A3346341E0400
(1662812794.422010) can0 2F2#000A0A0B0A20C504
(1662812794.423032) can0 30F#110D070F12020000
(1662812794.424047) can0 311#1F941F0A1F1F5011
(1662812794.425101) can0 50C#11026E0000000000
(1662812794.428180) can0 2E1#4000000000000000
(1662812794.429171) can0 2FC#0000000003000046
(1662812794.430162) can0 2E3#0000000000000000
(1662812794.437560) can0 330#0000000200000000
(1662812794.438538) can0 353#338100000B820000
(1662812794.478926) can0 2E2#0000000000000000
(1662812794.479925) can0 313#7800000000000000
(1662812794.480939) can0 315#00000007FF000000
(1662812794.487569) can0 353#338100000B820000
(1662812794.497574) can0 330#0000000200000000
(1662812794.516896) can0 2F4#3000FFFFFFFC0000
(1662812794.517868) can0 128#10D6000000000000
(1662812794.518877) can0 2F9#0000000000000000
(1662812794.519874) can0 340#0000000000000000
(1662812794.520776) can0 309#474F4C4431303433
(1662812794.521758) can0 409#24084008000A4921
(1662812794.522661) can0 30B#501A6074DC03E800
(1662812794.523621) can0 511#41026E0000040400
(1662812794.524592) can0 30D#0000000140160000
(1662812794.528214) can0 2CA#0000000000000000
(1662812794.529235) can0 2FC#0000000003000046
(1662812794.537585) can0 353#338100000B820000
(1662812794.538635) can0 640#0000000000000000
(1662812794.539490) can0 6F6#15389E7DB91AE302
(1662812794.557609) can0 330#0000000200000000
(1662812794.587546) can0 353#338100000B820000
(1662812794.617540) can0 128#10D6000000000000
(1662812794.618521) can0 2E6#341E140000000000
(1662812794.619511) can0 330#0000000200000000
(1662812794.620438) can0 2EC#2D462E8A321E0000
(1662812794.621462) can0 340#0000000000000000
(1662812794.622380) can0 2EF#328A3346341E0400
(1662812794.623363) can0 541#5502000000000000
(1662812794.624307) can0 2F2#000A0A0B0A20C504
(1662812794.625319) can0 30F#110D070F12020000
(1662812794.626335) can0 311#1F941F0A1F1F5011
(1662812794.628918) can0 2FC#0000000003000046
(1662812794.637543) can0 353#338100000B820000
(1662812794.660944) can0 2D4#0000000020100800
(1662812794.677555) can0 330#0000000200000000
(1662812794.678535) can0 2E1#4000000000000000
(1662812794.679552) can0 2E3#0000000000000000
(1662812794.687546) can0 353#338100000B820000
(1662812794.717535) can0 128#10D6000000000000
(1662812794.718530) can0 340#0000000000000000
(1662812794.720953) can0 555#5C02000000000000
(1662812794.728193) can0 2CA#0000000000000000
(1662812794.729184) can0 2E2#0000000000000000
(1662812794.730196) can0 2FC#0000000003000046
(1662812794.731219) can0 307#0000008000000000
(1662812794.732236) can0 313#7800000000000000
(1662812794.733252) can0 315#00000007FF000000
(1662812794.737549) can0 330#0000000200000000
(1662812794.738530) can0 353#338100000B820000
(1662812794.769742) can0 409#24084008000A4921
(1662812794.770679) can0 403#820400252500F100
(1662812794.771671) can0 406#0504000700000000
(1662812794.777501) can0 6F6#15389E7DB91AE302
(1662812794.787540) can0 353#338100000B820000
(1662812794.797549) can0 330#0000000200000000
(1662812794.817523) can0 128#10D6000000000000
(1662812794.818513) can0 2E6#341E140000000000
(1662812794.819510) can0 340#0000000000000000
(1662812794.820437) can0 2EC#2D462E8A321E0000
(1662812794.821450) can0 55C#0102000000000000
(1662812794.822384) can0 2EF#328A3346341E0400
(1662812794.823374) can0 2F2#000A0A0B0A20C504
(1662812794.824386) can0 30F#110D070F12020000
(1662812794.825407) can0 311#1F941F0A1F1F5011
(1662812794.828921) can0 2FC#0000000003000046
(1662812794.837531) can0 353#338100000B820000
(1662812794.857595) can0 330#0000000200000000
(1662812794.887557) can0 353#338100000B820000
(1662812794.910940) can0 2D4#0000000020100800
(1662812794.917532) can0 128#10D6000000000000
(1662812794.918514) can0 330#0000000200000000
(1662812794.919511) can0 340#0000000000000000
(1662812794.920478) can0 501#0C026E0000000000
(1662812794.926321) can0 360#0000000000000000
(1662812794.927316) can0 365#0000000000000000
(1662812794.928318) can0 2CA#0000000000000000
(1662812794.929291) can0 2FC#0000000003000046
(1662812794.930272) can0 2E1#4000000000000000
(1662812794.931286) can0 2E3#0000000000000000
(1662812794.937560) can0 353#338100000B820000
(1662812794.977554) can0 330#0000000200000000
(1662812794.978928) can0 2E2#0000000000000000
(1662812794.979944) can0 313#7800000000000000
(1662812794.980963) can0 315#00000007FF000000
(1662812794.987518) can0 353#338100000B820000
(1662812794.991361) can0 7A6#023E020000000000
(1662812795.017501) can0 128#10D6000000000000
(1662812795.018496) can0 340#0000000000000000
(1662812795.019487) can0 2E6#341E140000000000
(1662812795.020436) can0 409#24084008000A4921
(1662812795.021363) can0 2EC#2D462E8A321E0000
(1662812795.022275) can0 6F6#15389E7DB91AE302
(1662812795.023218) can0 2EF#328A3346341E0400
(1662812795.024218) can0 2F2#000A0A0B0A20C504
(1662812795.025289) can0 2F4#3000FFFFFFFC0000
(1662812795.026359) can0 2F9#0000000000000000
(1662812795.027334) can0 309#474F4C4431303433
(1662812795.028342) can0 30B#501A6074DC03E800
(1662812795.029334) can0 2FC#0000000003000046
(1662812795.030309) can0 30D#0000000140160000
(1662812795.031317) can0 30F#110D070F12020000
(1662812795.032332) can0 311#1F941F0A1F1F5011
(1662812795.033322) can0 317#5739453836313031
(1662812795.034370) can0 50C#11026E0000000000
(1662812795.035457) can0 6FC#0000000000000000
(1662812795.037519) can0 330#0000000200000000
(1662812795.038502) can0 353#338100000B820000
(1662812795.087565) can0 353#338100000B820000
(1662812795.097547) can0 330#0000000200000000
(1662812795.117520) can0 128#10D6000000000000
(1662812795.118518) can0 340#0000000000000000
(1662812795.127555) can0 511#41026E0000040400
(1662812795.128547) can0 2CA#0000000000000000
(1662812795.129538) can0 2FC#0000000003000046
(1662812795.137529) can0 353#338100000B820000
(1662812795.157587) can0 330#0000000200000000
(1662812795.160991) can0 2D4#0000000020100800
(1662812795.178216) can0 2E1#4000000000000000
(1662812795.179199) can0 2E3#0000000000000000
(1662812795.187557) can0 353#338100000B820000
(1662812795.217573) can0 128#10D6000000000000
(1662812795.218530) can0 330#0000000200000000
(1662812795.219522) can0 2E6#341E140000000000
(1662812795.220542) can0 340#0000000000000000
(1662812795.221497) can0 2EC#2D462E8A321E0000
(1662812795.222439) can0 541#5502000000000000
(1662812795.223377) can0 2EF#328A3346341E0400
(1662812795.224388) can0 2F2#000A0A0B0A20C504
(1662812795.225436) can0 30F#110D070F12020000
(1662812795.226415) can0 311#1F941F0A1F1F5011
(1662812795.228948) can0 2E2#0000000000000000
(1662812795.229958) can0 2FC#0000000003000046
(1662812795.230995) can0 307#0000008000000000
(1662812795.232029) can0 313#7800000000000000
(1662812795.233025) can0 315#00000007FF000000
(1662812795.237572) can0 353#338100000B820000
(1662812795.257502) can0 6F6#1505A3408427DE3E
(1662812795.270334) can0 409#24084008000A4921
(1662812795.271262) can0 403#820400252500F100
(1662812795.272252) can0 406#0504000700000000
(1662812795.277531) can0 330#0000000200000000
(1662812795.287498) can0 353#338100000B820000
(1662812795.317535) can0 128#10D6000000000000
(1662812795.318473) can0 340#0000000000000000
(1662812795.320933) can0 555#5C02000000000000
(1662812795.328172) can0 2CA#0000000000000000
(1662812795.329157) can0 2FC#0000000003000046
(1662812795.337500) can0 330#0000000200000000
(1662812795.338469) can0 353#338100000B820000
(1662812795.387488) can0 353#338100000B820000
(1662812795.397513) can0 330#0000000200000000
(1662812795.410937) can0 2D4#0000000020100800
(1662812795.417488) can0 128#10D6000000000000
(1662812795.418486) can0 340#0000000000000000
(1662812795.419474) can0 2E6#341E140000000000
(1662812795.420466) can0 55C#0102000000000000
(1662812795.421423) can0 2EC#2D462E8A321E0000
(1662812795.422392) can0 2EF#328A3346341E0400
(1662812795.423391) can0 2F2#000A0A0B0A20C504
(1662812795.424407) can0 30F#110D070F12020000
(1662812795.425428) can0 311#1F941F0A1F1F5011
(1662812795.428173) can0 2E1#4000000000000000
(1662812795.429165) can0 2FC#0000000003000046
(1662812795.430156) can0 2E3#0000000000000000
(1662812795.437516) can0 353#338100000B820000
(1662812795.438521) can0 360#0000000000000000
(1662812795.439529) can0 365#0000000000000000
(1662812795.457518) can0 330#0000000200000000
(1662812795.478926) can0 2E2#0000000000000000
(1662812795.479937) can0 313#7800000000000000
(1662812795.480962) can0 315#00000007FF000000
(1662812795.487510) can0 353#338100000B820000
(1662812795.497465) can0 6F6#1505A3408427DE3E
(1662812795.517506) can0 128#10D6000000000000
(1662812795.518489) can0 330#0000000200000000
(1662812795.519495) can0 2F4#3000FFFFFFFC0000
(1662812795.520494) can0 340#0000000000000000
(1662812795.521553) can0 2F9#0000000000000000
(1662812795.522458) can0 409#24084008000A4921
(1662812795.523358) can0 309#474F4C4431303433
(1662812795.524335) can0 501#0C026E0000000000
(1662812795.525269) can0 30B#501A6074DC03E800
(1662812795.526315) can0 30D#0000000140160000
(1662812795.527548) can0 640#0000000000000000
(1662812795.528539) can0 2CA#0000000000000000
(1662812795.529530) can0 2FC#0000000003000046
(1662812795.537521) can0 353#338100000B820000
(1662812795.577530) can0 330#0000000200000000
(1662812795.587517) can0 353#338100000B820000
(1662812795.617507) can0 128#10D6000000000000
(1662812795.618503) can0 340#0000000000000000
(1662812795.621134) can0 2E6#341E140000000000
(1662812795.622116) can0 2EC#2D462E8A321E0000
(1662812795.623115) can0 2EF#328A3346341E0400
(1662812795.624112) can0 2F2#000A0A0B0A20C504
(1662812795.625127) can0 30F#110D070F12020000
(1662812795.626144) can0 311#1F941F0A1F1F5011
(1662812795.627198) can0 50C#11026E0000000000
(1662812795.628940) can0 2FC#0000000003000046
(1662812795.637516) can0 330#0000000200000000
(1662812795.638502) can0 353#338100000B820000
(1662812795.660959) can0 2D4#0000000020100800
(1662812795.678197) can0 2E1#4000000000000000
(1662812795.679204) can0 2E3#0000000000000000
(1662812795.687549) can0 353#338100000B820000
(1662812795.697523) can0 330#0000000200000000
(1662812795.717499) can0 128#10D6000000000000
(1662812795.718498) can0 340#0000000000000000
(1662812795.727546) can0 511#41026E0000040400
(1662812795.728531) can0 2CA#0000000000000000
(1662812795.729524) can0 2E2#0000000000000000
(1662812795.730538) can0 2FC#0000000003000046
(1662812795.731563) can0 307#0000008000000000
(1662812795.732581) can0 313#7800000000000000
(1662812795.733596) can0 315#00000007FF000000
(1662812795.737507) can0 353#338100000B820000
(1662812795.738433) can0 6F6#1505A3408427DE3E
(1662812795.757530) can0 330#0000000200000000
(1662812795.770956) can0 409#24084008000A4921
(1662812795.771869) can0 403#820400252500F100
(1662812795.772857) can0 406#0504000700000000
(1662812795.787507) can0 353#338100000B820000
(1662812795.817502) can0 128#10D6000000000000
(1662812795.818486) can0 330#0000000200000000
(1662812795.819486) can0 340#0000000000000000
(1662812795.820467) can0 541#5502000000000000
(1662812795.821489) can0 2E6#341E140000000000
(1662812795.822442) can0 2EC#2D462E8A321E0000
(1662812795.823456) can0 2EF#328A3346341E0400
(1662812795.824455) can0 2F2#000A0A0B0A20C504
(1662812795.825469) can0 30F#110D070F12020000
(1662812795.826487) can0 311#1F941F0A1F1F5011
(1662812795.828950) can0 2FC#0000000003000046
(1662812795.837505) can0 353#338100000B820000
(1662812795.877546) can0 330#0000000200000000
(1662812795.887506) can0 353#338100000B820000
(1662812795.910960) can0 2D4#0000000020100800
(1662812795.917492) can0 128#10D6000000000000
(1662812795.918483) can0 340#0000000000000000
(1662812795.920970) can0 555#5C02000000000000
(1662812795.928206) can0 2CA#0000000000000000
(1662812795.929199) can0 2FC#0000000003000046
(1662812795.930177) can0 2E1#4000000000000000
(1662812795.931201) can0 2E3#0000000000000000
(1662812795.937511) can0 330#0000000200000000
(1662812795.938492) can0 353#338100000B820000
(1662812795.949369) can0 360#0000000000000000
(1662812795.950374) can0 365#0000000000000000
(1662812795.977445) can0 6F6#1505A3408427DE3E
(1662812795.978949) can0 2E2#0000000000000000
(1662812795.979956) can0 313#7800000000000000
(1662812795.980980) can0 315#00000007FF000000
(1662812795.987524) can0 353#338100000B820000
(1662812795.997515) can0 330#0000000200000000
(1662812796.017486) can0 128#10D6000000000000
(1662812796.018487) can0 340#0000000000000000
(1662812796.019477) can0 55C#0102000000000000
(1662812796.020932) can0 2E6#341E140000000000
(1662812796.021890) can0 409#24084008000A4921
(1662812796.022810) can0 2EC#2D462E8A321E0000
(1662812796.023803) can0 2EF#328A3346341E0400
(1662812796.024809) can0 2F2#000A0A0B0A20C504
(1662812796.025880) can0 2F4#3000FFFFFFFC0000
(1662812796.026951) can0 2F9#0000000000000000
(1662812796.027926) can0 309#474F4C4431303433
(1662812796.029006) can0 2FC#0000000003000046
(1662812796.029965) can0 30B#501A6074DC03E800
(1662812796.030987) can0 30D#0000000140160000
(1662812796.031996) can0 30F#110D070F12020000
(1662812796.033010) can0 311#1F941F0A1F1F5011
(1662812796.034000) can0 317#5739453836313031
(1662812796.035087) can0 6FC#0000000000000000
(1662812796.037503) can0 353#338100000B820000
(1662812796.057512) can0 330#0000000200000000
(1662812796.087503) can0 353#338100000B820000
(1662812796.101463) can0 501#0C026E0000000000
(1662812796.117487) can0 128#10D6000000000000
(1662812796.118476) can0 330#0000000200000000
(1662812796.119473) can0 340#0000000000000000
(1662812796.128211) can0 2CA#0000000000000000
(1662812796.129201) can0 2FC#0000000003000046
(1662812796.137500) can0 353#338100000B820000
(1662812796.160961) can0 2D4#0000000020100800
(1662812796.177499) can0 330#0000000200000000
(1662812796.178483) can0 2E1#4000000000000000
(1662812796.179498) can0 2E3#0000000000000000
(1662812796.187504) can0 353#338100000B820000
(1662812796.201197) can0 50C#11026E0000000000
(1662812796.217484) can0 128#10D6000000000000
(1662812796.218482) can0 340#0000000000000000
(1662812796.219392) can0 6F6#1516B0539735CD2E
(1662812796.221071) can0 2E6#341E140000000000
(1662812796.222051) can0 2EC#2D462E8A321E0000
(1662812796.223054) can0 2EF#328A3346341E0400
(1662812796.224051) can0 2F2#000A0A0B0A20C504
(1662812796.225066) can0 30F#110D070F12020000
(1662812796.226081) can0 311#1F941F0A1F1F5011
(1662812796.228953) can0 2E2#0000000000000000
(1662812796.229967) can0 2FC#0000000003000046
(1662812796.231018) can0 307#0000008000000000
(1662812796.232013) can0 313#7800000000000000
(1662812796.233033) can0 315#00000007FF000000
(1662812796.237497) can0 330#0000000200000000
(1662812796.238477) can0 353#338100000B820000
(1662812796.271515) can0 409#24084008000A4921
(1662812796.272448) can0 403#820400252500F100
(1662812796.273439) can0 406#0504000700000000
(1662812796.287491) can0 353#338100000B820000
(1662812796.297506) can0 330#0000000200000000
(1662812796.298467) can0 511#41026E0000040400
(1662812796.317503) can0 128#10D6000000000000
(1662812796.318503) can0 340#0000000000000000
(1662812796.328216) can0 2CA#0000000000000000
(1662812796.329205) can0 2FC#0000000003000046
(1662812796.337499) can0 353#338100000B820000
(1662812796.357527) can0 330#0000000200000000
(1662812796.387499) can0 353#338100000B820000
(1662812796.398275) can0 541#5502000000000000
(1662812796.410968) can0 2D4#0000000020100800
(1662812796.417477) can0 128#10D6000000000000
(1662812796.418473) can0 330#0000000200000000
(1662812796.419469) can0 340#0000000000000000
(1662812796.421088) can0 2E6#341E140000000000
(1662812796.422071) can0 2EC#2D462E8A321E0000
(1662812796.423069) can0 2EF#328A3346341E0400
(1662812796.424067) can0 2F2#000A0A0B0A20C504
(1662812796.425083) can0 30F#110D070F12020000
(1662812796.426100) can0 311#1F941F0A1F1F5011
(1662812796.428202) can0 2E1#4000000000000000
(1662812796.429219) can0 2FC#0000000003000046
(1662812796.430186) can0 2E3#0000000000000000
(1662812796.437483) can0 353#338100000B820000
(1662812796.457430) can0 6F6#1516B0539735CD2E
(1662812796.460847) can0 360#0000000000000000
(1662812796.461860) can0 365#0000000000000000
(1662812796.477493) can0 330#0000000200000000
(1662812796.478954) can0 2E2#0000000000000000
(1662812796.479970) can0 313#7800000000000000
(1662812796.481007) can0 315#00000007FF000000
(1662812796.481971) can0 555#5C02000000000000
(1662812796.487487) can0 353#338100000B820000
(1662812796.517463) can0 128#10D6000000000000
(1662812796.518456) can0 340#0000000000000000
(1662812796.521150) can0 2F4#3000FFFFFFFC0000
(1662812796.522102) can0 409#24084008000A4921
(1662812796.523108) can0 2F9#0000000000000000
(1662812796.524083) can0 309#474F4C4431303433
(1662812796.525097) can0 30B#501A6074DC03E800
(1662812796.526183) can0 30D#0000000140160000
(1662812796.527505) can0 640#0000000000000000
(1662812796.528496) can0 2CA#0000000000000000
(1662812796.529489) can0 2FC#0000000003000046
(1662812796.537503) can0 330#0000000200000000
(1662812796.538484) can0 353#338100000B820000
(1662812796.559749) can0 2F5#1041426574746572
(1662812796.560763) can0 2F6#300A000000000000
(1662812796.570408) can0 2F5#21204D7573696320
(1662812796.579052) can0 55C#0102000000000000
(1662812796.580507) can0 2F5#22616E64204D6F72
(1662812796.587468) can0 353#338100000B820000
(1662812796.590746) can0 2F5#2365206F66204974
(1662812796.597499) can0 330#0000000200000000
(1662812796.601061) can0 2F5#24202D20476F6C64
(1662812796.612844) can0 2F5#25203130342E3320
(1662812796.617471) can0 128#10D6000000000000
(1662812796.618470) can0 340#0000000000000000
(1662812796.623254) can0 2F5#2620202020202020
(1662812796.624324) can0 2E6#341E140000000000
(1662812796.625306) can0 2EC#2D462E8A321E0000
(1662812796.626307) can0 2EF#328A3346341E0400
(1662812796.627312) can0 2F2#000A0A0B0A20C504
(1662812796.628318) can0 30F#110D070F12020000
(1662812796.629317) can0 2FC#0000000003000046
(1662812796.630259) can0 311#1F941F0A1F1F5011
(1662812796.632808) can0 2F5#2720202020202020
(1662812796.637483) can0 353#338100000B820000
(1662812796.642933) can0 2F5#2820202020202020
(1662812796.653246) can0 2F5#2920200300000000
(1662812796.657513) can0 330#0000000200000000
(1662812796.660968) can0 2D4#0000000020100800
(1662812796.662147) can0 501#0C026E0000000000
(1662812796.678209) can0 2E1#4000000000000000
(1662812796.679217) can0 2E3#0000000000000000
(1662812796.687482) can0 353#338100000B820000
(1662812796.697428) can0 6F6#1516B0539735CD2E
(1662812796.717469) can0 128#10D6000000000000
(1662812796.718460) can0 330#0000000200000000
(1662812796.719459) can0 340#0000000000000000
(1662812796.728218) can0 2CA#0000000000000000
(1662812796.729210) can0 2E2#0000000000000000
(1662812796.730227) can0 2FC#0000000003000046
(1662812796.731248) can0 307#0000008000000000
(1662812796.732265) can0 313#7800000000000000
(1662812796.733279) can0 315#00000007FF000000
(1662812796.737479) can0 353#338100000B820000
(1662812796.743264) can0 50C#11026E0000000000
(1662812796.772137) can0 409#24084008000A4921
(1662812796.773053) can0 403#820400252500F100
(1662812796.774041) can0 406#0504000700000000
(1662812796.777482) can0 330#0000000200000000
(1662812796.787485) can0 353#338100000B820000
(1662812796.817467) can0 128#10D6000000000000
(1662812796.818456) can0 340#0000000000000000
(1662812796.822950) can0 2E6#341E140000000000
(1662812796.823916) can0 2EC#2D462E8A321E0000
(1662812796.824913) can0 2EF#328A3346341E0400
(1662812796.825912) can0 2F2#000A0A0B0A20C504
(1662812796.826926) can0 30F#110D070F12020000
(1662812796.827941) can0 311#1F941F0A1F1F5011
(1662812796.829029) can0 2FC#0000000003000046
(1662812796.837486) can0 330#0000000200000000
(1662812796.838469) can0 353#338100000B820000
(1662812796.839426) can0 511#41026E0000040400
(1662812796.887485) can0 353#338100000B820000
(1662812796.897482) can0 330#0000000200000000
(1662812796.910982) can0 2D4#0000000020100800
(1662812796.917464) can0 128#10D6000000000000
(1662812796.918460) can0 340#0000000000000000
(1662812796.928223) can0 2CA#0000000000000000
(1662812796.929211) can0 2FC#0000000003000046
(1662812796.930198) can0 2E1#4000000000000000
(1662812796.931212) can0 2E3#0000000000000000
(1662812796.937469) can0 353#338100000B820000
(1662812796.938450) can0 541#5502000000000000
(1662812796.939361) can0 6F6#1516B0539735CD2E
(1662812796.957483) can0 330#0000000200000000
(1662812796.972428) can0 360#0000000000000000
(1662812796.973432) can0 365#0000000000000000
(1662812796.978968) can0 2E2#0000000000000000
(1662812796.979979) can0 313#7800000000000000
(1662812796.981000) can0 315#00000007FF000000
(1662812796.987470) can0 353#338100000B820000
(1662812796.991502) can0 7A6#023E020000000000
(1662812797.017468) can0 128#10D6000000000000
(1662812797.018452) can0 330#0000000200000000
(1662812797.019452) can0 340#0000000000000000
(1662812797.020986) can0 555#5C02000000000000
(1662812797.022592) can0 409#24084008000A4921
(1662812797.023706) can0 2E6#341E140000000000
(1662812797.024690) can0 2EC#2D462E8A321E0000
(1662812797.025722) can0 2EF#328A3346341E0400
(1662812797.026681) can0 2F2#000A0A0B0A20C504
(1662812797.027773) can0 2F4#3000FFFFFFFC0000
(1662812797.028843) can0 2F9#0000000000000000
(1662812797.029835) can0 2FC#0000000003000046
(1662812797.030738) can0 309#474F4C4431303433
(1662812797.031752) can0 30B#501A6074DC03E800
(1662812797.032808) can0 30D#0000000140160000
(1662812797.033819) can0 30F#110D070F12020000
(1662812797.034830) can0 311#1F941F0A1F1F5011
(1662812797.035820) can0 317#5739453836313031
(1662812797.036957) can0 6FC#0000000000000000
(1662812797.037918) can0 353#338100000B820000
(1662812797.077482) can0 330#0000000200000000
(1662812797.087494) can0 353#338100000B820000
(1662812797.117477) can0 128#10D6000000000000
(1662812797.118455) can0 340#0000000000000000
(1662812797.119445) can0 55C#0102000000000000
(1662812797.128219) can0 2CA#0000000000000000
(1662812797.129207) can0 2FC#0000000003000046
(1662812797.137472) can0 330#0000000200000000
(1662812797.138453) can0 353#338100000B820000
(1662812797.160975) can0 2D4#0000000020100800
(1662812797.177410) can0 6F6#15E345A662C038D8
(1662812797.178389) can0 2E1#4000000000000000
(1662812797.179395) can0 2E3#0000000000000000
(1662812797.187468) can0 353#338100000B820000
(1662812797.197498) can0 330#0000000200000000
(1662812797.202789) can0 501#0C026E0000000000
(1662812797.217452) can0 128#10D6000000000000
(1662812797.218454) can0 340#0000000000000000
(1662812797.224691) can0 2E6#341E140000000000
(1662812797.225676) can0 2EC#2D462E8A321E0000
(1662812797.226675) can0 2EF#328A3346341E0400
(1662812797.227676) can0 2F2#000A0A0B0A20C504
(1662812797.228689) can0 30F#110D070F12020000
(1662812797.229681) can0 2E2#0000000000000000
(1662812797.230624) can0 311#1F941F0A1F1F5011
(1662812797.231621) can0 2FC#0000000003000046
(1662812797.232648) can0 307#0000008000000000
(1662812797.233663) can0 313#7800000000000000
(1662812797.234681) can0 315#00000007FF000000
(1662812797.237462) can0 353#338100000B820000
(1662812797.257480) can0 330#0000000200000000
(1662812797.272692) can0 409#24084008000A4921
(1662812797.273631) can0 403#820400252500F100
(1662812797.274621) can0 406#0504000700000000
(1662812797.285344) can0 50C#11026E0000000000
(1662812797.287503) can0 353#338100000B820000
(1662812797.317456) can0 128#10D6000000000000
(1662812797.318443) can0 330#0000000200000000
(1662812797.319440) can0 340#0000000000000000
(1662812797.328224) can0 2CA#0000000000000000
(1662812797.329216) can0 2FC#0000000003000046
(1662812797.337466) can0 353#338100000B820000
(1662812797.377481) can0 330#0000000200000000
(1662812797.378429) can0 511#41026E0000040400
(1662812797.387463) can0 353#338100000B820000
(1662812797.410985) can0 2D4#0000000020100800
(1662812797.417463) can0 128#10D6000000000000
(1662812797.418468) can0 340#0000000000000000
(1662812797.425407) can0 2E6#341E140000000000
(1662812797.426387) can0 2EC#2D462E8A321E0000
(1662812797.427389) can0 2EF#328A3346341E0400
(1662812797.428368) can0 2E1#4000000000000000
(1662812797.429311) can0 2F2#000A0A0B0A20C504
(1662812797.430302) can0 2E3#0000000000000000
(1662812797.431294) can0 2FC#0000000003000046
(1662812797.432236) can0 30F#110D070F12020000
(1662812797.433155) can0 6F6#15E345A662C038D8
(1662812797.434095) can0 311#1F941F0A1F1F5011
(1662812797.437470) can0 330#0000000200000000
(1662812797.438452) can0 353#338100000B820000
(1662812797.478291) can0 541#5502000000000000
(1662812797.479277) can0 2E2#0000000000000000
(1662812797.480286) can0 313#7800000000000000
(1662812797.481299) can0 315#00000007FF000000
(1662812797.483905) can0 360#0000000000000000
(1662812797.484910) can0 365#0000000000000000
(1662812797.487453) can0 353#338100000B820000
(1662812797.497470) can0 330#0000000200000000
(1662812797.517446) can0 128#10D6000000000000
(1662812797.518442) can0 340#0000000000000000
(1662812797.519445) can0 640#0000000000000000
(1662812797.523081) can0 409#24084008000A4921
(1662812797.525687) can0 2F4#3000FFFFFFFC0000
(1662812797.526757) can0 2F9#0000000000000000
(1662812797.527732) can0 309#474F4C4431303433
(1662812797.528724) can0 2CA#0000000000000000
(1662812797.529716) can0 2FC#0000000003000046
(1662812797.530650) can0 30B#501A6074DC03E800
(1662812797.531701) can0 30D#0000000140160000
(1662812797.537449) can0 353#338100000B820000
(1662812797.557465) can0 330#0000000200000000
(1662812797.560990) can0 555#5C02000000000000
(1662812797.587456) can0 353#338100000B820000
(1662812797.617463) can0 128#10D6000000000000
(1662812797.618451) can0 330#0000000200000000
(1662812797.619426) can0 340#0000000000000000
(1662812797.625505) can0 2E6#341E140000000000
(1662812797.626470) can0 2EC#2D462E8A321E0000
(1662812797.627536) can0 2EF#328A3346341E0400
(1662812797.628485) can0 2F2#000A0A0B0A20C504
(1662812797.629517) can0 2FC#0000000003000046
(1662812797.630468) can0 30F#110D070F12020000
(1662812797.631468) can0 311#1F941F0A1F1F5011
(1662812797.637498) can0 353#338100000B820000
(1662812797.657441) can0 6F6#15E345A662C038D8
(1662812797.659112) can0 55C#0102000000000000
(1662812797.661013) can0 2D4#0000000020100800
(1662812797.677517) can0 330#0000000200000000
(1662812797.678462) can0 2E1#4000000000000000
(1662812797.679463) can0 2E3#0000000000000000
(1662812797.687555) can0 353#338100000B820000
(1662812797.717464) can0 128#10D6000000000000
(1662812797.718483) can0 340#0000000000000000
(1662812797.728210) can0 2CA#0000000000000000
(1662812797.729202) can0 2E2#0000000000000000
(1662812797.730237) can0 2FC#0000000003000046
(1662812797.731240) can0 307#0000008000000000
(1662812797.732255) can0 313#7800000000000000
(1662812797.733271) can0 315#00000007FF000000
(1662812797.737438) can0 330#0000000200000000
(1662812797.738421) can0 353#338100000B820000
(1662812797.743462) can0 501#0C026E0000000000
(1662812797.773272) can0 409#24084008000A4921
(1662812797.774210) can0 403#820400252500F100
(1662812797.775200) can0 406#0504000700000000
(1662812797.787433) can0 353#338100000B820000
(1662812797.797440) can0 330#0000000200000000
(1662812797.817422) can0 128#10D6000000000000
(1662812797.818420) can0 340#0000000000000000
(1662812797.826629) can0 2E6#341E140000000000
(1662812797.827610) can0 2EC#2D462E8A321E0000
(1662812797.828608) can0 2EF#328A3346341E0400
(1662812797.829599) can0 2FC#0000000003000046
(1662812797.830542) can0 2F2#000A0A0B0A20C504
(1662812797.831560) can0 30F#110D070F12020000
(1662812797.832572) can0 311#1F941F0A1F1F5011
(1662812797.833637) can0 50C#11026E0000000000
(1662812797.837443) can0 353#338100000B820000
(1662812797.857507) can0 330#0000000200000000
(1662812797.887455) can0 353#338100000B820000
(1662812797.907387) can0 6F6#15E345A662C038D8
(1662812797.910993) can0 2D4#0000000020100800
(1662812797.917436) can0 128#10D6000000000000
(1662812797.918439) can0 330#0000000200000000
(1662812797.919429) can0 340#0000000000000000
(1662812797.927476) can0 511#41026E0000040400
(1662812797.928465) can0 2CA#0000000000000000
(1662812797.929456) can0 2FC#0000000003000046
(1662812797.930439) can0 2E1#4000000000000000
(1662812797.931472) can0 2E3#0000000000000000
(1662812797.937440) can0 353#338100000B820000
(1662812797.977452) can0 330#0000000200000000
(1662812797.978981) can0 2E2#0000000000000000
(1662812797.979987) can0 313#7800000000000000
(1662812797.981002) can0 315#00000007FF000000
(1662812797.987453) can0 353#338100000B820000
(1662812797.995503) can0 360#0000000000000000
(1662812797.996509) can0 365#0000000000000000
(1662812798.017445) can0 128#10D6000000000000
(1662812798.018441) can0 340#0000000000000000
(1662812798.019415) can0 541#5502000000000000
(1662812798.023729) can0 409#24084008000A4921
(1662812798.026039) can0 2E6#341E140000000000
(1662812798.027030) can0 2EC#2D462E8A321E0000
(1662812798.028058) can0 2EF#328A3346341E0400
(1662812798.029021) can0 2FC#0000000003000046
(1662812798.029964) can0 2F2#000A0A0B0A20C504
(1662812798.031035) can0 2F4#3000FFFFFFFC0000
(1662812798.032106) can0 2F9#0000000000000000
(1662812798.033097) can0 309#474F4C4431303433
(1662812798.034105) can0 30B#501A6074DC03E800
(1662812798.035154) can0 30D#0000000140160000
(1662812798.036158) can0 30F#110D070F12020000
(1662812798.037174) can0 311#1F941F0A1F1F5011
(1662812798.038165) can0 330#0000000200000000
(1662812798.039077) can0 317#5739453836313031
(1662812798.040059) can0 353#338100000B820000
(1662812798.041066) can0 6FC#0000000000000000
(1662812798.087453) can0 353#338100000B820000
(1662812798.097449) can0 330#0000000200000000
(1662812798.100999) can0 555#5C02000000000000
(1662812798.117423) can0 128#10D6000000000000
(1662812798.118421) can0 340#0000000000000000
(1662812798.128236) can0 2CA#0000000000000000
(1662812798.129231) can0 2FC#0000000003000046
(1662812798.137439) can0 353#338100000B820000
(1662812798.147372) can0 6F6#15416A89959FF71B
(1662812798.157449) can0 330#0000000200000000
(1662812798.160990) can0 2D4#0000000020100800
(1662812798.178243) can0 2E1#4000000000000000
(1662812798.179242) can0 2E3#0000000000000000
(1662812798.187457) can0 353#338100000B820000
(1662812798.199103) can0 55C#0102000000000000
(1662812798.217428) can0 128#10D6000000000000
(1662812798.218414) can0 330#0000000200000000
(1662812798.219412) can0 340#0000000000000000
(1662812798.227425) can0 2E6#341E140000000000
(1662812798.228405) can0 2EC#2D462E8A321E0000
(1662812798.229395) can0 2E2#0000000000000000
(1662812798.230340) can0 2EF#328A3346341E0400
(1662812798.231329) can0 2FC#0000000003000046
(1662812798.232270) can0 2F2#000A0A0B0A20C504
(1662812798.233260) can0 307#0000008000000000
(1662812798.234196) can0 30F#110D070F12020000
(1662812798.235179) can0 313#7800000000000000
(1662812798.236123) can0 311#1F941F0A1F1F5011
(1662812798.237117) can0 315#00000007FF000000
(1662812798.238098) can0 353#338100000B820000
(1662812798.273873) can0 409#24084008000A4921
(1662812798.274812) can0 403#820400252500F100
(1662812798.275802) can0 406#0504000700000000
(1662812798.277442) can0 330#0000000200000000
(1662812798.284208) can0 501#0C026E0000000000
(1662812798.287444) can0 353#338100000B820000
(1662812798.317417) can0 128#10D6000000000000
(1662812798.318416) can0 340#0000000000000000
(1662812798.328249) can0 2CA#0000000000000000
(1662812798.329230) can0 2FC#0000000003000046
(1662812798.337437) can0 330#0000000200000000
(1662812798.338421) can0 353#338100000B820000
(1662812798.367686) can0 50C#11026E0000000000
(1662812798.387430) can0 353#338100000B820000
(1662812798.388339) can0 6F6#15416A89959FF71B
(1662812798.397442) can0 330#0000000200000000
(1662812798.411002) can0 2D4#0000000020100800
(1662812798.417416) can0 128#10D6000000000000
(1662812798.418414) can0 340#0000000000000000
(1662812798.427179) can0 2E6#341E140000000000
(1662812798.428133) can0 2EC#2D462E8A321E0000
(1662812798.429115) can0 2E1#4000000000000000
(1662812798.430059) can0 2EF#328A3346341E0400
(1662812798.431050) can0 2E3#0000000000000000
(1662812798.432010) can0 2F2#000A0A0B0A20C504
(1662812798.432989) can0 2FC#0000000003000046
(1662812798.433949) can0 30F#110D070F12020000
(1662812798.434939) can0 311#1F941F0A1F1F5011
(1662812798.437453) can0 353#338100000B820000
(1662812798.457468) can0 330#0000000200000000
(1662812798.467474) can0 511#41026E0000040400
(1662812798.479021) can0 2E2#0000000000000000
(1662812798.480031) can0 313#7800000000000000
(1662812798.481057) can0 315#00000007FF000000
(1662812798.487443) can0 353#338100000B820000
(1662812798.506995) can0 360#0000000000000000
(1662812798.508013) can0 640#0000000000000000
(1662812798.508989) can0 365#0000000000000000
(1662812798.517462) can0 128#10D6000000000000
(1662812798.518455) can0 330#0000000200000000
(1662812798.519458) can0 340#0000000000000000
(1662812798.524324) can0 409#24084008000A4921
(1662812798.527274) can0 2F4#3000FFFFFFFC0000
(1662812798.528266) can0 2CA#0000000000000000
(1662812798.529273) can0 2F9#0000000000000000
(1662812798.530264) can0 2FC#0000000003000046
(1662812798.531167) can0 309#474F4C4431303433
(1662812798.532181) can0 30B#501A6074DC03E800
(1662812798.533225) can0 30D#0000000140160000
(1662812798.537424) can0 353#338100000B820000
(1662812798.558309) can0 541#5502000000000000
(1662812798.577436) can0 330#0000000200000000
(1662812798.587425) can0 353#338100000B820000
(1662812798.617416) can0 128#10D6000000000000
(1662812798.618414) can0 340#0000000000000000
(1662812798.627388) can0 6F6#15416A89959FF71B
(1662812798.628986) can0 2FC#0000000003000046
(1662812798.630561) can0 2E6#341E140000000000
(1662812798.631549) can0 2EC#2D462E8A321E0000
(1662812798.632539) can0 2EF#328A3346341E0400
(1662812798.633554) can0 2F2#000A0A0B0A20C504
(1662812798.634600) can0 30F#110D070F12020000
(1662812798.635585) can0 311#1F941F0A1F1F5011
(1662812798.637432) can0 330#0000000200000000
(1662812798.638413) can0 353#338100000B820000
(1662812798.641006) can0 555#5C02000000000000
(1662812798.661007) can0 2D4#0000000020100800
(1662812798.678235) can0 2E1#4000000000000000
(1662812798.679247) can0 2E3#0000000000000000
(1662812798.687420) can0 353#338100000B820000
(1662812798.697431) can0 330#0000000200000000
(1662812798.717412) can0 128#10D6000000000000
(1662812798.718413) can0 340#0000000000000000
(1662812798.728243) can0 2CA#0000000000000000
(1662812798.729234) can0 2E2#0000000000000000
(1662812798.730252) can0 2FC#0000000003000046
(1662812798.731273) can0 307#0000008000000000
(1662812798.732288) can0 313#7800000000000000
(1662812798.733304) can0 315#00000007FF000000
(1662812798.737440) can0 353#338100000B820000
(1662812798.739126) can0 55C#0102000000000000
(1662812798.757433) can0 330#0000000200000000
(1662812798.774472) can0 409#24084008000A4921
(1662812798.775406) can0 403#820400252500F100
(1662812798.776399) can0 406#0504000700000000
(1662812798.787417) can0 353#338100000B820000
(1662812798.817409) can0 128#10D6000000000000
(1662812798.818395) can0 330#0000000200000000
(1662812798.819392) can0 340#0000000000000000
(1662812798.824790) can0 501#0C026E0000000000
(1662812798.828994) can0 2FC#0000000003000046
(1662812798.830329) can0 2E6#341E140000000000
(1662812798.831311) can0 2EC#2D462E8A321E0000
(1662812798.832327) can0 2EF#328A3346341E0400
(1662812798.833325) can0 2F2#000A0A0B0A20C504
(1662812798.834342) can0 30F#110D070F12020000
(1662812798.835358) can0 311#1F941F0A1F1F5011
(1662812798.837410) can0 353#338100000B820000
(1662812798.867359) can0 6F6#15416A89959FF71B
(1662812798.877425) can0 330#0000000200000000
(1662812798.887419) can0 353#338100000B820000
(1662812798.910959) can0 50C#11026E0000000000
(1662812798.911950) can0 2D4#0000000020100800
(1662812798.917429) can0 128#10D6000000000000
(1662812798.918403) can0 340#0000000000000000
(1662812798.928243) can0 2CA#0000000000000000
(1662812798.929242) can0 2FC#0000000003000046
(1662812798.930218) can0 2E1#4000000000000000
(1662812798.931232) can0 2E3#0000000000000000
(1662812798.937416) can0 330#0000000200000000
(1662812798.938421) can0 353#338100000B820000
(1662812798.979006) can0 2E2#0000000000000000
(1662812798.980005) can0 313#7800000000000000
(1662812798.981019) can0 315#00000007FF000000
(1662812798.987410) can0 353#338100000B820000
(1662812798.991735) can0 7A6#023E020000000000
(1662812798.997417) can0 330#0000000200000000
(1662812799.007442) can0 511#41026E0000040400
(1662812799.017405) can0 128#10D6000000000000
(1662812799.018400) can0 340#0000000000000000
(1662812799.019406) can0 360#0000000000000000
(1662812799.020413) can0 365#0000000000000000
(1662812799.024872) can0 409#24084008000A4921
(1662812799.029001) can0 2FC#0000000003000046
(1662812799.030652) can0 2E6#341E140000000000
(1662812799.031629) can0 2EC#2D462E8A321E0000
(1662812799.032624) can0 2EF#328A3346341E0400
(1662812799.033622) can0 2F2#000A0A0B0A20C504
(1662812799.034693) can0 2F4#3000FFFFFFFC0000
(1662812799.035763) can0 2F9#0000000000000000
(1662812799.036739) can0 309#474F4C4431303433
(1662812799.037722) can0 353#338100000B820000
(1662812799.038658) can0 30B#501A6074DC03E800
(1662812799.039704) can0 30D#0000000140160000
(1662812799.040711) can0 30F#110D070F12020000
(1662812799.041730) can0 311#1F941F0A1F1F5011
(1662812799.042717) can0 317#5739453836313031
(1662812799.043796) can0 6FC#0000000000000000
(1662812799.057418) can0 330#0000000200000000
(1662812799.087415) can0 353#338100000B820000
(1662812799.098305) can0 541#5502000000000000
(1662812799.107346) can0 6F6#15416A89959FF71B
(1662812799.117397) can0 128#10D6000000000000
(1662812799.118388) can0 330#0000000200000000
(1662812799.119439) can0 340#0000000000000000
(1662812799.128252) can0 2CA#0000000000000000
(1662812799.129259) can0 2FC#0000000003000046
(1662812799.137456) can0 353#338100000B820000
(1662812799.161034) can0 2D4#0000000020100800
(1662812799.177464) can0 330#0000000200000000
(1662812799.178444) can0 2E1#4000000000000000
(1662812799.179448) can0 2E3#0000000000000000
(1662812799.181039) can0 555#5C02000000000000
(1662812799.187433) can0 353#338100000B820000
(1662812799.217415) can0 128#10D6000000000000
(1662812799.218412) can0 340#0000000000000000
(1662812799.229021) can0 2E2#0000000000000000
(1662812799.230035) can0 2FC#0000000003000046
(1662812799.231027) can0 2E6#341E140000000000
(1662812799.232026) can0 307#0000008000000000
(1662812799.232948) can0 2EC#2D462E8A321E0000
(1662812799.233928) can0 313#7800000000000000
(1662812799.234872) can0 2EF#328A3346341E0400
(1662812799.235845) can0 315#00000007FF000000
(1662812799.236786) can0 2F2#000A0A0B0A20C504
(1662812799.237776) can0 330#0000000200000000
(1662812799.238724) can0 30F#110D070F12020000
(1662812799.239706) can0 353#338100000B820000
(1662812799.240638) can0 311#1F941F0A1F1F5011
(1662812799.275057) can0 409#24084008000A4921
(1662812799.275991) can0 403#820400252500F100
(1662812799.276982) can0 406#0504000700000000
(1662812799.279110) can0 55C#0102000000000000
(1662812799.287427) can0 353#338100000B820000
(1662812799.297418) can0 330#0000000200000000
(1662812799.317393) can0 128#10D6000000000000
(1662812799.318390) can0 340#0000000000000000
(1662812799.328250) can0 2CA#0000000000000000
(1662812799.329287) can0 2FC#0000000003000046
(1662812799.337413) can0 353#338100000B820000
(1662812799.347342) can0 6F6#15D97F9C58FB02E2
(1662812799.357418) can0 330#0000000200000000
(1662812799.365423) can0 501#0C026E0000000000
(1662812799.387413) can0 353#338100000B820000
(1662812799.411014) can0 2D4#0000000020100800
(1662812799.417384) can0 128#10D6000000000000
(1662812799.418376) can0 330#0000000200000000
(1662812799.419374) can0 340#0000000000000000
(1662812799.428250) can0 2E1#4000000000000000
(1662812799.429243) can0 2FC#0000000003000046
(1662812799.430229) can0 2E3#0000000000000000
(1662812799.432281) can0 2E6#341E140000000000
(1662812799.433260) can0 2EC#2D462E8A321E0000
(1662812799.434258) can0 2EF#328A3346341E0400
(1662812799.435265) can0 2F2#000A0A0B0A20C504
(1662812799.436282) can0 30F#110D070F12020000
(1662812799.437295) can0 311#1F941F0A1F1F5011
(1662812799.438278) can0 353#338100000B820000
(1662812799.452142) can0 50C#11026E0000000000
(1662812799.477410) can0 330#0000000200000000
(1662812799.479012) can0 2E2#0000000000000000
(1662812799.480056) can0 313#7800000000000000
(1662812799.481056) can0 315#00000007FF000000
(1662812799.487406) can0 353#338100000B820000
(1662812799.507481) can0 640#0000000000000000
(1662812799.517386) can0 128#10D6000000000000
(1662812799.518385) can0 340#0000000000000000
(1662812799.525455) can0 409#24084008000A4921
(1662812799.528249) can0 2CA#0000000000000000
(1662812799.529241) can0 2FC#0000000003000046
(1662812799.530246) can0 360#0000000000000000
(1662812799.531251) can0 365#0000000000000000
(1662812799.532259) can0 2F4#3000FFFFFFFC0000
(1662812799.533329) can0 2F9#0000000000000000
(1662812799.534305) can0 309#474F4C4431303433
(1662812799.535311) can0 30B#501A6074DC03E800
(1662812799.536375) can0 30D#0000000140160000
(1662812799.537436) can0 330#0000000200000000
(1662812799.538420) can0 353#338100000B820000
(1662812799.547422) can0 511#41026E0000040400
(1662812799.587399) can0 353#338100000B820000
(1662812799.588315) can0 6F6#15D97F9C58FB02E2
(1662812799.597410) can0 330#0000000200000000
(1662812799.617403) can0 128#10D6000000000000
(1662812799.618399) can0 340#0000000000000000
(1662812799.629018) can0 2FC#0000000003000046
(1662812799.632166) can0 2E6#341E140000000000
(1662812799.633157) can0 2EC#2D462E8A321E0000
(1662812799.634155) can0 2EF#328A3346341E0400
(1662812799.635154) can0 2F2#000A0A0B0A20C504
(1662812799.636172) can0 30F#110D070F12020000
(1662812799.637185) can0 311#1F941F0A1F1F5011
(1662812799.638176) can0 353#338100000B820000
(1662812799.639152) can0 541#5502000000000000
(1662812799.657430) can0 330#0000000200000000
(1662812799.661037) can0 2D4#0000000020100800
(1662812799.678275) can0 2E1#4000000000000000
(1662812799.679281) can0 2E3#0000000000000000
(1662812799.687413) can0 353#338100000B820000
(1662812799.717403) can0 128#10D6000000000000
(1662812799.718390) can0 330#0000000200000000
(1662812799.719390) can0 340#0000000000000000
(1662812799.721045) can0 555#5C02000000000000
(1662812799.728277) can0 2CA#0000000000000000
(1662812799.729270) can0 2E2#0000000000000000
(1662812799.730283) can0 2FC#0000000003000046
(1662812799.731307) can0 307#0000008000000000
(1662812799.732322) can0 313#7800000000000000
(1662812799.733337) can0 315#00000007FF000000
(1662812799.737408) can0 353#338100000B820000
(1662812799.775653) can0 409#24084008000A4921
(1662812799.776595) can0 403#820400252500F100
(1662812799.777584) can0 330#0000000200000000
(1662812799.778575) can0 406#0504000700000000
(1662812799.787393) can0 353#338100000B820000
(1662812799.807410) can0 340#0000000000000000
(1662812799.817381) can0 128#10D6000000000000
(1662812799.819116) can0 55C#0102000000000000
(1662812799.827334) can0 6F6#15D97F9C58FB02E2
(1662812799.829019) can0 2FC#0000000003000046
(1662812799.832604) can0 2E6#341E140000000000
(1662812799.833588) can0 2EC#2D462E8A321E0000
(1662812799.834584) can0 2EF#328A3346341E0400
(1662812799.835582) can0 2F2#000A0A0B0A20C504
(1662812799.836597) can0 30F#110D070F12020000
(1662812799.837591) can0 330#0000000200000000
(1662812799.838532) can0 311#1F941F0A1F1F5011
(1662812799.839515) can0 353#338100000B820000
(1662812799.887405) can0 353#338100000B820000
(1662812799.897398) can0 330#0000000200000000
(1662812799.905989) can0 501#0C026E0000000000
(1662812799.911020) can0 2D4#0000000020100800
(1662812799.917376) can0 128#10D6000000000000
(1662812799.918376) can0 340#0000000000000000
(1662812799.928255) can0 2CA#0000000000000000
(1662812799.929245) can0 2FC#0000000003000046
(1662812799.930228) can0 2E1#4000000000000000
(1662812799.931244) can0 2E3#0000000000000000
(1662812799.937382) can0 353#338100000B820000
(1662812799.957425) can0 330#0000000200000000
(1662812799.979052) can0 2E2#0000000000000000
(1662812799.980056) can0 313#7800000000000000
(1662812799.981080) can0 315#00000007FF000000
(1662812799.987407) can0 353#338100000B820000
(1662812799.993342) can0 50C#11026E0000000000
(1662812800.017406) can0 128#10D6000000000000
(1662812800.018384) can0 330#0000000200000000
(1662812800.019378) can0 340#0000000000000000
(1662812800.026119) can0 409#24084008000A4921
(1662812800.029052) can0 2FC#0000000003000046
(1662812800.032727) can0 2E6#341E140000000000
(1662812800.033705) can0 2EC#2D462E8A321E0000
(1662812800.034703) can0 2EF#328A3346341E0400
(1662812800.035712) can0 2F2#000A0A0B0A20C504
(1662812800.036781) can0 2F4#3000FFFFFFFC0000
(1662812800.037763) can0 353#338100000B820000
(1662812800.038770) can0 2F9#0000000000000000
(1662812800.039745) can0 309#474F4C4431303433
(1662812800.040767) can0 30B#501A6074DC03E800
(1662812800.041779) can0 360#0000000000000000
(1662812800.042753) can0 30D#0000000140160000
(1662812800.043741) can0 365#0000000000000000
(1662812800.044676) can0 30F#110D070F12020000
(1662812800.045691) can0 311#1F941F0A1F1F5011
(1662812800.046688) can0 317#5739453836313031
(1662812800.047768) can0 6FC#0000000000000000
(1662812800.067319) can0 6F6#15D97F9C58FB02E2
(1662812800.077400) can0 330#0000000200000000
(1662812800.087386) can0 353#338100000B820000
(1662812800.088342) can0 511#41026E0000040400
(1662812800.107402) can0 340#0000000000000000
(1662812800.117372) can0 128#10D6000000000000
(1662812800.128260) can0 2CA#0000000000000000
(1662812800.129250) can0 2FC#0000000003000046
(1662812800.137387) can0 330#0000000200000000
(1662812800.138369) can0 353#338100000B820000
(1662812800.161038) can0 2D4#0000000020100800
(1662812800.178266) can0 2E1#4000000000000000
(1662812800.179272) can0 2E3#0000000000000000
(1662812800.180271) can0 541#5502000000000000
(1662812800.187376) can0 353#338100000B820000
(1662812800.197391) can0 330#0000000200000000
(1662812800.207397) can0 340#0000000000000000
(1662812800.217385) can0 128#10D6000000000000
(1662812800.229028) can0 2E2#0000000000000000
(1662812800.230038) can0 2FC#0000000003000046
(1662812800.231071) can0 307#0000008000000000
(1662812800.232088) can0 313#7800000000000000
(1662812800.233076) can0 2E6#341E140000000000
(1662812800.234068) can0 315#00000007FF000000
(1662812800.234994) can0 2EC#2D462E8A321E0000
(1662812800.236009) can0 2EF#328A3346341E0400
(1662812800.236995) can0 2F2#000A0A0B0A20C504
(1662812800.237978) can0 353#338100000B820000
(1662812800.238913) can0 30F#110D070F12020000
(1662812800.239927) can0 311#1F941F0A1F1F5011
(1662812800.257387) can0 330#0000000200000000
(1662812800.276241) can0 409#24084008000A4921
(1662812800.277180) can0 403#820400252500F100
(1662812800.278172) can0 406#0504000700000000
(1662812800.281036) can0 555#5C02000000000000
(1662812800.287372) can0 353#338100000B820000
(1662812800.307399) can0 340#0000000000000000
(1662812800.308305) can0 6F6#15AA0CEF2B887190
(1662812800.317369) can0 128#10D6000000000000
(1662812800.318358) can0 330#0000000200000000
(1662812800.328283) can0 2CA#0000000000000000
(1662812800.329253) can0 2FC#0000000003000046
(1662812800.337393) can0 353#338100000B820000
(1662812800.377396) can0 330#0000000200000000
(1662812800.379137) can0 55C#0102000000000000
(1662812800.387394) can0 353#338100000B820000
(1662812800.411025) can0 2D4#0000000020100800
(1662812800.417359) can0 128#10D6000000000000
(1662812800.418357) can0 340#0000000000000000
(1662812800.428259) can0 2E1#4000000000000000
(1662812800.429250) can0 2FC#0000000003000046
(1662812800.430241) can0 2E3#0000000000000000
(1662812800.433641) can0 2E6#341E140000000000
(1662812800.434623) can0 2EC#2D462E8A321E0000
(1662812800.435622) can0 2EF#328A3346341E0400
(1662812800.436621) can0 2F2#000A0A0B0A20C504
(1662812800.437612) can0 330#0000000200000000
(1662812800.438548) can0 30F#110D070F12020000
(1662812800.439530) can0 353#338100000B820000
(1662812800.440473) can0 311#1F941F0A1F1F5011
(1662812800.466595) can0 501#0C026E0000000000
(1662812800.479041) can0 2E2#0000000000000000
(1662812800.480049) can0 313#7800000000000000
(1662812800.481071) can0 315#00000007FF000000
(1662812800.487387) can0 353#338100000B820000
(1662812800.497398) can0 330#0000000200000000
(1662812800.498403) can0 640#0000000000000000
(1662812800.507396) can0 340#0000000000000000
(1662812800.517361) can0 128#10D6000000000000
(1662812800.526597) can0 409#24084008000A4921
(1662812800.528265) can0 2CA#0000000000000000
(1662812800.529256) can0 2FC#0000000003000046
(1662812800.533240) can0 2F4#3000FFFFFFFC0000
(1662812800.534310) can0 2F9#0000000000000000
(1662812800.535285) can0 309#474F4C4431303433
(1662812800.536292) can0 30B#501A6074DC03E800
(1662812800.537338) can0 30D#0000000140160000
(1662812800.538322) can0 353#338100000B820000
(1662812800.547299) can0 6F6#15AA0CEF2B887190
(1662812800.553102) can0 360#0000000000000000
(1662812800.554072) can0 50C#11026E0000000000
(1662812800.555062) can0 365#0000000000000000
(1662812800.557381) can0 330#0000000200000000
(1662812800.562447) can0 2F5#1041426574746572
(1662812800.563478) can0 2F6#300A000000000000
(1662812800.572862) can0 2F5#21204D7573696320
(1662812800.582902) can0 2F5#22616E64204D6F72
(1662812800.587377) can0 353#338100000B820000
(1662812800.592750) can0 2F5#2365206F66204974
(1662812800.602716) can0 2F5#24202D20476F6C64
(1662812800.612889) can0 2F5#25203130342E3320
(1662812800.617353) can0 128#10D6000000000000
(1662812800.618346) can0 330#0000000200000000
(1662812800.619344) can0 340#0000000000000000
(1662812800.623156) can0 2F5#2620202020202020
(1662812800.629039) can0 2FC#0000000003000046
(1662812800.632858) can0 2F5#2720202020202020
(1662812800.633909) can0 2E6#341E140000000000
(1662812800.634891) can0 2EC#2D462E8A321E0000
(1662812800.635892) can0 2EF#328A3346341E0400
(1662812800.636890) can0 2F2#000A0A0B0A20C504
(1662812800.637873) can0 353#338100000B820000
(1662812800.638808) can0 30F#110D070F12020000
(1662812800.639823) can0 311#1F941F0A1F1F5011
(1662812800.643247) can0 2F5#2820202020202020
(1662812800.647385) can0 511#41026E0000040400
(1662812800.653446) can0 2F5#2920200300000000
(1662812800.661039) can0 2D4#0000000020100800
(1662812800.677382) can0 330#0000000200000000
(1662812800.678351) can0 2E1#4000000000000000
(1662812800.679358) can0 2E3#0000000000000000
(1662812800.687362) can0 353#338100000B820000
(1662812800.707380) can0 340#0000000000000000
(1662812800.717378) can0 128#10D6000000000000
(1662812800.728284) can0 2CA#0000000000000000
(1662812800.729270) can0 2E2#0000000000000000
(1662812800.730285) can0 2FC#0000000003000046
(1662812800.731308) can0 307#0000008000000000
(1662812800.732325) can0 313#7800000000000000
(1662812800.733339) can0 315#00000007FF000000
(1662812800.737363) can0 330#0000000200000000
(1662812800.738345) can0 353#338100000B820000
(1662812800.739328) can0 541#5502000000000000
(1662812800.776844) can0 409#24084008000A4921
(1662812800.777791) can0 403#820400252500F100
(1662812800.778774) can0 406#0504000700000000
(1662812800.787413) can0 353#338100000B820000
(1662812800.788331) can0 6F6#15AA0CEF2B887190
(1662812800.791502) can0 7A6#0331110000000000
(1662812800.797463) can0 330#0000000200000000
(1662812800.799229) can0 7AE#0271110000000000
(1662812800.807399) can0 340#0000000000000000
(1662812800.817372) can0 128#10D6000000000000
(1662812800.821060) can0 555#5C02000000000000
(1662812800.829060) can0 2FC#0000000003000046
(1662812800.832962) can0 2E6#341E140000000000
(1662812800.833944) can0 2EC#2D462E8A321E0000
(1662812800.834942) can0 2EF#328A3346341E0400
(1662812800.835943) can0 2F2#000A0A0B0A20C504
(1662812800.836957) can0 30F#110D070F12020000
(1662812800.837958) can0 353#338100000B820000
(1662812800.838883) can0 311#1F941F0A1F1F5011
(1662812800.857388) can0 330#0000000200000000
(1662812800.887366) can0 353#338100000B820000
(1662812800.907379) can0 340#0000000000000000
(1662812800.911030) can0 2D4#0000000020100800
(1662812800.917351) can0 128#10D6000000000000
(1662812800.918342) can0 330#0000000200000000
(1662812800.919330) can0 55C#0102000000000000
(1662812800.928269) can0 2CA#0000000000000000
(1662812800.929259) can0 2FC#0000000003000046
(1662812800.930241) can0 2E1#4000000000000000
(1662812800.931256) can0 2E3#0000000000000000
(1662812800.937377) can0 353#338100000B820000
(1662812800.977367) can0 330#0000000200000000
(1662812800.979039) can0 2E2#0000000000000000
(1662812800.980055) can0 313#7800000000000000
(1662812800.981062) can0 315#00000007FF000000
(1662812800.987381) can0 353#338100000B820000
(1662812800.992036) can0 7A6#023E020000000000
(1662812801.007250) can0 501#0C026E0000000000
(1662812801.008242) can0 340#0000000000000000
(1662812801.017364) can0 128#10D6000000000000
(1662812801.027203) can0 409#24084008000A4921
(1662812801.028113) can0 6F6#15AA0CEF2B887190
(1662812801.029104) can0 2FC#0000000003000046
(1662812801.033099) can0 2E6#341E140000000000
(1662812801.034048) can0 2EC#2D462E8A321E0000
(1662812801.035045) can0 2EF#328A3346341E0400
(1662812801.036047) can0 2F2#000A0A0B0A20C504
(1662812801.037115) can0 2F4#3000FFFFFFFC0000
(1662812801.038107) can0 330#0000000200000000
(1662812801.039114) can0 2F9#0000000000000000
(1662812801.040097) can0 353#338100000B820000
(1662812801.041000) can0 309#474F4C4431303433
(1662812801.042024) can0 30B#501A6074DC03E800
(1662812801.043072) can0 30D#0000000140160000
(1662812801.044077) can0 30F#110D070F12020000
(1662812801.045092) can0 311#1F941F0A1F1F5011
(1662812801.046083) can0 317#5739453836313031
(1662812801.047178) can0 6FC#0000000000000000
(1662812801.064651) can0 360#0000000000000000
(1662812801.065656) can0 365#0000000000000000
(1662812801.087351) can0 353#338100000B820000
(1662812801.093861) can0 50C#11026E0000000000
(1662812801.097359) can0 330#0000000200000000
(1662812801.107367) can0 340#0000000000000000
(1662812801.117342) can0 128#10D6000000000000
(1662812801.128271) can0 2CA#0000000000000000
(1662812801.129260) can0 2FC#0000000003000046
(1662812801.137350) can0 353#338100000B820000
(1662812801.157381) can0 330#0000000200000000
(1662812801.161034) can0 2D4#0000000020100800
(1662812801.178278) can0 2E1#4000000000000000
(1662812801.179280) can0 2E3#0000000000000000
(1662812801.187367) can0 353#338100000B820000
(1662812801.188325) can0 511#41026E0000040400
(1662812801.207394) can0 340#0000000000000000
(1662812801.217365) can0 128#10D6000000000000
(1662812801.218352) can0 330#0000000200000000
(1662812801.229068) can0 2E2#0000000000000000
(1662812801.230079) can0 2FC#0000000003000046
(1662812801.231102) can0 307#0000008000000000
(1662812801.232117) can0 313#7800000000000000
(1662812801.233142) can0 315#00000007FF000000
(1662812801.234133) can0 2E6#341E140000000000
(1662812801.235115) can0 2EC#2D462E8A321E0000
(1662812801.236145) can0 2EF#328A3346341E0400
(1662812801.237113) can0 2F2#000A0A0B0A20C504
(1662812801.238113) can0 353#338100000B820000
(1662812801.239072) can0 30F#110D070F12020000
(1662812801.240049) can0 311#1F941F0A1F1F5011
(1662812801.267321) can0 6F6#15B711F236946C8F
(1662812801.277379) can0 330#0000000200000000
(1662812801.278316) can0 403#820400252500F100
(1662812801.279307) can0 406#0504000700000000
(1662812801.280257) can0 409#24084008000A4921
(1662812801.281247) can0 541#5502000000000000
(1662812801.287376) can0 353#338100000B820000
(1662812801.307409) can0 340#0000000000000000
(1662812801.317336) can0 128#10D6000000000000
(1662812801.328272) can0 2CA#0000000000000000
(1662812801.329262) can0 2FC#0000000003000046
(1662812801.337350) can0 330#0000000200000000
(1662812801.338332) can0 353#338100000B820000
(1662812801.381068) can0 555#5C02000000000000
(1662812801.387353) can0 353#338100000B820000
(1662812801.397349) can0 330#0000000200000000
(1662812801.407361) can0 340#0000000000000000
(1662812801.411041) can0 2D4#0000000020100800
(1662812801.417328) can0 128#10D6000000000000
(1662812801.428273) can0 2E1#4000000000000000
(1662812801.429265) can0 2FC#0000000003000046
(1662812801.430253) can0 2E3#0000000000000000
(1662812801.433740) can0 2E6#341E140000000000
(1662812801.434724) can0 2EC#2D462E8A321E0000
(1662812801.435722) can0 2EF#328A3346341E0400
(1662812801.436721) can0 2F2#000A0A0B0A20C504
(1662812801.437705) can0 353#338100000B820000
(1662812801.438644) can0 30F#110D070F12020000
(1662812801.439657) can0 311#1F941F0A1F1F5011
(1662812801.457358) can0 330#0000000200000000
(1662812801.479049) can0 2E2#0000000000000000
(1662812801.480053) can0 313#7800000000000000
(1662812801.481068) can0 315#00000007FF000000
(1662812801.482085) can0 55C#0102000000000000
(1662812801.487366) can0 353#338100000B820000
(1662812801.488363) can0 640#0000000000000000
(1662812801.507359) can0 340#0000000000000000
(1662812801.508268) can0 6F6#15B711F236946C8F
(1662812801.517332) can0 128#10D6000000000000
(1662812801.518318) can0 330#0000000200000000
(1662812801.527828) can0 409#24084008000A4921
(1662812801.528820) can0 2CA#0000000000000000
(1662812801.529809) can0 2FC#0000000003000046
(1662812801.533909) can0 2F4#3000FFFFFFFC0000
(1662812801.534975) can0 2F9#0000000000000000
(1662812801.535951) can0 309#474F4C4431303433
(1662812801.536960) can0 30B#501A6074DC03E800
(1662812801.537940) can0 353#338100000B820000
(1662812801.538917) can0 30D#0000000140160000
(1662812801.567891) can0 501#0C026E0000000000
(1662812801.576161) can0 360#0000000000000000
(1662812801.577167) can0 365#0000000000000000
(1662812801.578159) can0 330#0000000200000000
(1662812801.587335) can0 353#338100000B820000
(1662812801.607351) can0 340#0000000000000000
(1662812801.617325) can0 128#10D6000000000000
(1662812801.629059) can0 2FC#0000000003000046
(1662812801.633177) can0 2E6#341E140000000000
(1662812801.634160) can0 2EC#2D462E8A321E0000
(1662812801.635159) can0 2EF#328A3346341E0400
(1662812801.636158) can0 2F2#000A0A0B0A20C504
(1662812801.637173) can0 30F#110D070F12020000
(1662812801.638166) can0 330#0000000200000000
(1662812801.639106) can0 311#1F941F0A1F1F5011
(1662812801.640112) can0 353#338100000B820000
(1662812801.654166) can0 50C#11026E0000000000
(1662812801.661041) can0 2D4#0000000020100800
(1662812801.678274) can0 2E1#4000000000000000
(1662812801.679280) can0 2E3#0000000000000000
(1662812801.687329) can0 353#338100000B820000
(1662812801.697342) can0 330#0000000200000000
(1662812801.707372) can0 340#0000000000000000
(1662812801.717323) can0 128#10D6000000000000
(1662812801.728286) can0 2CA#0000000000000000
(1662812801.729276) can0 2E2#0000000000000000
(1662812801.730289) can0 2FC#0000000003000046
(1662812801.731314) can0 307#0000008000000000
(1662812801.732329) can0 313#7800000000000000
(1662812801.733343) can0 315#00000007FF000000
(1662812801.737327) can0 353#338100000B820000
(1662812801.747267) can0 6F6#15B711F236946C8F
(1662812801.748221) can0 511#41026E0000040400
(1662812801.757371) can0 330#0000000200000000
(1662812801.778018) can0 409#24084008000A4921
(1662812801.778966) can0 403#820400252500F100
(1662812801.779956) can0 406#0504000700000000
(1662812801.787322) can0 353#338100000B820000
(1662812801.807371) can0 340#0000000000000000
(1662812801.817361) can0 128#10D6000000000000
(1662812801.818350) can0 330#0000000200000000
(1662812801.829085) can0 2FC#0000000003000046
(1662812801.835580) can0 2E6#341E140000000000
(1662812801.836563) can0 2EC#2D462E8A321E0000
(1662812801.837546) can0 353#338100000B820000
(1662812801.838489) can0 2EF#328A3346341E0400
(1662812801.839473) can0 541#5502000000000000
(1662812801.840416) can0 2F2#000A0A0B0A20C504
(1662812801.841461) can0 30F#110D070F12020000
(1662812801.842447) can0 311#1F941F0A1F1F5011
(1662812801.877361) can0 330#0000000200000000
(1662812801.887350) can0 353#338100000B820000
(1662812801.907344) can0 340#0000000000000000
(1662812801.911044) can0 2D4#0000000020100800
(1662812801.917315) can0 128#10D6000000000000
(1662812801.921068) can0 555#5C02000000000000
(1662812801.928282) can0 2CA#0000000000000000
(1662812801.929273) can0 2FC#0000000003000046
(1662812801.930260) can0 2E1#4000000000000000
(1662812801.931273) can0 2E3#0000000000000000
(1662812801.937328) can0 330#0000000200000000
(1662812801.938313) can0 353#338100000B820000
(1662812801.979188) can0 2E2#0000000000000000
(1662812801.980193) can0 313#7800000000000000
(1662812801.981207) can0 315#00000007FF000000
(1662812801.987319) can0 353#338100000B820000
(1662812801.988230) can0 6F6#15B711F236946C8F
(1662812801.997360) can0 330#0000000200000000
(1662812802.007363) can0 340#0000000000000000
(1662812802.017338) can0 128#10D6000000000000
(1662812802.019190) can0 55C#0102000000000000
(1662812802.028382) can0 409#24084008000A4921
(1662812802.029373) can0 2FC#0000000003000046
(1662812802.035420) can0 2E6#341E140000000000
(1662812802.036403) can0 2EC#2D462E8A321E0000
(1662812802.037387) can0 353#338100000B820000
(1662812802.038332) can0 2EF#328A3346341E0400
(1662812802.039329) can0 2F2#000A0A0B0A20C504
(1662812802.040400) can0 2F4#3000FFFFFFFC0000
(1662812802.041510) can0 2F9#0000000000000000
(1662812802.042447) can0 309#474F4C4431303433
(1662812802.043453) can0 30B#501A6074DC03E800
(1662812802.044500) can0 30D#0000000140160000
(1662812802.045509) can0 30F#110D070F12020000
(1662812802.046522) can0 311#1F941F0A1F1F5011
(1662812802.047513) can0 317#5739453836313031
(1662812802.048602) can0 6FC#0000000000000000
(1662812802.057356) can0 330#0000000200000000
(1662812802.087334) can0 353#338100000B820000
(1662812802.088356) can0 360#0000000000000000
(1662812802.089349) can0 365#0000000000000000
(1662812802.107336) can0 340#0000000000000000
(1662812802.108580) can0 501#0C026E0000000000
(1662812802.117308) can0 128#10D6000000000000
(1662812802.118298) can0 330#0000000200000000
(1662812802.128283) can0 2CA#0000000000000000
(1662812802.129274) can0 2FC#0000000003000046
(1662812802.137315) can0 353#338100000B820000
(1662812802.161050) can0 2D4#0000000020100800
(1662812802.177324) can0 330#0000000200000000
(1662812802.178303) can0 2E1#4000000000000000
(1662812802.179318) can0 2E3#0000000000000000
(1662812802.187319) can0 353#338100000B820000
(1662812802.195846) can0 50C#11026E0000000000
(1662812802.207369) can0 340#0000000000000000
(1662812802.217329) can0 128#10D6000000000000
(1662812802.227274) can0 6F6#158026C501A35BBB
(1662812802.229086) can0 2E2#0000000000000000
(1662812802.230100) can0 2FC#0000000003000046
(1662812802.231132) can0 307#0000008000000000
(1662812802.232154) can0 313#7800000000000000
(1662812802.233165) can0 315#00000007FF000000
(1662812802.235562) can0 2E6#341E140000000000
(1662812802.236545) can0 2EC#2D462E8A321E0000
(1662812802.237537) can0 330#0000000200000000
(1662812802.238479) can0 2EF#328A3346341E0400
(1662812802.239464) can0 353#338100000B820000
(1662812802.240407) can0 2F2#000A0A0B0A20C504
(1662812802.241429) can0 30F#110D070F12020000
(1662812802.242440) can0 311#1F941F0A1F1F5011
(1662812802.278632) can0 409#24084008000A4921
(1662812802.279570) can0 403#820400252500F100
(1662812802.280561) can0 406#0504000700000000
(1662812802.287329) can0 353#338100000B820000
(1662812802.288288) can0 511#41026E0000040400
(1662812802.297323) can0 330#0000000200000000
(1662812802.307338) can0 340#0000000000000000
(1662812802.317302) can0 128#10D6000000000000
(1662812802.328290) can0 2CA#0000000000000000
(1662812802.329278) can0 2FC#0000000003000046
(1662812802.337308) can0 353#338100000B820000
(1662812802.357325) can0 330#0000000200000000
(1662812802.378364) can0 541#5502000000000000
(1662812802.387306) can0 353#338100000B820000
(1662812802.407358) can0 340#0000000000000000
(1662812802.411088) can0 2D4#0000000020100800
(1662812802.417347) can0 128#10D6000000000000
(1662812802.418317) can0 330#0000000200000000
(1662812802.428309) can0 2E1#4000000000000000
(1662812802.429298) can0 2FC#0000000003000046
(1662812802.430289) can0 2E3#0000000000000000
(1662812802.435569) can0 2E6#341E140000000000
(1662812802.436552) can0 2EC#2D462E8A321E0000
(1662812802.437534) can0 353#338100000B820000
(1662812802.438477) can0 2EF#328A3346341E0400
(1662812802.439478) can0 2F2#000A0A0B0A20C504
(1662812802.440491) can0 30F#110D070F12020000
(1662812802.441531) can0 311#1F941F0A1F1F5011
(1662812802.461136) can0 555#5C02000000000000
(1662812802.467313) can0 6F6#158026C501A35BBB
(1662812802.477380) can0 330#0000000200000000
(1662812802.479099) can0 2E2#0000000000000000
(1662812802.480107) can0 313#7800000000000000
(1662812802.481128) can0 315#00000007FF000000
(1662812802.487337) can0 353#338100000B820000
(1662812802.488341) can0 640#0000000000000000
(1662812802.507293) can0 340#0000000000000000
(1662812802.517264) can0 128#10D6000000000000
(1662812802.528264) can0 2CA#0000000000000000
(1662812802.529255) can0 2FC#0000000003000046
(1662812802.530266) can0 409#24084008000A4921
(1662812802.535759) can0 2F4#3000FFFFFFFC0000
(1662812802.536817) can0 2F9#0000000000000000
(1662812802.537806) can0 330#0000000200000000
(1662812802.538709) can0 309#474F4C4431303433
(1662812802.539692) can0 353#338100000B820000
(1662812802.540629) can0 30B#501A6074DC03E800
(1662812802.541677) can0 30D#0000000140160000
(1662812802.559158) can0 55C#0102000000000000
(1662812802.587305) can0 353#338100000B820000
(1662812802.597278) can0 330#0000000200000000
(1662812802.599241) can0 360#0000000000000000
(1662812802.600245) can0 365#0000000000000000
(1662812802.607286) can0 340#0000000000000000
(1662812802.617259) can0 128#10D6000000000000
(1662812802.629035) can0 2FC#0000000003000046
(1662812802.635426) can0 2E6#341E140000000000
(1662812802.636406) can0 2EC#2D462E8A321E0000
(1662812802.637390) can0 353#338100000B820000
(1662812802.638331) can0 2EF#328A3346341E0400
(1662812802.639330) can0 2F2#000A0A0B0A20C504
(1662812802.640346) can0 30F#110D070F12020000
(1662812802.641360) can0 311#1F941F0A1F1F5011
(1662812802.649188) can0 501#0C026E0000000000
(1662812802.657272) can0 330#0000000200000000
(1662812802.661026) can0 2D4#0000000020100800
(1662812802.678252) can0 2E1#4000000000000000
(1662812802.679256) can0 2E3#0000000000000000
(1662812802.687263) can0 353#338100000B820000
(1662812802.707322) can0 340#0000000000000000
(1662812802.708228) can0 6F6#158026C501A35BBB
(1662812802.717295) can0 128#10D6000000000000
