(1644400973.338378) can0 7AE#037FB41100000000
(1644401007.352848) can0 7AE#037FB41100000000
(1644401028.132897) can0 7AE#037F101200000000
(1644401042.355066) can0 7AE#037F101200000000
(1644401053.842060) can0 7AE#037F101200000000
(1644401065.242545) can0 7AE#037F101200000000
(1644401074.241765) can0 7AE#037F101200000000
(1644401082.858027) can0 7AE#037F101200000000
(1644401091.568371) can0 7AE#037F101200000000
(1644401107.882721) can0 7AE#037F101200000000
(1644401138.727177) can0 7AE#037F101200000000
(1644401149.725719) can0 7AE#037F101200000000
(1644401159.101943) can0 7AE#037F101200000000
(1644401179.895412) can0 7AE#037FB41100000000
(1644401209.914937) can0 7AE#037FB41100000000
(1644401223.123266) can0 7AE#037FB41100000000
(1644401257.432073) can0 7AE#037FB41100000000
(1644401317.026873) can0 7AE#037FB41100000000
(1644401333.616024) can0 7AE#037FB41100000000
(1644401351.245524) can0 7AE#037F342200000000
(1644401378.827700) can0 7AE#037F272200000000
(1644401390.314206) can0 7AE#037F272200000000
(1644401397.158565) can0 7AE#037F272200000000
(1644401405.940236) can0 7AE#037F272200000000
(1644401469.337153) can0 7AE#02C5020000000000
(1644401548.870478) can0 7AE#037FBA1100000000
(1644401558.657758) can0 7AE#037FB41100000000
(1644401567.554163) can0 7AE#037F861100000000
(1644401574.196070) can0 7AE#037F871100000000
(1644401579.339650) can0 7AE#037F881100000000
(1644401585.914981) can0 7AE#037F811100000000
(1644401595.503778) can0 7AE#037FBB1100000000
(1644401602.723985) can0 7AE#037FB31100000000
(1644401608.658799) can0 7AE#037FB21100000000
(1644401614.266174) can0 7AE#037FBF1100000000
(1644401625.596216) can0 7AE#037FBC1100000000
(1644401640.594957) can0 7AE#037F8F1100000000
(1644401663.068283) can0 7AE#037FBA1100000000
(1644401674.120262) can0 7AE#037FBA1100000000
(1644401679.873542) can0 7AE#037FBA1100000000
(1644401690.319274) can0 7AE#037FBA1100000000
(1644401697.823323) can0 7AE#037FBA1100000000
(1644401702.225687) can0 7AE#037FBA1100000000
(1644401704.539363) can0 7AE#037FBA1100000000
(1644401706.340377) can0 7AE#037FBA1100000000
(1644401710.072335) can0 7AE#037FBA1100000000
(1644401712.043429) can0 7AE#037FBA1100000000
(1644401713.053928) can0 7AE#037FBA1100000000
(1644401713.594256) can0 7AE#037FBA1100000000
(1644401760.215948) can0 7AE#3008280000000000
(1644401760.296932) can0 7AE#037FC67200000000
(1644401762.230382) can0 7AE#037FB01100000000
(1644401778.227278) can0 7AE#3008280000000000
(1644401778.304089) can0 7AE#037FCC7200000000
(1644401779.228588) can0 7AE#037F721200000000
(1644401785.229042) can0 7AE#037F301200000000
(1644401802.250614) can0 7AE#037FF41100000000
(1644401806.235344) can0 7AE#3008280000000000
(1644401806.309971) can0 7AE#037F2C7200000000
(1644401810.238654) can0 7AE#3008280000000000
(1644401810.313106) can0 7AE#037F457200000000
(1644401813.236666) can0 7AE#037F731200000000
(1644401814.236881) can0 7AE#037F3C1200000000
(1644401835.242145) can0 7AE#3008280000000000
(1644401835.317194) can0 7AE#037F967200000000
(1644401840.243584) can0 7AE#037F791200000000
(1644401842.244987) can0 7AE#3008280000000000
(1644401842.323836) can0 7AE#037F797200000000
(1644401853.248118) can0 7AE#3008280000000000
(1644401853.319709) can0 7AE#037F4C7200000000
(1644401861.252382) can0 7AE#3008280000000000
(1644401861.326592) can0 7AE#037FC07200000000
(1644401879.264832) can0 7AE#3008280000000000
(1644401879.336765) can0 7AE#037F367200000000
(1644401887.280532) can0 7AE#037F1F1100000000
(1644401892.286424) can0 7AE#037F151100000000
(1644401895.267932) can0 7AE#3008280000000000
(1644401895.344004) can0 7AE#037FB57200000000
(1644401898.268666) can0 7AE#037FDE1200000000
(1644401908.499126) can0 7AE#3008280000000000
(1644401908.570289) can0 7AE#037FF77200000000
(1644401944.286886) can0 7AE#037F001100000000
(1644401945.291776) can0 7AE#037F001100000000
(1644401946.284754) can0 7AE#037F001100000000
(1644401947.293749) can0 7AE#037F001100000000
(1644401948.284166) can0 7AE#037F001100000000
(1644401949.289853) can0 7AE#037F001100000000
(1644401950.284472) can0 7AE#037F001100000000
(1644401951.271799) can0 7AE#037F001200000000
(1644401952.272043) can0 7AE#037F001200000000
(1644401953.273647) can0 7AE#037F001200000000
(1644401954.272562) can0 7AE#037F001200000000
(1644401955.272861) can0 7AE#037F001200000000
(1644401956.273109) can0 7AE#037F001200000000
(1644401957.273363) can0 7AE#037F001200000000
(1644401958.273991) can0 7AE#037F001200000000
(1644401960.274543) can0 7AE#3008280000000000
(1644401961.275219) can0 7AE#3008280000000000
(1644401962.275827) can0 7AE#3008280000000000
(1644401963.275372) can0 7AE#3008280000000000
(1644401964.276020) can0 7AE#3008280000000000
(1644401965.276119) can0 7AE#3008280000000000
(1644401966.276682) can0 7AE#3008280000000000
(1644401967.276974) can0 7AE#3008280000000000
(1644401968.277229) can0 7AE#3008280000000000
(1644401969.278073) can0 7AE#3008280000000000
(1644401969.342877) can0 7AE#037F007200000000
(1644401970.277840) can0 7AE#3008280000000000
(1644401971.278323) can0 7AE#3008280000000000
(1644401972.278320) can0 7AE#3008280000000000
(1644401973.278606) can0 7AE#3008280000000000
(1644401974.279249) can0 7AE#3008280000000000
(1644401974.346813) can0 7AE#037F007200000000
(1644402200.368320) can0 7AE#037F011100000000
(1644402201.368870) can0 7AE#037F011100000000
(1644402202.369415) can0 7AE#037F011100000000
(1644402203.369974) can0 7AE#037F011100000000
(1644402204.370901) can0 7AE#037F011100000000
(1644402205.371665) can0 7AE#037F011100000000
(1644402206.372241) can0 7AE#037F011100000000
(1644402207.353821) can0 7AE#037F011200000000
(1644402208.354371) can0 7AE#037F011200000000
(1644402209.354916) can0 7AE#037F011200000000
(1644402210.355467) can0 7AE#037F011200000000
(1644402211.354436) can0 7AE#037F011200000000
(1644402212.354759) can0 7AE#037F011200000000
(1644402213.355777) can0 7AE#037F011200000000
(1644402214.356013) can0 7AE#037F011200000000
(1644402215.356290) can0 7AE#037F007500000000
(1644402216.356661) can0 7AE#3008280000000000
(1644402216.431577) can0 7AE#037F007200000000
(1644402217.358305) can0 7AE#3008280000000000
(1644402217.432443) can0 7AE#037F007200000000
(1644402218.359094) can0 7AE#3008280000000000
(1644402218.434868) can0 7AE#037F007200000000
(1644402219.359545) can0 7AE#3008280000000000
(1644402219.434477) can0 7AE#037F007200000000
(1644402220.360168) can0 7AE#3008280000000000
(1644402220.433593) can0 7AE#037F007200000000
(1644402221.360978) can0 7AE#3008280000000000
(1644402221.442175) can0 7AE#037F007200000000
(1644402222.362638) can0 7AE#3008280000000000
(1644402222.440174) can0 7AE#037F007200000000
(1644402223.363088) can0 7AE#3008280000000000
(1644402223.438625) can0 7AE#037F007200000000
(1644402224.363813) can0 7AE#3008280000000000
(1644402224.435764) can0 7AE#037F007200000000
(1644402225.365615) can0 7AE#3008280000000000
(1644402225.447458) can0 7AE#037F007200000000
(1644402226.366720) can0 7AE#3008280000000000
(1644402226.440068) can0 7AE#037F007200000000
(1644402227.367304) can0 7AE#3008280000000000
(1644402227.446074) can0 7AE#037F007200000000
(1644402228.369003) can0 7AE#3008280000000000
(1644402228.441690) can0 7AE#037F007200000000
(1644402229.368351) can0 7AE#3008280000000000
(1644402229.452903) can0 7AE#037F007200000000
(1644402230.369285) can0 7AE#3008280000000000
(1644402230.444211) can0 7AE#037F007200000000
