date Tue Feb 08 09:19:48 PM 2022
base hex  timestamps absolute
00000.00000 Start of measurement
02012.575458  1  7A6  Rx    d 8 02 3E 02 00 00 00 00 00
02013.272851  1  7A6  Rx    d 8 02 10 85 00 00 00 00 00
02014.151533  1  7AE  Rx    d 8 02 50 85 00 00 00 00 00
02014.171105  1  7A6  Rx    d 8 02 27 01 00 00 00 00 00
02014.173416  1  7AE  Rx    d 8 05 67 01 DF 97 19 00 00
02014.204298  1  7A6  Rx    d 8 05 27 02 32 5D 67 00 00
02014.205857  1  7AE  Rx    d 8 02 67 02 00 00 00 00 00
02014.220695  1  7A6  Rx    d 8 02 3E 02 00 00 00 00 00
02016.040262  1  7A6  Rx    d 8 10 09 34 FF FF E3 00 00
02016.041286  1  7AE  Rx    d 8 30 00 01 00 00 00 00 00
02016.042844  1  7A6  Rx    d 8 21 00 0C 3C 00 00 00 00
02016.045380  1  7AE  Rx    d 8 03 74 00 E1 00 00 00 00
02016.083903  1  7A6  Rx    d 8 10 E1 36 01 00 05 85 18
02016.084926  1  7AE  Rx    d 8 30 00 01 00 00 00 00 00
02016.089986  1  7A6  Rx    d 8 21 E3 FF FF 46 E5 FF FF
02016.092818  1  7A6  Rx    d 8 22 1E E4 FF FF FA E4 FF
02016.095834  1  7A6  Rx    d 8 23 FF 5E E5 FF FF 03 1E
02016.099720  1  7A6  Rx    d 8 24 E4 FF 1E 50 03 F0 0D
02016.102629  1  7A6  Rx    d 8 25 FD 0B D5 09 DD 07 E5
02016.104820  1  7A6  Rx    d 8 26 05 ED 06 D8 7B 07 04
02016.107851  1  7A6  Rx    d 8 27 00 40 0E 00 00 61 DF
02016.110811  1  7A6  Rx    d 8 28 81 E9 0A F0 3B 5F 31
02016.113842  1  7A6  Rx    d 8 29 00 40 0E 00 00 EB 5F
02016.116810  1  7A6  Rx    d 8 2A 01 00 61 5F CC E9 40
02016.119840  1  7A6  Rx    d 8 2B E6 00 00 80 FF 08 0B
02016.122823  1  7A6  Rx    d 8 2C 40 46 00 00 28 47 81
02016.125815  1  7A6  Rx    d 8 2D E9 3B 3F 21 00 28 47
02016.128822  1  7A6  Rx    d 8 2E 2D 00 01 4A C8 46 FF
02016.131814  1  7A6  Rx    d 8 2F 0F 08 46 F0 FE 81 42
02016.135028  1  7A6  Rx    d 8 20 C4 42 08 36 80 00 01
02016.137828  1  7A6  Rx    d 8 21 42 80 FF 5A 06 01 32
02016.142638  1  7A6  Rx    d 8 22 63 37 01 00 63 07 05
02016.144814  1  7A6  Rx    d 8 23 00 09 32 02 3A 00 42
02016.147845  1  7A6  Rx    d 8 24 00 4A 80 FF D4 07 CA
02016.150836  1  7A6  Rx    d 8 25 4E 1F 00 5C 4F 84 E9
02016.153827  1  7A6  Rx    d 8 26 CA 36 FF 00 3C E6 84
02016.156803  1  7A6  Rx    d 8 27 E9 E9 31 BA 05 64 4A
02016.159818  1  7A6  Rx    d 8 28 D9 05 01 32 7B 37 04
02016.162826  1  7A6  Rx    d 8 29 00 B5 2D 00 EA C5 15
02016.165793  1  7A6  Rx    d 8 2A 1D D0 C2 D2 DC D1 1D
02016.171825  1  7A6  Rx    d 8 2B 3E 05 00 00 42 01 32
02016.174832  1  7A6  Rx    d 8 2C 63 37 01 00 63 07 05
02016.177840  1  7A6  Rx    d 8 2D 00 09 32 00 4A 80 FF
02016.180831  1  7A6  Rx    d 8 2E 92 07 7A 57 05 00 41
02016.183830  1  7A6  Rx    d 8 2F EA 9D 00 9C 4F 01 00
02016.186870  1  7A6  Rx    d 8 20 E9 E9 00 00 00 00 00
02016.190117  1  7AE  Rx    d 8 01 76 00 00 00 00 00 00
02016.225252  1  7A6  Rx    d 8 10 E1 36 A1 ED 3B 47 29
02016.226276  1  7AE  Rx    d 8 30 00 01 00 00 00 00 00
02016.227868  1  7A6  Rx    d 8 21 00 3C 3E 01 00 5F 42
02016.230836  1  7A6  Rx    d 8 22 08 30 80 FF 3C 02 7B
02016.233851  1  7A6  Rx    d 8 23 57 04 00 BC 5F 01 00
02016.236834  1  7A6  Rx    d 8 24 E0 59 CA 05 01 32 5C
02016.239849  1  7A6  Rx    d 8 25 37 01 00 7C 07 44 00
02016.242833  1  7A6  Rx    d 8 26 1E 30 03 F0 0A D5 08
02016.245840  1  7A6  Rx    d 8 27 DD 06 E5 04 ED 0C FD
02016.248856  1  7A6  Rx    d 8 28 03 1E 1C 00 06 F0 7F
02016.251863  1  7A6  Rx    d 8 29 00 54 1A 63 FF 09 00
02016.254846  1  7A6  Rx    d 8 2A 63 EF 05 00 40 56 00
02016.257854  1  7A6  Rx    d 8 2B 00 2A 57 81 E9 40 0E
02016.260852  1  7A6  Rx    d 8 2C 00 00 2A 57 31 00 06
02016.263820  1  7A6  Rx    d 8 2D E8 EA 57 01 00 61 57
02016.267075  1  7A6  Rx    d 8 2E CC E9 1E 30 1D F0 04
02016.270936  1  7A6  Rx    d 8 2F 4D 06 45 0F 4D 82 04
02016.273830  1  7A6  Rx    d 8 20 E0 41 06 F0 E2 4D 3D
02016.276854  1  7A6  Rx    d 8 21 37 29 00 3D 3F 09 00
02016.279830  1  7A6  Rx    d 8 22 5F 32 E7 31 D1 05 01
02016.282845  1  7A6  Rx    d 8 23 32 7D 37 04 00 B5 45
02016.285860  1  7A6  Rx    d 8 24 07 30 23 3E 02 00 80
02016.288868  1  7A6  Rx    d 8 25 FF BA 01 7D 57 04 00
02016.291819  1  7A6  Rx    d 8 26 CA 00 E0 51 9A 3D 3D
02016.294875  1  7A6  Rx    d 8 27 5F 09 00 3D 67 0D 00
02016.297954  1  7A6  Rx    d 8 28 23 3E 03 00 CB 61 0C
02016.300856  1  7A6  Rx    d 8 29 36 FF FF 80 FF 9A 01
02016.303862  1  7A6  Rx    d 8 2A 7D 57 04 00 CA 00 E0
02016.306836  1  7A6  Rx    d 8 2B 51 9A 2D 83 4F 03 00
02016.309852  1  7A6  Rx    d 8 2C 40 46 00 00 A8 47 85
02016.312811  1  7A6  Rx    d 8 2D E9 E8 49 9B 1D 3D 47
02016.315834  1  7A6  Rx    d 8 2E 29 00 40 36 00 00 26
02016.318913  1  7A6  Rx    d 8 2F 37 8D E9 08 3E FF FF
02016.321880  1  7A6  Rx    d 8 20 E6 39 00 00 00 00 00
02016.324111  1  7AE  Rx    d 8 01 76 00 00 00 00 00 00
02016.350674  1  7A6  Rx    d 8 10 E1 36 9B D5 08 30 80
02016.351697  1  7AE  Rx    d 8 30 00 01 00 00 00 00 00
02016.352873  1  7A6  Rx    d 8 21 FF DA 01 E0 51 CA CD
02016.355840  1  7A6  Rx    d 8 22 02 32 43 37 02 00 A3
02016.358839  1  7A6  Rx    d 8 23 67 03 00 62 62 B9 05
02016.361830  1  7A6  Rx    d 8 24 A5 0D B5 C5 83 37 03
02016.364894  1  7A6  Rx    d 8 25 00 A3 3F 03 00 80 FF
02016.367869  1  7A6  Rx    d 8 26 C2 00 7D 57 04 00 23
02016.370883  1  7A6  Rx    d 8 27 EF 05 00 23 FF 09 00
02016.373843  1  7A6  Rx    d 8 28 4C 1A 7F 00 58 1A 63
02016.376874  1  7A6  Rx    d 8 29 FF 05 00 63 EF 01 00
02016.379874  1  7A6  Rx    d 8 2A 06 E8 7D 07 04 00 40
02016.382849  1  7A6  Rx    d 8 2B 56 00 00 2A 57 81 E9
02016.385856  1  7A6  Rx    d 8 2C 2A 57 31 00 40 0E 00
02016.388942  1  7A6  Rx    d 8 2D 00 EA 57 01 00 61 57
02016.391821  1  7A6  Rx    d 8 2E CC E9 3D 47 0D 00 E0
02016.394852  1  7A6  Rx    d 8 2F 41 92 0D 3D 3F 09 00
02016.397860  1  7A6  Rx    d 8 20 3D 37 11 00 80 FF 24
02016.400883  1  7A6  Rx    d 8 21 02 7D 57 04 00 23 EF
02016.403874  1  7A6  Rx    d 8 22 01 00 23 FF 05 00 48
02016.406866  1  7A6  Rx    d 8 23 1A 7F 00 01 3A 66 3F
02016.409882  1  7A6  Rx    d 8 24 04 00 40 66 00 00 EC
02016.412850  1  7A6  Rx    d 8 25 67 C9 E9 E0 61 BA 05
02016.415865  1  7A6  Rx    d 8 26 66 07 04 00 7F 00 58
02016.418912  1  7A6  Rx    d 8 27 1A 63 FF 05 00 63 EF
02016.421879  1  7A6  Rx    d 8 28 01 00 40 56 00 00 2A
02016.424870  1  7A6  Rx    d 8 29 57 81 E9 40 0E 00 00
02016.427870  1  7A6  Rx    d 8 2A 2A 57 31 00 40 4E 00
02016.430862  1  7A6  Rx    d 8 2B 00 EA 57 01 00 61 57
02016.433861  1  7A6  Rx    d 8 2C CC E9 06 E8 89 4F 85
02016.436868  1  7A6  Rx    d 8 2D E9 09 46 FF FF 08 38
02016.439866  1  7A6  Rx    d 8 2E 87 00 00 32 80 FF 6A
02016.442882  1  7A6  Rx    d 8 2F 03 7D 57 04 00 23 FF
02016.445914  1  7A6  Rx    d 8 20 05 00 00 00 00 00 00
02016.448999  1  7AE  Rx    d 8 01 76 00 00 00 00 00 00
02016.491554  1  7A6  Rx    d 8 10 E1 36 23 EF 01 00 48
02016.492577  1  7AE  Rx    d 8 30 00 01 00 00 00 00 00
02016.493865  1  7A6  Rx    d 8 21 1A 7F 00 03 1E EC FF
02016.497759  1  7A6  Rx    d 8 22 63 FF 11 00 63 E7 0D
02016.501468  1  7A6  Rx    d 8 23 00 63 EF 09 00 07 E0
02016.504386  1  7A6  Rx    d 8 24 9C 00 86 00 06 E8 85
02016.506866  1  7A6  Rx    d 8 25 2D 1D 38 01 5A E7 5F
02016.509888  1  7A6  Rx    d 8 26 C0 00 26 06 84 E9 FF
02016.512872  1  7A6  Rx    d 8 27 FF E6 4F 45 00 0B 49
02016.515855  1  7A6  Rx    d 8 28 66 4F 44 00 01 52 63
02016.518893  1  7A6  Rx    d 8 29 57 01 00 63 57 05 00
02016.521901  1  7A6  Rx    d 8 2A 03 32 00 40 00 4A 80
02016.524876  1  7A6  Rx    d 8 2B FF 76 05 E0 51 B2 05
02016.527844  1  7A6  Rx    d 8 2C 01 62 95 15 62 EA B2
02016.530867  1  7A6  Rx    d 8 2D 05 63 EA 8A 0D 1D 48
02016.533898  1  7A6  Rx    d 8 2E 09 30 01 3A 80 FF 98
02016.537009  1  7A6  Rx    d 8 2F 02 E0 51 CA F5 41 EA
02016.539872  1  7A6  Rx    d 8 20 9D 00 00 62 FC E9 F3
02016.542880  1  7A6  Rx    d 8 21 D5 23 E7 0D 00 23 FF
02016.545879  1  7A6  Rx    d 8 22 11 00 23 EF 09 00 0C
02016.548902  1  7A6  Rx    d 8 23 50 03 1E 14 00 7F 00
02016.551877  1  7A6  Rx    d 8 24 03 1E EC FF 1E 40 03
02016.554900  1  7A6  Rx    d 8 25 F0 07 D5 09 FD 05 DD
02016.557892  1  7A6  Rx    d 8 26 01 ED 03 E5 07 D0 08
02016.560907  1  7A6  Rx    d 8 27 F0 40 E6 00 00 9C 57
02016.563842  1  7A6  Rx    d 8 28 85 E9 3C E6 84 E9 C2
02016.566858  1  7A6  Rx    d 8 29 52 DC 51 2A 47 01 00
02016.570870  1  7A6  Rx    d 8 2A 06 D8 E8 D9 B3 05 01
02016.573853  1  7A6  Rx    d 8 2B 52 E5 15 00 EA F5 0D
02016.576876  1  7A6  Rx    d 8 2C 80 FF F4 07 1D 38 C2
02016.579868  1  7A6  Rx    d 8 2D 3A DC 39 27 57 05 00
02016.582875  1  7A6  Rx    d 8 2E EA D9 CB 05 5A EF 00
02016.585898  1  7A6  Rx    d 8 2F 00 F5 05 41 EA 9D 00
02016.588921  1  7A6  Rx    d 8 20 9C 47 00 00 00 00 00
02016.592104  1  7AE  Rx    d 8 01 76 00 00 00 00 00 00
02016.619700  1  7A6  Rx    d 8 10 E1 36 01 00 E8 E9 F1
02016.620723  1  7AE  Rx    d 8 30 00 01 00 00 00 00 00
02016.621914  1  7A6  Rx    d 8 21 ED 00 52 1E 30 03 F0
02016.624890  1  7A6  Rx    d 8 22 06 D5 04 DD 02 E5 00
02016.627898  1  7A6  Rx    d 8 23 ED 08 FD 03 1E 14 00
02016.630895  1  7A6  Rx    d 8 24 06 F0 7F 00 03 1E DC
02016.633894  1  7A6  Rx    d 8 25 FF 1E 38 03 F0 11 FD
02016.636870  1  7A6  Rx    d 8 26 0F CD 0D D5 0B DD 09
02016.642425  1  7A6  Rx    d 8 27 E5 07 ED 40 D6 00 00
02016.644880  1  7A6  Rx    d 8 28 3A 67 89 E9 05 35 3A
02016.647888  1  7A6  Rx    d 8 29 D6 88 E9 07 F0 41 62
02016.650869  1  7A6  Rx    d 8 2A EC 31 D1 05 3A EF 01
02016.653900  1  7A6  Rx    d 8 2B 00 41 EA B5 05 23 EF
02016.656924  1  7A6  Rx    d 8 2C 09 00 3A E7 05 00 00
02016.659892  1  7A6  Rx    d 8 2D CA 41 E2 02 DA 01 32
02016.662883  1  7A6  Rx    d 8 2E 63 37 01 00 63 37 05
02016.665898  1  7A6  Rx    d 8 2F 00 1B 38 03 32 00 42
02016.669888  1  7A6  Rx    d 8 20 00 4A 80 FF 70 04 8A
02016.672888  1  7A6  Rx    d 8 21 00 E0 51 BA 1D E0 E9
02016.675887  1  7A6  Rx    d 8 22 92 15 19 30 1C 38 1D
02016.678910  1  7A6  Rx    d 8 23 40 80 FF 10 01 E0 51
02016.681882  1  7A6  Rx    d 8 24 AA 15 3A CF 01 00 3A
02016.684890  1  7A6  Rx    d 8 25 E7 09 00 41 CA 23 6F
02016.687898  1  7A6  Rx    d 8 26 09 00 41 E2 8D E9 1B
02016.690896  1  7A6  Rx    d 8 27 48 89 00 09 30 00 3A
02016.693904  1  7A6  Rx    d 8 28 80 FF 76 01 E0 51 B2
02016.696895  1  7A6  Rx    d 8 29 05 01 52 F5 05 41 DA
02016.700764  1  7A6  Rx    d 8 2A 64 DA C1 D5 80 FF 7C
02016.703715  1  7A6  Rx    d 8 2B 05 00 52 1E 30 03 F0
02016.706664  1  7A6  Rx    d 8 2C 0E CD 0C D5 0A DD 08
02016.709616  1  7A6  Rx    d 8 2D E5 06 ED 10 FD 03 1E
02016.712566  1  7A6  Rx    d 8 2E 24 00 06 F0 7F 00 03
02016.715499  1  7A6  Rx    d 8 2F 1E E0 FF 1E 50 03 F0
02016.717947  1  7A6  Rx    d 8 20 07 ED 00 00 00 00 00
02016.720097  1  7AE  Rx    d 8 01 76 00 00 00 00 00 00
02016.745918  1  7A6  Rx    d 8 10 E1 36 0D D5 0B DD 09
02016.747894  1  7AE  Rx    d 8 30 00 01 00 00 00 00 00
02016.749813  1  7A6  Rx    d 8 21 E5 0F FD 06 D0 0A F0
02016.751925  1  7A6  Rx    d 8 22 07 D8 08 E0 80 FF E6
02016.754908  1  7A6  Rx    d 8 23 06 1B 30 23 3E 0A 00
02016.757908  1  7A6  Rx    d 8 24 BF FF B0 FE 1C 60 DB
02016.760907  1  7A6  Rx    d 8 25 61 0C 36 FF FF 23 3E
02016.763938  1  7A6  Rx    d 8 26 0B 00 BF FF A0 FE 83
02016.766882  1  7A6  Rx    d 8 27 47 0B 00 E5 0D 26 06
02016.769919  1  7A6  Rx    d 8 28 84 E9 FF FF E6 3F 45
02016.772926  1  7A6  Rx    d 8 29 00 01 4A E8 4F C0 00
02016.775918  1  7A6  Rx    d 8 2A 09 39 66 3F 44 00 41
02016.778909  1  7A6  Rx    d 8 2B 42 C8 00 A3 67 0B 00
02016.781916  1  7A6  Rx    d 8 2C EC 41 83 F5 1C 06 FF
02016.784932  1  7A6  Rx    d 8 2D FE C9 05 20 EE 00 01
02016.787900  1  7A6  Rx    d 8 2E B5 05 1C E8 DD 00 1B
02016.790908  1  7A6  Rx    d 8 2F 38 1A 40 1D 48 01 32
02016.793915  1  7A6  Rx    d 8 20 63 37 05 00 63 37 01
02016.796906  1  7A6  Rx    d 8 21 00 A2 4A 04 32 80 FF
02016.799922  1  7A6  Rx    d 8 22 86 03 E0 51 92 0D 40
02016.802929  1  7A6  Rx    d 8 23 4E 00 00 29 4F 81 E9
02016.805912  1  7A6  Rx    d 8 24 01 52 69 DF 1D 00 F5
02016.808911  1  7A6  Rx    d 8 25 05 BD E1 DD D1 DD D9
02016.811894  1  7A6  Rx    d 8 26 E0 E1 EA DD 00 52 1E
02016.814950  1  7A6  Rx    d 8 27 30 03 F0 0C D5 0A DD
02016.817909  1  7A6  Rx    d 8 28 08 E5 06 ED 0E FD 03
02016.820924  1  7A6  Rx    d 8 29 1E 20 00 06 F0 7F 00
02016.823916  1  7A6  Rx    d 8 2A 03 1E C8 FF 1E 48 03
02016.826915  1  7A6  Rx    d 8 2B F0 13 E5 17 D5 19 CD
02016.829906  1  7A6  Rx    d 8 2C 11 ED 15 DD 1B FD 06
02016.832930  1  7A6  Rx    d 8 2D D0 09 F0 07 C8 08 D8
02016.835928  1  7A6  Rx    d 8 2E 1B E8 1D 06 DF FF C9
02016.839862  1  7A6  Rx    d 8 2F 05 20 E6 20 00 A5 05
02016.841965  1  7A6  Rx    d 8 20 1D E0 00 00 00 00 00
02016.844101  1  7AE  Rx    d 8 01 76 00 00 00 00 00 00
02016.871784  1  7A6  Rx    d 8 10 E1 36 80 FF 16 06 00
02016.872807  1  7AE  Rx    d 8 30 00 01 00 00 00 00 00
02016.873950  1  7A6  Rx    d 8 21 5A F5 0D 0B 50 C2 52
02016.876878  1  7A6  Rx    d 8 22 1B 38 DA 39 BD 39 0B
02016.878878  1  7A6  Rx    d 8 23 30 C2 32 C7 31 26 4F
02016.880901  1  7A6  Rx    d 8 24 01 00 C3 51 6A 4F 01
02016.883917  1  7A6  Rx    d 8 25 00 41 5A 1C 40 82 42
02016.886940  1  7A6  Rx    d 8 26 E8 59 F1 ED 80 FF EA
02016.890586  1  7A6  Rx    d 8 27 05 03 30 1B 38 D9 39
02016.892914  1  7A6  Rx    d 8 28 BD 39 1C 40 BF FF DC
02016.895897  1  7A6  Rx    d 8 29 FE BC E9 9A DD 1E 30
02016.899046  1  7A6  Rx    d 8 2A 03 F0 18 CD 1A FD 10
02016.901900  1  7A6  Rx    d 8 2B ED 12 E5 14 DD 16 D5
02016.904937  1  7A6  Rx    d 8 2C 00 52 06 F0 03 1E 38
02016.907936  1  7A6  Rx    d 8 2D 00 7F 00 03 1E EC FF
02016.910928  1  7A6  Rx    d 8 2E 1E 48 03 F0 05 ED 07
02016.913943  1  7A6  Rx    d 8 2F E5 06 E8 9D 00 07 E0
02016.916950  1  7A6  Rx    d 8 20 9C 00 01 32 01 35 00
02016.919926  1  7A6  Rx    d 8 21 42 09 32 03 05 09 FD
02016.922941  1  7A6  Rx    d 8 22 03 3A 09 F0 00 4A 80
02016.925932  1  7A6  Rx    d 8 23 FF 9E 02 C1 52 1C 30
02016.928931  1  7A6  Rx    d 8 24 0A 31 1D 38 80 FF 90
02016.931938  1  7A6  Rx    d 8 25 03 E0 51 BA 0D 1D 48
02016.934946  1  7A6  Rx    d 8 26 09 30 1D 40 08 38 80
02016.938929  1  7A6  Rx    d 8 27 FF 20 00 E0 51 BA 05
02016.941928  1  7A6  Rx    d 8 28 00 52 A5 05 01 52 23
02016.944928  1  7A6  Rx    d 8 29 E7 0D 00 23 EF 09 00
02016.947927  1  7A6  Rx    d 8 2A 23 FF 11 00 03 1E 14
02016.950942  1  7A6  Rx    d 8 2B 00 7F 00 03 1E E8 FF
02016.953958  1  7A6  Rx    d 8 2C 1E 40 03 F0 07 E5 09
02016.956926  1  7A6  Rx    d 8 2D DD 05 ED 0B FD 07 D8
02016.959933  1  7A6  Rx    d 8 2E 08 F0 9B 00 86 00 06
02016.962932  1  7A6  Rx    d 8 2F E8 E5 25 01 E2 40 3E
02016.966012  1  7A6  Rx    d 8 20 00 00 00 00 00 00 00
02016.969921  1  7AE  Rx    d 8 01 76 00 00 00 00 00 00
02016.999486  1  7A6  Rx    d 8 10 E1 36 27 3F C8 E9 FD
02017.000509  1  7AE  Rx    d 8 30 00 01 00 00 00 00 00
02017.001964  1  7A6  Rx    d 8 21 E7 C0 00 5C 39 C7 00
02017.004908  1  7A6  Rx    d 8 22 E0 39 92 1D 01 32 63
02017.007931  1  7A6  Rx    d 8 23 37 01 00 63 37 05 00
02017.010955  1  7A6  Rx    d 8 24 1D 38 06 32 00 42 00
02017.013938  1  7A6  Rx    d 8 25 4A 80 FF 1E 02 E0 51
02017.016938  1  7A6  Rx    d 8 26 B2 05 01 52 F5 0D 3C
02017.019944  1  7A6  Rx    d 8 27 58 26 06 84 E9 FF FF
02017.022912  1  7A6  Rx    d 8 28 E6 57 45 00 4B 51 66
02017.025944  1  7A6  Rx    d 8 29 57 44 00 41 EA 9D 00
02017.028934  1  7A6  Rx    d 8 2A FB E9 A3 DD 00 52 1E
02017.031957  1  7A6  Rx    d 8 2B 30 03 F0 08 DD 06 E5
02017.034932  1  7A6  Rx    d 8 2C 04 ED 0A FD 03 1E 18
02017.038931  1  7A6  Rx    d 8 2D 00 06 F0 7F 00 FF FF
02017.041995  1  7A6  Rx    d 8 2E FF FF FF FF FF FF FF
02017.045010  1  7A6  Rx    d 8 2F FF FF FF FF FF FF FF
02017.048961  1  7A6  Rx    d 8 20 FF FF FF FF FF FF FF
02017.052000  1  7A6  Rx    d 8 21 FF FF FF FF FF FF FF
02017.055008  1  7A6  Rx    d 8 22 FF FF FF FF FF FF FF
02017.057991  1  7A6  Rx    d 8 23 FF FF FF FF FF FF FF
02017.060991  1  7A6  Rx    d 8 24 FF FF FF FF FF FF FF
02017.063990  1  7A6  Rx    d 8 25 FF FF FF FF FF FF FF
02017.066998  1  7A6  Rx    d 8 26 FF FF FF FF FF FF FF
02017.070004  1  7A6  Rx    d 8 27 FF FF FF FF FF FF FF
02017.073003  1  7A6  Rx    d 8 28 FF FF FF FF FF FF FF
02017.075979  1  7A6  Rx    d 8 29 FF FF FF 54 1A 63 FF
02017.078946  1  7A6  Rx    d 8 2A 09 00 63 EF 01 00 63
02017.081970  1  7A6  Rx    d 8 2B E7 05 00 40 EE 00 00
02017.084929  1  7A6  Rx    d 8 2C DD 07 38 EA 3D EE 38
02017.088008  1  7A6  Rx    d 8 2D EA 06 E0 07 30 20 3E
02017.090959  1  7A6  Rx    d 8 2E 10 27 80 FF 02 03 40
02017.093950  1  7A6  Rx    d 8 2F 0E 00 00 61 57 80 EA
02017.097006  1  7A6  Rx    d 8 20 00 32 00 00 00 00 00
02017.100939  1  7AE  Rx    d 8 01 76 00 00 00 00 00 00
02017.143500  1  7A6  Rx    d 8 10 E1 36 06 58 C1 5A DD
02017.144524  1  7AE  Rx    d 8 30 00 01 00 00 00 00 00
02017.145956  1  7A6  Rx    d 8 21 59 6B 07 04 00 06 38
02017.148938  1  7A6  Rx    d 8 22 C2 3A DD 39 67 07 19
02017.151954  1  7A6  Rx    d 8 23 00 41 32 6A 32 C1 F5
02017.154978  1  7A6  Rx    d 8 24 29 06 08 EE FF FF 7D
02017.157969  1  7A6  Rx    d 8 25 4F 19 00 7D E7 04 00
02017.160992  1  7A6  Rx    d 8 26 23 FF 09 00 23 EF 01
02017.163968  1  7A6  Rx    d 8 27 00 23 E7 05 00 4C 1A
02017.166999  1  7A6  Rx    d 8 28 7F 00 FF FF FF FF FF
02017.170939  1  7A6  Rx    d 8 29 FF FF FF FF FF FF FF
02017.174027  1  7A6  Rx    d 8 2A FF FF FF FF FF FF FF
02017.177010  1  7A6  Rx    d 8 2B FF FF FF FF FF FF FF
02017.180018  1  7A6  Rx    d 8 2C FF FF FF FF FF FF FF
02017.183017  1  7A6  Rx    d 8 2D FF FF FF FF FF FF FF
02017.186016  1  7A6  Rx    d 8 2E FF FF FF FF FF FF FF
02017.189032  1  7A6  Rx    d 8 2F FF FF FF FF FF FF FF
02017.192706  1  7A6  Rx    d 8 20 FF FF FF FF FF FF FF
02017.195010  1  7A6  Rx    d 8 21 FF FF FF FF FF FF FF
02017.198152  1  7A6  Rx    d 8 22 FF FF FF FF FF FF FF
02017.201150  1  7A6  Rx    d 8 23 FF 54 1A 63 FF 09 00
02017.204132  1  7A6  Rx    d 8 24 63 EF 05 00 80 FF 90
02017.206956  1  7A6  Rx    d 8 25 02 0A E8 80 47 D5 F8
02017.209971  1  7A6  Rx    d 8 26 88 46 02 00 20 36 D4
02017.212994  1  7A6  Rx    d 8 27 F8 20 3E D0 F8 80 FF
02017.215978  1  7A6  Rx    d 8 28 9A 02 80 FF AE 03 E0
02017.219783  1  7A6  Rx    d 8 29 51 D2 FD 40 3E 00 00
02017.221942  1  7A6  Rx    d 8 2A E7 3F 81 EA 2A 06 38
02017.224982  1  7A6  Rx    d 8 2B EA FF FF 63 57 01 00
02017.228915  1  7A6  Rx    d 8 2C 00 32 00 42 00 4A 80
02017.230962  1  7A6  Rx    d 8 2D FF 1E 03 1D 30 80 FF
02017.233986  1  7A6  Rx    d 8 2E 6A 02 80 FF 84 03 E0
02017.236962  1  7A6  Rx    d 8 2F 51 D2 FD 2C 06 38 EA
02017.240040  1  7A6  Rx    d 8 20 FF FF 00 00 00 00 00
02017.242088  1  7AE  Rx    d 8 01 76 00 00 00 00 00 00
02017.287075  1  7A6  Rx    d 8 10 E1 36 63 67 01 00 0E
02017.289058  1  7AE  Rx    d 8 30 00 01 00 00 00 00 00
02017.290161  1  7A6  Rx    d 8 21 32 00 3A 00 42 00 4A
02017.292977  1  7A6  Rx    d 8 22 80 FF FA 02 23 EF 05
02017.296000  1  7A6  Rx    d 8 23 00 23 FF 09 00 4C 1A
02017.299183  1  7A6  Rx    d 8 24 7F 00 54 1A 63 FF 09
02017.302029  1  7A6  Rx    d 8 25 00 63 EF 05 00 80 FF
02017.304979  1  7A6  Rx    d 8 26 18 02 0A E8 80 FF 4A
02017.307987  1  7A6  Rx    d 8 27 03 E0 51 D2 FD 2C 06
02017.310994  1  7A6  Rx    d 8 28 38 EA FF FF 63 67 01
02017.314002  1  7A6  Rx    d 8 29 00 00 32 00 3A 00 42
02017.317009  1  7A6  Rx    d 8 2A 00 4A 80 FF C0 02 80
02017.319984  1  7A6  Rx    d 8 2B 47 D5 F8 C8 46 FD 00
02017.322991  1  7A6  Rx    d 8 2C 20 36 D4 F8 20 3E D0
02017.326006  1  7A6  Rx    d 8 2D F8 80 FF 04 02 40 3E
02017.328998  1  7A6  Rx    d 8 2E 00 00 E7 3F 81 EA 20
02017.331997  1  7A6  Rx    d 8 2F 36 90 01 80 FF B6 01
02017.334996  1  7A6  Rx    d 8 20 1D 30 80 FF E8 01 23
02017.340001  1  7A6  Rx    d 8 21 EF 05 00 23 FF 09 00
02017.342985  1  7A6  Rx    d 8 22 4C 1A 7F 00 03 1E DC
02017.346016  1  7A6  Rx    d 8 23 FF 1E 50 03 F0 07 ED
02017.348967  1  7A6  Rx    d 8 24 11 FD 0D D5 0F CD 0B
02017.351966  1  7A6  Rx    d 8 25 DD 09 E5 06 D0 05 4D
02017.354998  1  7A6  Rx    d 8 26 03 45 07 C8 0A F0 BF
02017.358005  1  7A6  Rx    d 8 27 FF 06 FF 0A E0 E0 E1
02017.360988  1  7A6  Rx    d 8 28 9A 55 40 5E 00 00 2B
02017.363988  1  7A6  Rx    d 8 29 5F 81 E9 2B 5F 2D 00
02017.366987  1  7A6  Rx    d 8 2A 04 32 4B 37 00 00 E0
02017.369994  1  7A6  Rx    d 8 2B 87 60 01 80 EF D5 F8
02017.372978  1  7A6  Rx    d 8 2C DD EE F7 00 80 FF 78
02017.375993  1  7A6  Rx    d 8 2D 01 0A D8 1D 40 20 36
02017.379008  1  7A6  Rx    d 8 2E D4 F8 20 3E D0 F8 80
02017.382016  1  7A6  Rx    d 8 2F FF 88 01 1B 30 80 FF
02017.385046  1  7A6  Rx    d 8 20 7C 01 00 00 00 00 00
02017.388086  1  7AE  Rx    d 8 01 76 00 00 00 00 00 00
02017.431413  1  7A6  Rx    d 8 10 E1 36 1A 30 2C 06 38
02017.432436  1  7AE  Rx    d 8 30 00 01 00 00 00 00 00
02017.433996  1  7A6  Rx    d 8 21 EA FF FF 63 67 01 00
02017.436987  1  7A6  Rx    d 8 22 23 47 05 00 23 4F 09
02017.440018  1  7A6  Rx    d 8 23 00 19 38 80 FF 10 02
02017.442986  1  7A6  Rx    d 8 24 0A E0 E0 E1 CA 15 23
02017.445978  1  7A6  Rx    d 8 25 77 29 00 61 72 8A 15
02017.449001  1  7A6  Rx    d 8 26 2B 06 38 EA FF FF 63
02017.452016  1  7A6  Rx    d 8 27 5F 01 00 0B 32 00 3A
02017.455024  1  7A6  Rx    d 8 28 00 42 00 4A 80 FF EC
02017.458798  1  7A6  Rx    d 8 29 01 0A E0 1C 06 01 FF
02017.460989  1  7A6  Rx    d 8 2A A2 F5 80 EF D5 F8 9D
02017.464036  1  7A6  Rx    d 8 2B EE 08 00 80 FF 10 01
02017.466996  1  7A6  Rx    d 8 2C 0A D8 1D 40 20 36 D4
02017.470896  1  7A6  Rx    d 8 2D F8 20 3E D0 F8 80 FF
02017.472984  1  7A6  Rx    d 8 2E 20 01 1B 30 80 FF 14
02017.476039  1  7A6  Rx    d 8 2F 01 E0 07 60 01 BF FF
02017.479022  1  7A6  Rx    d 8 20 D0 FE 40 46 00 00 28
02017.481998  1  7A6  Rx    d 8 21 47 81 E9 28 47 2D 00
02017.485014  1  7A6  Rx    d 8 22 20 36 47 00 48 37 00
02017.488029  1  7A6  Rx    d 8 23 00 1C 50 1E 30 03 F0
02017.490988  1  7A6  Rx    d 8 24 0E CD 0C D5 0A DD 08
02017.494012  1  7A6  Rx    d 8 25 E5 06 ED 10 FD 03 1E
02017.497036  1  7A6  Rx    d 8 26 24 00 06 F0 7F 00 03
02017.500905  1  7A6  Rx    d 8 27 1E EC FF 1E 48 03 F0
02017.503823  1  7A6  Rx    d 8 28 05 ED 00 42 06 E8 03
02017.506014  1  7A6  Rx    d 8 29 05 07 E5 09 FD 07 E0
02017.509244  1  7A6  Rx    d 8 2A 01 3A 01 3D 09 32 09
02017.512028  1  7A6  Rx    d 8 2B F0 00 4A BF FF E2 FE
02017.515028  1  7A6  Rx    d 8 2C 8A 52 81 52 B1 05 05
02017.518818  1  7A6  Rx    d 8 2D 52 C5 0D 1C 38 01 32
02017.520994  1  7A6  Rx    d 8 2E 63 37 01 00 63 37 05
02017.524024  1  7A6  Rx    d 8 2F 00 1D 40 0A 32 00 4A
02017.527064  1  7A6  Rx    d 8 20 BF FF 00 00 00 00 00
02017.530086  1  7AE  Rx    d 8 01 76 00 00 00 00 00 00
02017.571296  1  7A6  Rx    d 8 10 E1 36 C2 FE 23 E7 0D
02017.572319  1  7AE  Rx    d 8 30 00 01 00 00 00 00 00
02017.574031  1  7A6  Rx    d 8 21 00 23 EF 09 00 23 FF
02017.577030  1  7A6  Rx    d 8 22 11 00 03 1E 14 00 7F
02017.580030  1  7A6  Rx    d 8 23 00 54 1A 63 FF 09 00
02017.583037  1  7A6  Rx    d 8 24 01 3A 63 3F 01 00 00
02017.586988  1  7A6  Rx    d 8 25 42 63 07 05 00 09 32
02017.590034  1  7A6  Rx    d 8 26 00 4A BF FF 96 FE 8C
02017.593010  1  7A6  Rx    d 8 27 52 81 52 B1 05 05 52
02017.596018  1  7A6  Rx    d 8 28 B5 0D 00 3A 63 07 01
02017.599033  1  7A6  Rx    d 8 29 00 63 07 05 00 0C 32
02017.602032  1  7A6  Rx    d 8 2A 00 42 00 4A BF FF 78
02017.605032  1  7A6  Rx    d 8 2B FE 23 FF 09 00 4C 1A
02017.608879  1  7A6  Rx    d 8 2C 7F 00 47 30 06 50 7F
02017.611022  1  7A6  Rx    d 8 2D 00 E7 30 06 50 7F 00
02017.614022  1  7A6  Rx    d 8 2E EA 3F 42 02 E6 3F 22
02017.617037  1  7A6  Rx    d 8 2F 02 8D 3A 00 00 00 00
02017.620075  1  7A6  Rx    d 8 20 07 3E FF FF 00 00 00
02017.623074  1  7A6  Rx    d 8 21 00 00 00 00 00 8F FD
02017.626026  1  7A6  Rx    d 8 22 7F 00 5C 1A 63 A7 01
02017.629033  1  7A6  Rx    d 8 23 00 E5 57 40 00 20 A6
02017.632032  1  7A6  Rx    d 8 24 A0 00 F4 2F 20 00 23
02017.635032  1  7A6  Rx    d 8 25 A7 01 00 44 1A 7F 00
02017.638870  1  7A6  Rx    d 8 26 E6 2F 20 00 7F 00 58
02017.643194  1  7A6  Rx    d 8 27 1A 63 A7 01 00 63 AF
02017.646025  1  7A6  Rx    d 8 28 05 00 28 A0 20 AE A5
02017.649024  1  7A6  Rx    d 8 29 00 47 AF 00 00 46 47
02017.652047  1  7A6  Rx    d 8 2A 00 00 46 A7 00 00 46
02017.655030  1  7A6  Rx    d 8 2B 47 00 00 23 A7 01 00
02017.658030  1  7A6  Rx    d 8 2C 23 AF 05 00 48 1A 7F
02017.661037  1  7A6  Rx    d 8 2D 00 03 1E CC FF 63 17
02017.664037  1  7A6  Rx    d 8 2E 01 00 63 2F 05 00 63
02017.667013  1  7A6  Rx    d 8 2F 37 09 00 63 3F 0D 00
02017.670074  1  7A6  Rx    d 8 20 63 47 00 00 00 00 00
02017.672081  1  7AE  Rx    d 8 01 76 00 00 00 00 00 00
02017.700172  1  7A6  Rx    d 8 10 E1 36 11 00 63 4F 15
02017.706012  1  7AE  Rx    d 8 30 00 01 00 00 00 00 00
02017.711864  1  7A6  Rx    d 8 21 00 63 5F 19 00 63 67
02017.714806  1  7A6  Rx    d 8 22 1D 00 63 6F 21 00 63
02017.717660  1  7A6  Rx    d 8 23 77 25 00 63 EF 29 00
02017.720546  1  7A6  Rx    d 8 24 63 F7 2D 00 E5 67 40
02017.723025  1  7A6  Rx    d 8 25 00 63 67 31 00 7F 00
02017.726016  1  7A6  Rx    d 8 26 23 67 31 00 EC 2F 20
02017.729056  1  7A6  Rx    d 8 27 00 23 17 01 00 23 2F
02017.732055  1  7A6  Rx    d 8 28 05 00 23 37 09 00 23
02017.735047  1  7A6  Rx    d 8 29 3F 0D 00 23 47 11 00
02017.738853  1  7A6  Rx    d 8 2A 23 4F 15 00 23 5F 19
02017.741045  1  7A6  Rx    d 8 2B 00 23 67 1D 00 23 6F
02017.744036  1  7A6  Rx    d 8 2C 21 00 23 77 25 00 23
02017.747036  1  7A6  Rx    d 8 2D EF 29 00 23 F7 2D 00
02017.750051  1  7A6  Rx    d 8 2E 03 1E 34 00 7F 00 03
02017.753058  1  7A6  Rx    d 8 2F 1E FC FF 63 FF 01 00
02017.756058  1  7A6  Rx    d 8 20 BF FF 7C FF 23 F7 39
02017.759081  1  7A6  Rx    d 8 21 00 FF 07 00 01 BF FF
02017.762056  1  7A6  Rx    d 8 22 AE FF 23 FF 01 00 03
02017.765096  1  7A6  Rx    d 8 23 1E 04 00 7F 00 03 1E
02017.770812  1  7A6  Rx    d 8 24 E4 FF 63 FF 01 00 63
02017.773028  1  7A6  Rx    d 8 25 CF 05 00 63 D7 09 00
02017.776043  1  7A6  Rx    d 8 26 63 DF 0D 00 63 E7 11
02017.779026  1  7A6  Rx    d 8 27 00 63 0F 15 00 63 57
02017.782058  1  7A6  Rx    d 8 28 19 00 BF FF 42 FF 80
02017.785073  1  7A6  Rx    d 8 29 FF 64 00 BF FF 78 FF
02017.788049  1  7A6  Rx    d 8 2A 23 FF 01 00 23 CF 05
02017.791056  1  7A6  Rx    d 8 2B 00 23 D7 09 00 23 DF
02017.795007  1  7A6  Rx    d 8 2C 0D 00 23 E7 11 00 23
02017.798038  1  7A6  Rx    d 8 2D 0F 15 00 23 57 19 00
02017.801054  1  7A6  Rx    d 8 2E 03 1E 1C 00 7F 00 5C
02017.804061  1  7A6  Rx    d 8 2F 1A 63 FF 01 00 40 36
02017.807125  1  7A6  Rx    d 8 20 00 00 00 00 00 00 00
02017.810076  1  7AE  Rx    d 8 01 76 00 00 00 00 00 00
02017.839303  1  7A6  Rx    d 8 10 DD 36 26 37 81 E9 26
02017.840326  1  7AE  Rx    d 8 30 00 01 00 00 00 00 00
02017.842070  1  7A6  Rx    d 8 21 37 2D 00 06 5F 00 00
02017.845062  1  7A6  Rx    d 8 22 CB 56 80 00 0A 06 80
02017.848077  1  7A6  Rx    d 8 23 FF 9A 0D CB 3E 7F 00
02017.851076  1  7A6  Rx    d 8 24 46 3F 00 00 80 FF 12
02017.854060  1  7A6  Rx    d 8 25 00 01 52 A5 05 00 52
02017.857067  1  7A6  Rx    d 8 26 23 FF 01 00 44 1A 7F
02017.860066  1  7A6  Rx    d 8 27 00 54 1A 63 FF 09 00
02017.863066  1  7A6  Rx    d 8 28 63 EF 01 00 63 E7 05
02017.866065  1  7A6  Rx    d 8 29 00 40 EE 00 00 3D 3F
02017.869814  1  7A6  Rx    d 8 2A 81 E9 27 37 31 00 3D
02017.872046  1  7A6  Rx    d 8 2B EE 80 E9 E6 67 01 00
02017.875046  1  7A6  Rx    d 8 2C E0 61 92 1D 5F 62 66
02017.878069  1  7A6  Rx    d 8 2D 67 00 00 CC 00 E0 61
02017.881052  1  7A6  Rx    d 8 2E BA 15 27 47 25 00 20
02017.885003  1  7A6  Rx    d 8 2F 36 00 01 68 37 00 00
02017.887075  1  7A6  Rx    d 8 20 20 36 00 02 68 37 00
02017.890066  1  7A6  Rx    d 8 21 00 40 66 00 00 27 37
02017.893048  1  7A6  Rx    d 8 22 31 00 EC 67 CD E9 66
02017.896056  1  7A6  Rx    d 8 23 67 00 00 27 37 35 00
02017.899055  1  7A6  Rx    d 8 24 E0 31 82 25 86 5F 01
02017.902924  1  7A6  Rx    d 8 25 00 E0 59 C2 1D 5F 5A
02017.905858  1  7A6  Rx    d 8 26 46 5F 00 00 3D 3F 01
02017.908064  1  7A6  Rx    d 8 27 00 27 3F 35 00 87 3F
02017.911072  1  7A6  Rx    d 8 28 01 00 E0 39 9A 15 3D
02017.914079  1  7A6  Rx    d 8 29 37 01 00 26 E7 15 00
02017.917087  1  7A6  Rx    d 8 2A 3F 06 1C EF FF FF 7C
02017.920086  1  7A6  Rx    d 8 2B 00 3D 3F 01 00 27 37
02017.923053  1  7A6  Rx    d 8 2C 35 00 87 67 39 00 46
02017.926084  1  7A6  Rx    d 8 2D 67 00 00 23 E7 05 00
02017.929084  1  7A6  Rx    d 8 2E 23 EF 01 00 23 FF 09
02017.932107  1  7A6  Rx    d 8 2F 00 4C 1A 7F 00 00 00
02017.934058  1  7AE  Rx    d 8 01 76 00 00 00 00 00 00
02017.957150  1  7A6  Rx    d 8 01 37 00 00 00 00 00 00
02017.959318  1  7AE  Rx    d 8 03 7F 37 78 00 00 00 00
02017.973930  1  7AE  Rx    d 8 03 7F 37 78 00 00 00 00
02018.000745  1  7AE  Rx    d 8 01 77 00 00 00 00 00 00
02018.021197  1  7A6  Rx    d 8 02 3E 02 00 00 00 00 00
02020.020461  1  7A6  Rx    d 8 02 3E 02 00 00 00 00 00
02020.263080  1  7A6  Rx    d 8 04 B1 00 B2 00 00 00 00
02020.264272  1  7AE  Rx    d 8 03 7F B1 78 00 00 00 00
02020.266935  1  7AE  Rx    d 8 03 7F B1 78 00 00 00 00
02020.269860  1  7AE  Rx    d 8 03 7F B1 78 00 00 00 00
02024.855594  1  7AE  Rx    d 8 03 7F B1 78 00 00 00 00
02024.856562  1  7AE  Rx    d 8 03 7F B1 78 00 00 00 00
02027.108540  1  7AE  Rx    d 8 03 7F B1 78 00 00 00 00
02027.109508  1  7AE  Rx    d 8 03 7F B1 78 00 00 00 00
02027.602531  1  7AE  Rx    d 8 03 7F B1 78 00 00 00 00
02027.603498  1  7AE  Rx    d 8 03 7F B1 78 00 00 00 00
02029.604479  1  7AE  Rx    d 8 03 7F B1 78 00 00 00 00
02029.605446  1  7AE  Rx    d 8 03 7F B1 78 00 00 00 00
02031.591436  1  7AE  Rx    d 8 03 7F B1 78 00 00 00 00
02031.592402  1  7AE  Rx    d 8 03 7F B1 78 00 00 00 00
02032.051422  1  7AE  Rx    d 8 03 7F B1 78 00 00 00 00
02032.052388  1  7AE  Rx    d 8 03 7F B1 78 00 00 00 00
02032.513413  1  7AE  Rx    d 8 03 F1 00 B2 00 00 00 00
02033.002240  1  7A6  Rx    d 8 02 3E 02 00 00 00 00 00
02035.001510  1  7A6  Rx    d 8 02 3E 02 00 00 00 00 00
02035.370156  1  7A6  Rx    d 8 10 09 34 00 00 45 00 00
02035.371179  1  7AE  Rx    d 8 30 00 01 00 00 00 00 00
02035.372491  1  7A6  Rx    d 8 21 00 01 64 00 00 00 00
02035.374954  1  7AE  Rx    d 8 03 74 00 E1 00 00 00 00
02035.399758  1  7A6  Rx    d 8 10 E1 36 81 07 E0 3E E0
02035.400782  1  7AE  Rx    d 8 30 00 01 00 00 00 00 00
02035.402461  1  7A6  Rx    d 8 21 07 40 01 E0 07 40 01
02035.405507  1  7A6  Rx    d 8 22 E0 07 40 01 E0 07 40
02035.408458  1  7A6  Rx    d 8 23 01 E0 07 40 01 E0 07
02035.411466  1  7A6  Rx    d 8 24 40 01 E0 07 40 01 E0
02035.414474  1  7A6  Rx    d 8 25 07 40 01 E0 07 40 01
02035.417688  1  7A6  Rx    d 8 26 E0 07 40 01 E0 07 40
02035.420480  1  7A6  Rx    d 8 27 01 E0 07 40 01 E0 07
02035.423471  1  7A6  Rx    d 8 28 40 01 E0 07 40 01 E0
02035.426471  1  7A6  Rx    d 8 29 07 40 01 E0 07 40 01
02035.429462  1  7A6  Rx    d 8 2A 81 07 D4 4D E0 07 40
02035.432477  1  7A6  Rx    d 8 2B 01 E0 07 40 01 E0 07
02035.435460  1  7A6  Rx    d 8 2C 40 01 E0 07 40 01 81
02035.438476  1  7A6  Rx    d 8 2D 07 52 4F E0 07 40 01
02035.441467  1  7A6  Rx    d 8 2E E0 07 40 01 E0 07 40
02035.444474  1  7A6  Rx    d 8 2F 01 E0 07 40 01 E0 07
02035.447490  1  7A6  Rx    d 8 20 40 01 E0 07 40 01 E0
02035.450474  1  7A6  Rx    d 8 21 07 40 01 E0 07 40 01
02035.453473  1  7A6  Rx    d 8 22 E0 07 40 01 E0 07 40
02035.456472  1  7A6  Rx    d 8 23 01 E0 07 40 01 E0 07
02035.459480  1  7A6  Rx    d 8 24 40 01 E0 07 40 01 E0
02035.462463  1  7A6  Rx    d 8 25 07 40 01 E0 07 40 01
02035.465478  1  7A6  Rx    d 8 26 E0 07 40 01 E0 07 40
02035.468684  1  7A6  Rx    d 8 27 01 E0 07 40 01 E0 07
02035.471460  1  7A6  Rx    d 8 28 40 01 81 07 A2 56 81
02035.474467  1  7A6  Rx    d 8 29 07 DC 68 81 07 F4 67
02035.478552  1  7A6  Rx    d 8 2A 81 07 A0 69 81 07 58
02035.481448  1  7A6  Rx    d 8 2B 6B 82 07 44 F5 E0 07
02035.484487  1  7A6  Rx    d 8 2C 40 01 81 07 D0 57 E0
02035.487702  1  7A6  Rx    d 8 2D 07 40 01 E0 07 40 01
02035.490478  1  7A6  Rx    d 8 2E E0 07 40 01 E0 07 40
02035.493478  1  7A6  Rx    d 8 2F 01 81 07 5E 4C E0 07
02035.496510  1  7A6  Rx    d 8 20 40 01 00 00 00 00 00
02035.499588  1  7AE  Rx    d 8 03 7F 36 78 00 00 00 00
02035.500548  1  7AE  Rx    d 8 03 7F 36 78 00 00 00 00
02035.508371  1  7AE  Rx    d 8 01 76 00 00 00 00 00 00
02035.522848  1  7A6  Rx    d 8 10 85 36 E0 07 40 01 E0
02035.523872  1  7AE  Rx    d 8 30 00 01 00 00 00 00 00
02035.525479  1  7A6  Rx    d 8 21 07 40 01 E0 07 40 01
02035.530548  1  7A6  Rx    d 8 22 E0 07 40 01 E0 07 40
02035.534456  1  7A6  Rx    d 8 23 01 E0 07 40 01 E0 07
02035.537487  1  7A6  Rx    d 8 24 40 01 E0 07 40 01 E0
02035.540486  1  7A6  Rx    d 8 25 07 40 01 E0 07 40 01
02035.543486  1  7A6  Rx    d 8 26 E0 07 40 01 E0 07 40
02035.546493  1  7A6  Rx    d 8 27 01 E0 07 40 01 E0 07
02035.549484  1  7A6  Rx    d 8 28 40 01 E0 07 40 01 E0
02035.552492  1  7A6  Rx    d 8 29 07 40 01 E0 07 40 01
02035.555483  1  7A6  Rx    d 8 2A E0 07 40 01 E0 07 40
02035.558498  1  7A6  Rx    d 8 2B 01 E0 07 40 01 E0 07
02035.561490  1  7A6  Rx    d 8 2C 40 01 E0 07 40 01 E0
02035.564490  1  7A6  Rx    d 8 2D 07 40 01 E0 07 40 01
02035.567688  1  7A6  Rx    d 8 2E E0 07 40 01 E0 07 40
02035.570488  1  7A6  Rx    d 8 2F 01 E0 07 40 01 E0 07
02035.573511  1  7A6  Rx    d 8 20 40 01 E0 07 40 01 E0
02035.576478  1  7A6  Rx    d 8 21 07 40 01 E0 07 40 01
02035.579494  1  7A6  Rx    d 8 22 E0 07 40 01 E0 07 40
02035.582517  1  7A6  Rx    d 8 23 01 00 00 00 00 00 00
02035.584309  1  7AE  Rx    d 8 03 7F 36 78 00 00 00 00
02035.585269  1  7AE  Rx    d 8 03 7F 36 78 00 00 00 00
02035.591370  1  7AE  Rx    d 8 01 76 00 00 00 00 00 00
02035.611882  1  7A6  Rx    d 8 01 37 00 00 00 00 00 00
02035.612930  1  7AE  Rx    d 8 03 7F 37 78 00 00 00 00
02035.614449  1  7AE  Rx    d 8 01 77 00 00 00 00 00 00
02035.641029  1  7A6  Rx    d 8 10 09 34 00 00 47 00 00
02035.642052  1  7AE  Rx    d 8 30 00 01 00 00 00 00 00
02035.643516  1  7A6  Rx    d 8 21 00 00 10 00 00 00 00
02035.645947  1  7AE  Rx    d 8 03 74 00 E1 00 00 00 00
02035.676476  1  7A6  Rx    d 8 10 11 36 B5 01 00 00 01
02035.678418  1  7AE  Rx    d 8 30 00 01 00 00 00 00 00
02035.679641  1  7A6  Rx    d 8 21 00 00 00 00 45 00 00
02035.682528  1  7A6  Rx    d 8 22 FF FF 03 00 00 00 00
02035.683968  1  7AE  Rx    d 8 03 7F 36 78 00 00 00 00
02035.684928  1  7AE  Rx    d 8 03 7F 36 78 00 00 00 00
02035.688366  1  7AE  Rx    d 8 01 76 00 00 00 00 00 00
02035.707692  1  7A6  Rx    d 8 01 37 00 00 00 00 00 00
02035.709930  1  7AE  Rx    d 8 03 7F 37 78 00 00 00 00
02035.710906  1  7AE  Rx    d 8 01 77 00 00 00 00 00 00
02035.737782  1  7A6  Rx    d 8 10 09 34 00 00 48 00 00
02035.739749  1  7AE  Rx    d 8 30 00 01 00 00 00 00 00
02035.741652  1  7A6  Rx    d 8 21 01 39 F4 00 00 00 00
02035.744618  1  7AE  Rx    d 8 03 74 00 E1 00 00 00 00
02035.763825  1  7A6  Rx    d 8 10 E1 36 20 00 20 00 20
02035.764848  1  7AE  Rx    d 8 30 00 01 00 00 00 00 00
02035.768782  1  7A6  Rx    d 8 21 00 20 00 01 16 00 00
02035.771525  1  7A6  Rx    d 8 22 01 20 01 00 F0 00 00
02035.774533  1  7A6  Rx    d 8 23 00 01 22 00 00 01 00
02035.777611  1  7A6  Rx    d 8 24 00 00 04 26 12 00 B8
02035.780483  1  7A6  Rx    d 8 25 1E B8 1E 70 15 54 0C
02035.783522  1  7A6  Rx    d 8 26 4C 0C 1C 0C 14 0C 14
02035.786514  1  7A6  Rx    d 8 27 0C 08 0C 08 0C FC 0B
02035.789505  1  7A6  Rx    d 8 28 FC 0B F0 0B D8 0B D8
02035.792488  1  7A6  Rx    d 8 29 0B A4 0B A4 0B 94 0B
02035.795504  1  7A6  Rx    d 8 2A 94 0B 88 0B 7C 0B 7C
02035.798487  1  7A6  Rx    d 8 2B 0B 70 0B 70 0B 64 0B
02035.801495  1  7A6  Rx    d 8 2C 64 0B 4C 0B 4C 0B 3C
02035.804494  1  7A6  Rx    d 8 2D 0B 3C 0B 34 0B 34 0B
02035.807518  1  7A6  Rx    d 8 2E 04 0B 04 0B 08 08 08
02035.810525  1  7A6  Rx    d 8 2F 08 08 08 08 08 08 08
02035.813532  1  7A6  Rx    d 8 20 08 08 08 08 08 08 08
02035.816508  1  7A6  Rx    d 8 21 08 08 08 08 08 08 08
02035.819522  1  7A6  Rx    d 8 22 08 08 08 08 08 08 08
02035.822530  1  7A6  Rx    d 8 23 08 08 08 00 00 FC E0
02035.825521  1  7A6  Rx    d 8 24 FF 03 04 E1 FF 03 E0
02035.828592  1  7A6  Rx    d 8 25 E2 FF 03 0C E1 FF 03
02035.831496  1  7A6  Rx    d 8 26 14 E1 FF 03 1C E1 FF
02035.834495  1  7A6  Rx    d 8 27 03 24 E1 FF 03 2C E1
02035.837510  1  7A6  Rx    d 8 28 FF 03 34 E1 FF 03 3C
02035.840518  1  7A6  Rx    d 8 29 E1 FF 03 44 E1 FF 03
02035.843510  1  7A6  Rx    d 8 2A 4C E1 FF 03 54 E1 FF
02035.846501  1  7A6  Rx    d 8 2B 03 5C E1 FF 03 64 E1
02035.849508  1  7A6  Rx    d 8 2C FF 03 6C E1 FF 03 74
02035.852524  1  7A6  Rx    d 8 2D E1 FF 03 7C E1 FF 03
02035.855499  1  7A6  Rx    d 8 2E 84 E1 FF 03 8C E1 FF
02035.859289  1  7A6  Rx    d 8 2F 03 94 E1 FF 03 9C E1
02035.861568  1  7A6  Rx    d 8 20 FF 03 00 00 00 00 00
02035.864575  1  7AE  Rx    d 8 03 7F 36 78 00 00 00 00
02035.865534  1  7AE  Rx    d 8 03 7F 36 78 00 00 00 00
02035.872365  1  7AE  Rx    d 8 01 76 00 00 00 00 00 00
02035.906301  1  7A6  Rx    d 8 10 E1 36 A4 E1 FF 03 AC
02035.907324  1  7AE  Rx    d 8 30 00 01 00 00 00 00 00
02035.908500  1  7A6  Rx    d 8 21 E1 FF 03 B4 E1 FF 03
02035.911515  1  7A6  Rx    d 8 22 BC E1 FF 03 C4 E1 FF
02035.914506  1  7A6  Rx    d 8 23 03 CC E1 FF 03 D4 E1
02035.917640  1  7A6  Rx    d 8 24 FF 03 DC E1 FF 03 E4
02035.920520  1  7A6  Rx    d 8 25 E1 FF 03 EC E1 FF 03
02035.923520  1  7A6  Rx    d 8 26 F4 E1 FF 03 FC E1 FF
02035.926527  1  7A6  Rx    d 8 27 03 EA EC 01 00 E2 EB
02035.930396  1  7A6  Rx    d 8 28 01 00 D6 E3 01 00 00
02035.933282  1  7A6  Rx    d 8 29 00 00 00 00 00 00 00
02035.937216  1  7A6  Rx    d 8 2A 00 00 00 00 EA EC 01
02035.939511  1  7A6  Rx    d 8 2B 00 E2 EB 01 00 EA EC
02035.942527  1  7A6  Rx    d 8 2C 01 00 E2 EB 01 00 EA
02035.945518  1  7A6  Rx    d 8 2D EC 01 00 E2 EB 01 00
02035.948517  1  7A6  Rx    d 8 2E 04 DB 01 00 EA EC 01
02035.951508  1  7A6  Rx    d 8 2F 00 E2 EB 01 00 EA EC
02035.954524  1  7A6  Rx    d 8 20 01 00 E2 EB 01 00 EA
02035.958506  1  7A6  Rx    d 8 21 EC 01 00 E2 EB 01 00
02035.961545  1  7A6  Rx    d 8 22 00 00 00 00 EA EC 01
02035.964521  1  7A6  Rx    d 8 23 00 E2 EB 01 00 EA EC
02035.967631  1  7A6  Rx    d 8 24 01 00 E2 EB 01 00 EA
02035.970518  1  7A6  Rx    d 8 25 EC 01 00 E2 EB 01 00
02035.973526  1  7A6  Rx    d 8 26 EA EC 01 00 E2 EB 01
02035.976533  1  7A6  Rx    d 8 27 00 EA EC 01 00 E2 EB
02035.979531  1  7A6  Rx    d 8 28 01 00 EA EC 01 00 E2
02035.982530  1  7A6  Rx    d 8 29 EB 01 00 EA EC 01 00
02035.985538  1  7A6  Rx    d 8 2A E2 EB 01 00 02 02 01
02035.988554  1  7A6  Rx    d 8 2B 04 04 04 04 04 04 04
02035.991545  1  7A6  Rx    d 8 2C 04 04 04 04 04 04 04
02035.994544  1  7A6  Rx    d 8 2D 04 04 04 04 04 04 04
02035.997552  1  7A6  Rx    d 8 2E 04 04 04 04 04 04 04
02036.000575  1  7A6  Rx    d 8 2F 04 04 04 00 00 00 00
02036.003599  1  7A6  Rx    d 8 20 00 00 00 00 00 00 00
02036.006574  1  7AE  Rx    d 8 03 7F 36 78 00 00 00 00
02036.008524  1  7AE  Rx    d 8 03 7F 36 78 00 00 00 00
02036.014363  1  7AE  Rx    d 8 01 76 00 00 00 00 00 00
02036.050672  1  7A6  Rx    d 8 10 E1 36 00 00 00 00 00
02036.051696  1  7AE  Rx    d 8 30 00 01 00 00 00 00 00
02036.053583  1  7A6  Rx    d 8 21 00 00 00 00 00 00 00
02036.056590  1  7A6  Rx    d 8 22 00 00 00 00 00 00 00
02036.059590  1  7A6  Rx    d 8 23 00 00 00 00 00 00 00
02036.062589  1  7A6  Rx    d 8 24 00 00 00 00 00 01 02
02036.065589  1  7A6  Rx    d 8 25 04 00 00 00 00 00 00
02036.068667  1  7A6  Rx    d 8 26 08 00 00 00 00 00 00
02036.071578  1  7A6  Rx    d 8 27 10 00 00 00 00 00 00
02036.074586  1  7A6  Rx    d 8 28 00 00 00 00 00 00 00
02036.077592  1  7A6  Rx    d 8 29 00 F0 1B 24 10 0C 10
02036.080544  1  7A6  Rx    d 8 2A 80 0D C0 0C 5C 0C 48
02036.083543  1  7A6  Rx    d 8 2B 0B A0 04 98 1E 18 10
02036.087406  1  7A6  Rx    d 8 2C 4C 0D 44 0C 3C 0C 34
02036.089550  1  7A6  Rx    d 8 2D 0C 2C 0C 24 0C 10 0C
02036.092557  1  7A6  Rx    d 8 2E 04 0C F8 0B E4 0B D4
02036.095532  1  7A6  Rx    d 8 2F 0B D0 0B C8 0B BC 0B
02036.098548  1  7A6  Rx    d 8 20 B0 0B A0 0B 98 0B 90
02036.101539  1  7A6  Rx    d 8 21 0B 84 0B 78 0B 6C 0B
02036.104538  1  7A6  Rx    d 8 22 60 0B 50 0B 38 0B 30
02036.107554  1  7A6  Rx    d 8 23 0B 28 0B 00 0B 00 00
02036.110569  1  7A6  Rx    d 8 24 01 00 02 00 03 00 04
02036.113797  1  7A6  Rx    d 8 25 00 05 00 17 00 06 00
02036.116572  1  7A6  Rx    d 8 26 18 00 07 00 08 00 09
02036.119587  1  7A6  Rx    d 8 27 00 0A 00 0B 00 0C 00
02036.122554  1  7A6  Rx    d 8 28 0D 00 19 00 1A 00 1B
02036.125578  1  7A6  Rx    d 8 29 00 0E 00 1C 00 0F 00
02036.129566  1  7A6  Rx    d 8 2A 10 00 11 00 12 00 1D
02036.133426  1  7A6  Rx    d 8 2B 00 13 00 1E 00 14 00
02036.139293  1  7A6  Rx    d 8 2C 1F 00 20 00 21 00 15
02036.141573  1  7A6  Rx    d 8 2D 00 22 00 23 00 16 00
02036.144548  1  7A6  Rx    d 8 2E 24 00 08 08 07 05 06
02036.147556  1  7A6  Rx    d 8 2F 08 02 03 08 08 06 07
02036.150596  1  7A6  Rx    d 8 20 08 08 00 00 00 00 00
02036.152571  1  7AE  Rx    d 8 03 7F 36 78 00 00 00 00
02036.153530  1  7AE  Rx    d 8 03 7F 36 78 00 00 00 00
02036.161356  1  7AE  Rx    d 8 01 76 00 00 00 00 00 00
02036.183873  1  7A6  Rx    d 8 10 E1 36 08 06 08 07 07
02036.184896  1  7AE  Rx    d 8 30 00 01 00 00 00 00 00
02036.186568  1  7A6  Rx    d 8 21 04 03 08 02 00 00 00
02036.189614  1  7A6  Rx    d 8 22 00 00 00 00 00 00 00
02036.192590  1  7A6  Rx    d 8 23 00 00 00 00 00 44 E0
02036.195557  1  7A6  Rx    d 8 24 FF 03 04 E2 FF 03 0C
02036.198556  1  7A6  Rx    d 8 25 E2 FF 03 14 E2 FF 03
02036.201548  1  7A6  Rx    d 8 26 1C E2 FF 03 24 E2 FF
02036.204555  1  7A6  Rx    d 8 27 03 2C E2 FF 03 9C E0
02036.207570  1  7A6  Rx    d 8 28 FF 03 8C E0 FF 03 30
02036.210554  1  7A6  Rx    d 8 29 E2 FF 03 38 E2 FF 03
02036.213585  1  7A6  Rx    d 8 2A 40 E2 FF 03 84 E0 FF
02036.216536  1  7A6  Rx    d 8 2B 03 48 E2 FF 03 50 E2
02036.219576  1  7A6  Rx    d 8 2C FF 03 7C E0 FF 03 58
02036.222567  1  7A6  Rx    d 8 2D E2 FF 03 60 E2 FF 03
02036.226262  1  7A6  Rx    d 8 2E 68 E2 FF 03 70 E2 FF
02036.229163  1  7A6  Rx    d 8 2F 03 AC E0 FF 03 A0 E0
02036.232145  1  7A6  Rx    d 8 20 FF 03 74 E2 FF 03 78
02036.235135  1  7A6  Rx    d 8 21 E2 FF 03 00 00 00 00
02036.237550  1  7A6  Rx    d 8 22 80 E2 FF 03 88 E2 FF
02036.240558  1  7A6  Rx    d 8 23 03 90 E2 FF 03 98 E2
02036.243566  1  7A6  Rx    d 8 24 FF 03 A0 E2 FF 03 A8
02036.246573  1  7A6  Rx    d 8 25 E2 FF 03 B0 E2 FF 03
02036.249571  1  7A6  Rx    d 8 26 B8 E2 FF 03 C0 E2 FF
02036.252563  1  7A6  Rx    d 8 27 03 C8 E2 FF 03 D0 E2
02036.255586  1  7A6  Rx    d 8 28 FF 03 D8 E2 FF 03 00
02036.258618  1  7A6  Rx    d 8 29 00 00 00 00 00 00 00
02036.261601  1  7A6  Rx    d 8 2A 00 00 00 00 FC DA 01
02036.264616  1  7A6  Rx    d 8 2B 00 00 00 00 00 00 00
02036.267623  1  7A6  Rx    d 8 2C 00 00 F4 DA 01 00 EC
02036.270558  1  7A6  Rx    d 8 2D DA 01 00 E4 DA 01 00
02036.273622  1  7A6  Rx    d 8 2E 00 00 00 00 00 00 00
02036.276606  1  7A6  Rx    d 8 2F 00 00 00 00 00 00 00
02036.279628  1  7A6  Rx    d 8 20 00 00 00 00 00 00 00
02036.281571  1  7AE  Rx    d 8 03 7F 36 78 00 00 00 00
02036.282530  1  7AE  Rx    d 8 03 7F 36 78 00 00 00 00
02036.289353  1  7AE  Rx    d 8 01 76 00 00 00 00 00 00
02036.311934  1  7A6  Rx    d 8 10 E1 36 00 00 00 00 00
02036.312966  1  7AE  Rx    d 8 30 00 01 00 00 00 00 00
02036.314622  1  7A6  Rx    d 8 21 00 00 00 00 00 00 00
02036.317628  1  7A6  Rx    d 8 22 DC DA 01 00 00 00 00
02036.320611  1  7A6  Rx    d 8 23 00 00 00 00 00 00 00
02036.323578  1  7A6  Rx    d 8 24 00 00 D4 DA 01 00 CC
02036.326618  1  7A6  Rx    d 8 25 DA 01 00 00 00 00 00
02036.330399  1  7A6  Rx    d 8 26 92 ED 01 00 92 ED 01
02036.333220  1  7A6  Rx    d 8 27 00 92 ED 01 00 92 ED
02036.337138  1  7A6  Rx    d 8 28 01 00 92 ED 01 00 92
02036.340057  1  7A6  Rx    d 8 29 ED 01 00 92 ED 01 00
02036.342561  1  7A6  Rx    d 8 2A 92 ED 01 00 92 ED 01
02036.345568  1  7A6  Rx    d 8 2B 00 92 ED 01 00 92 ED
02036.348576  1  7A6  Rx    d 8 2C 01 00 92 ED 01 00 92
02036.351575  1  7A6  Rx    d 8 2D ED 01 00 92 ED 01 00
02036.354630  1  7A6  Rx    d 8 2E 00 00 00 00 00 00 00
02036.357606  1  7A6  Rx    d 8 2F 00 00 00 00 00 76 DA
02036.360621  1  7A6  Rx    d 8 20 01 00 00 00 00 00 00
02036.363589  1  7A6  Rx    d 8 21 00 00 00 6C DA 01 00
02036.366580  1  7A6  Rx    d 8 22 62 DA 01 00 58 DA 01
02036.369625  1  7A6  Rx    d 8 23 00 00 00 00 00 00 00
02036.372632  1  7A6  Rx    d 8 24 00 00 00 00 00 00 00
02036.375632  1  7A6  Rx    d 8 25 00 00 00 00 00 00 00
02036.378631  1  7A6  Rx    d 8 26 00 00 00 00 00 00 00
02036.381606  1  7A6  Rx    d 8 27 00 4E DA 01 00 00 00
02036.384693  1  7A6  Rx    d 8 28 00 00 00 00 00 00 00
02036.387604  1  7A6  Rx    d 8 29 00 00 00 44 DA 01 00
02036.390612  1  7A6  Rx    d 8 2A 3A DA 01 00 00 00 00
02036.393627  1  7A6  Rx    d 8 2B 00 00 00 00 00 00 00
02036.396627  1  7A6  Rx    d 8 2C 00 00 00 00 00 00 00
02036.399626  1  7A6  Rx    d 8 2D 00 00 00 00 00 00 00
02036.402626  1  7A6  Rx    d 8 2E 00 00 00 00 00 00 00
02036.406279  1  7A6  Rx    d 8 2F 00 00 00 00 00 00 00
02036.408655  1  7A6  Rx    d 8 20 00 00 00 00 00 00 00
02036.411566  1  7AE  Rx    d 8 03 7F 36 78 00 00 00 00
02036.412525  1  7AE  Rx    d 8 03 7F 36 78 00 00 00 00
02036.420355  1  7AE  Rx    d 8 01 76 00 00 00 00 00 00
02036.460982  1  7A6  Rx    d 8 10 E1 36 00 00 00 00 00
02036.462005  1  7AE  Rx    d 8 30 00 01 00 00 00 00 00
02036.463652  1  7A6  Rx    d 8 21 00 00 00 00 00 00 00
02036.466644  1  7A6  Rx    d 8 22 00 00 00 00 00 00 00
02036.469642  1  7A6  Rx    d 8 23 00 00 00 00 00 00 00
02036.472626  1  7A6  Rx    d 8 24 00 00 01 01 01 01 01
02036.475610  1  7A6  Rx    d 8 25 01 01 01 02 02 02 02
02036.478641  1  7A6  Rx    d 8 26 02 02 02 00 00 00 00
02036.481640  1  7A6  Rx    d 8 27 00 00 00 00 00 00 00
02036.484624  1  7A6  Rx    d 8 28 00 00 00 01 02 04 08
02036.488621  1  7A6  Rx    d 8 29 10 20 40 80 01 02 04
02036.491612  1  7A6  Rx    d 8 2A 08 10 20 40 80 01 02
02036.494637  1  7A6  Rx    d 8 2B 04 08 10 20 40 00 00
02036.497636  1  7A6  Rx    d 8 2C 00 00 00 00 00 00 00
02036.500636  1  7A6  Rx    d 8 2D 00 00 00 00 00 00 00
02036.503635  1  7A6  Rx    d 8 2E 0D 00 08 00 06 00 0A
02036.506634  1  7A6  Rx    d 8 2F 00 1C 00 1E 00 20 00
02036.509626  1  7A6  Rx    d 8 20 11 00 0F 00 1A 00 18
02036.512625  1  7A6  Rx    d 8 21 00 16 00 14 00 01 00
02036.515624  1  7A6  Rx    d 8 22 0E 00 09 00 07 00 0B
02036.518624  1  7A6  Rx    d 8 23 00 1D 00 1F 00 21 00
02036.521623  1  7A6  Rx    d 8 24 12 00 10 00 1B 00 19
02036.524630  1  7A6  Rx    d 8 25 00 17 00 15 00 00 00
02036.527612  1  7A6  Rx    d 8 26 E2 0A 02 00 02 B7 01
02036.531274  1  7A6  Rx    d 8 27 00 02 B7 01 00 02 B7
02036.534137  1  7A6  Rx    d 8 28 01 00 02 B7 01 00 02
02036.537983  1  7A6  Rx    d 8 29 B7 01 00 02 B7 01 00
02036.540590  1  7A6  Rx    d 8 2A 02 B7 01 00 02 B7 01
02036.543606  1  7A6  Rx    d 8 2B 00 02 B7 01 00 02 B7
02036.547596  1  7A6  Rx    d 8 2C 01 00 02 B7 01 00 02
02036.550620  1  7A6  Rx    d 8 2D B7 01 00 02 B7 01 00
02036.553635  1  7A6  Rx    d 8 2E 24 0B 02 00 FE B6 01
02036.556610  1  7A6  Rx    d 8 2F 00 FE B6 01 00 FE B6
02036.559658  1  7A6  Rx    d 8 20 01 00 00 00 00 00 00
02036.562561  1  7AE  Rx    d 8 03 7F 36 78 00 00 00 00
02036.563520  1  7AE  Rx    d 8 03 7F 36 78 00 00 00 00
02036.571350  1  7AE  Rx    d 8 01 76 00 00 00 00 00 00
02036.605108  1  7A6  Rx    d 8 10 E1 36 FE B6 01 00 FE
02036.606131  1  7AE  Rx    d 8 30 00 01 00 00 00 00 00
02036.608065  1  7A6  Rx    d 8 21 B6 01 00 FE B6 01 00
02036.610616  1  7A6  Rx    d 8 22 FE B6 01 00 FE B6 01
02036.613616  1  7A6  Rx    d 8 23 00 FE B6 01 00 FE B6
02036.617614  1  7A6  Rx    d 8 24 01 00 FE B6 01 00 FE
02036.620621  1  7A6  Rx    d 8 25 B6 01 00 FE B6 01 00
02036.624200  1  7A6  Rx    d 8 26 46 0B 02 00 FC B6 01
02036.627558  1  7A6  Rx    d 8 27 00 FC B6 01 00 FC B6
02036.629629  1  7A6  Rx    d 8 28 01 00 FC B6 01 00 FC
02036.632636  1  7A6  Rx    d 8 29 B6 01 00 FC B6 01 00
02036.635619  1  7A6  Rx    d 8 2A FC B6 01 00 FC B6 01
02036.638626  1  7A6  Rx    d 8 2B 00 FC B6 01 00 FC B6
02036.641642  1  7A6  Rx    d 8 2C 01 00 FC B6 01 00 FC
02036.644609  1  7A6  Rx    d 8 2D B6 01 00 FC B6 01 00
02036.647632  1  7A6  Rx    d 8 2E FA B6 01 00 FA B6 01
02036.650624  1  7A6  Rx    d 8 2F 00 FA B6 01 00 FA B6
02036.653639  1  7A6  Rx    d 8 20 01 00 FA B6 01 00 FA
02036.658403  1  7A6  Rx    d 8 21 B6 01 00 FA B6 01 00
02036.660610  1  7A6  Rx    d 8 22 FA B6 01 00 FA B6 01
02036.663626  1  7A6  Rx    d 8 23 00 FA B6 01 00 FA B6
02036.668584  1  7A6  Rx    d 8 24 01 00 FA B6 01 00 FA
02036.671624  1  7A6  Rx    d 8 25 B6 01 00 FA B6 01 00
02036.674615  1  7A6  Rx    d 8 26 4C 0B 02 00 E2 B6 01
02036.678445  1  7A6  Rx    d 8 27 00 E2 B6 01 00 E2 B6
02036.680620  1  7A6  Rx    d 8 28 01 00 E2 B6 01 00 E2
02036.683620  1  7A6  Rx    d 8 29 B6 01 00 E2 B6 01 00
02036.686626  1  7A6  Rx    d 8 2A E2 B6 01 00 E2 B6 01
02036.689609  1  7A6  Rx    d 8 2B 00 E2 B6 01 00 E2 B6
02036.692624  1  7A6  Rx    d 8 2C 01 00 E2 B6 01 00 E2
02036.695632  1  7A6  Rx    d 8 2D B6 01 00 E2 B6 01 00
02036.698648  1  7A6  Rx    d 8 2E 01 01 01 01 01 01 01
02036.701631  1  7A6  Rx    d 8 2F 01 01 01 01 01 01 01
02036.704702  1  7A6  Rx    d 8 20 00 00 00 00 00 00 00
02036.707558  1  7AE  Rx    d 8 03 7F 36 78 00 00 00 00
02036.708517  1  7AE  Rx    d 8 03 7F 36 78 00 00 00 00
02036.715348  1  7AE  Rx    d 8 01 76 00 00 00 00 00 00
02036.749307  1  7A6  Rx    d 8 10 E1 36 74 0A 02 00 C4
02036.750330  1  7AE  Rx    d 8 30 00 01 00 00 00 00 00
02036.751633  1  7A6  Rx    d 8 21 B6 01 00 C4 B6 01 00
02036.754616  1  7A6  Rx    d 8 22 C4 B6 01 00 C4 B6 01
02036.757624  1  7A6  Rx    d 8 23 00 C4 B6 01 00 C4 B6
02036.760631  1  7A6  Rx    d 8 24 01 00 C4 B6 01 00 C4
02036.763638  1  7A6  Rx    d 8 25 B6 01 00 C4 B6 01 00
02036.767588  1  7A6  Rx    d 8 26 C4 B6 01 00 C4 B6 01
02036.769612  1  7A6  Rx    d 8 27 00 C4 B6 01 00 C4 B6
02036.772660  1  7A6  Rx    d 8 28 01 00 34 0A 02 00 9C
02036.775635  1  7A6  Rx    d 8 29 44 02 00 F0 5F 03 00
02036.778650  1  7A6  Rx    d 8 2A DC 5F 03 00 C8 5F 03
02036.781633  1  7A6  Rx    d 8 2B 00 1A AC 03 00 BC AB
02036.784640  1  7A6  Rx    d 8 2C 03 00 76 AC 03 00 DE
02036.787655  1  7A6  Rx    d 8 2D 60 03 00 BA 60 03 00
02036.790638  1  7A6  Rx    d 8 2E A2 60 03 00 50 61 03
02036.793646  1  7A6  Rx    d 8 2F 00 2A 61 03 00 04 61
02036.796661  1  7A6  Rx    d 8 20 03 00 32 0B 02 00 8E
02036.799652  1  7A6  Rx    d 8 21 44 02 00 02 60 03 00
02036.802660  1  7A6  Rx    d 8 22 1E 60 03 00 10 60 03
02036.805635  1  7A6  Rx    d 8 23 00 0A AC 03 00 AC AB
02036.808634  1  7A6  Rx    d 8 24 03 00 68 AC 03 00 D0
02036.811658  1  7A6  Rx    d 8 25 60 03 00 AC 60 03 00
02036.814650  1  7A6  Rx    d 8 26 98 60 03 00 42 61 03
02036.817672  1  7A6  Rx    d 8 27 00 1C 61 03 00 F6 60
02036.820648  1  7A6  Rx    d 8 28 03 00 B0 0A 02 00 74
02036.823672  1  7A6  Rx    d 8 29 60 03 00 50 60 03 00
02036.827582  1  7A6  Rx    d 8 2A 50 60 03 00 2C 60 03
02036.829630  1  7A6  Rx    d 8 2B 00 56 AC 03 00 F8 AB
02036.832654  1  7A6  Rx    d 8 2C 03 00 92 AC 03 00 9C
02036.836380  1  7A6  Rx    d 8 2D 61 03 00 68 61 03 00
02036.838619  1  7A6  Rx    d 8 2E 9C 61 03 00 9C 61 03
02036.841642  1  7A6  Rx    d 8 2F 00 9C 61 03 00 9C 61
02036.844706  1  7A6  Rx    d 8 20 03 00 00 00 00 00 00
02036.847592  1  7AE  Rx    d 8 03 7F 36 78 00 00 00 00
02036.848551  1  7AE  Rx    d 8 03 7F 36 78 00 00 00 00
02036.856342  1  7AE  Rx    d 8 01 76 00 00 00 00 00 00
02036.890697  1  7A6  Rx    d 8 10 E1 36 C2 B6 01 00 C2
02036.891721  1  7AE  Rx    d 8 30 00 01 00 00 00 00 00
02036.893640  1  7A6  Rx    d 8 21 B6 01 00 C2 B6 01 00
02036.896656  1  7A6  Rx    d 8 22 C2 B6 01 00 C2 B6 01
02036.899647  1  7A6  Rx    d 8 23 00 C2 B6 01 00 C2 B6
02036.902646  1  7A6  Rx    d 8 24 01 00 C2 B6 01 00 C2
02036.905654  1  7A6  Rx    d 8 25 B6 01 00 C2 B6 01 00
02036.908644  1  7A6  Rx    d 8 26 C2 B6 01 00 C2 B6 01
02036.911650  1  7A6  Rx    d 8 27 00 C2 B6 01 00 C2 B6
02036.914674  1  7A6  Rx    d 8 28 01 00 C0 B6 01 00 C0
02036.918487  1  7A6  Rx    d 8 29 B6 01 00 C0 B6 01 00
02036.920654  1  7A6  Rx    d 8 2A C0 B6 01 00 C0 B6 01
02036.923662  1  7A6  Rx    d 8 2B 00 C0 B6 01 00 C0 B6
02036.927548  1  7A6  Rx    d 8 2C 01 00 C0 B6 01 00 C0
02036.929852  1  7A6  Rx    d 8 2D B6 01 00 C0 B6 01 00
02036.932705  1  7A6  Rx    d 8 2E C0 B6 01 00 C0 B6 01
02036.937558  1  7A6  Rx    d 8 2F 00 C0 B6 01 00 C0 B6
02036.939678  1  7A6  Rx    d 8 20 01 00 D6 09 02 00 BE
02036.942669  1  7A6  Rx    d 8 21 B6 01 00 BE B6 01 00
02036.945660  1  7A6  Rx    d 8 22 BE B6 01 00 BE B6 01
02036.948660  1  7A6  Rx    d 8 23 00 BE B6 01 00 BE B6
02036.951667  1  7A6  Rx    d 8 24 01 00 BE B6 01 00 BE
02036.954667  1  7A6  Rx    d 8 25 B6 01 00 BE B6 01 00
02036.957666  1  7A6  Rx    d 8 26 BE B6 01 00 BE B6 01
02036.960666  1  7A6  Rx    d 8 27 00 BE B6 01 00 BE B6
02036.963665  1  7A6  Rx    d 8 28 01 00 BC B6 01 00 BC
02036.968550  1  7A6  Rx    d 8 29 B6 01 00 BC B6 01 00
02036.970653  1  7A6  Rx    d 8 2A BC B6 01 00 BC B6 01
02036.973660  1  7A6  Rx    d 8 2B 00 BC B6 01 00 BC B6
02036.977532  1  7A6  Rx    d 8 2C 01 00 BC B6 01 00 BC
02036.979651  1  7A6  Rx    d 8 2D B6 01 00 BC B6 01 00
02036.982650  1  7A6  Rx    d 8 2E BC B6 01 00 BC B6 01
02036.985650  1  7A6  Rx    d 8 2F 00 BC B6 01 00 BC B6
02036.988713  1  7A6  Rx    d 8 20 01 00 00 00 00 00 00
02036.990552  1  7AE  Rx    d 8 03 7F 36 78 00 00 00 00
02036.991512  1  7AE  Rx    d 8 03 7F 36 78 00 00 00 00
02036.998342  1  7AE  Rx    d 8 01 76 00 00 00 00 00 00
02037.047200  1  7A6  Rx    d 8 10 E1 36 01 01 01 01 01
02037.048223  1  7AE  Rx    d 8 30 00 01 00 00 00 00 00
02037.049687  1  7A6  Rx    d 8 21 01 01 01 01 01 01 01
02037.052718  1  7A6  Rx    d 8 22 01 01 00 00 FF FF FF
02037.055694  1  7A6  Rx    d 8 23 FF 03 03 02 02 04 04
02037.058669  1  7A6  Rx    d 8 24 FF 01 01 09 09 08 08
02037.061660  1  7A6  Rx    d 8 25 FF 0D 0D 0C 0C 0B 0B
02037.064700  1  7A6  Rx    d 8 26 0A 0A 05 05 06 06 07
02037.067746  1  7A6  Rx    d 8 27 07 FF FF FF FF FF FF
02037.070713  1  7A6  Rx    d 8 28 FF FF FF FF FF FF FF
02037.073744  1  7A6  Rx    d 8 29 FF FF FF FF FF FF FF
02037.077560  1  7A6  Rx    d 8 2A FF FF FF 0A 00 03 02
02037.079671  1  7A6  Rx    d 8 2B 04 01 09 08 0D 0C 0B
02037.082686  1  7A6  Rx    d 8 2C 05 06 07 08 0A 08 08
02037.086398  1  7A6  Rx    d 8 2D 08 08 08 08 08 08 08
02037.089347  1  7A6  Rx    d 8 2E 08 08 08 28 00 00 00
02037.091730  1  7A6  Rx    d 8 2F 00 00 00 00 00 00 00
02037.094722  1  7A6  Rx    d 8 20 00 00 00 09 04 04 04
02037.097689  1  7A6  Rx    d 8 21 04 09 09 09 04 04 04
02037.100696  1  7A6  Rx    d 8 22 04 04 04 08 08 08 08
02037.103680  1  7A6  Rx    d 8 23 08 09 09 09 08 08 08
02037.106711  1  7A6  Rx    d 8 24 08 08 08 02 02 02 02
02037.109710  1  7A6  Rx    d 8 25 02 02 02 02 02 02 02
02037.112686  1  7A6  Rx    d 8 26 02 02 02 00 00 27 09
02037.115709  1  7A6  Rx    d 8 27 00 08 35 FF 1F FF 1F
02037.118708  1  7A6  Rx    d 8 28 FF 1F FF 1F FF FF FF
02037.121724  1  7A6  Rx    d 8 29 FF FF FF FF FF 00 00
02037.124715  1  7A6  Rx    d 8 2A 00 00 00 00 00 00 FF
02037.127729  1  7A6  Rx    d 8 2B FF FF FF FF FF FF FF
02037.131008  1  7A6  Rx    d 8 2C 00 00 04 03 00 00 01
02037.140718  1  7A6  Rx    d 8 2D 15 00 00 00 00 00 07
02037.143742  1  7A6  Rx    d 8 2E FF 00 00 00 00 00 00
02037.148003  1  7A6  Rx    d 8 2F 00 00 00 00 00 00 00
02037.150746  1  7A6  Rx    d 8 20 00 00 00 00 00 00 00
02037.152553  1  7AE  Rx    d 8 03 7F 36 78 00 00 00 00
02037.153512  1  7AE  Rx    d 8 03 7F 36 78 00 00 00 00
02037.160336  1  7AE  Rx    d 8 01 76 00 00 00 00 00 00
02037.184700  1  7A6  Rx    d 8 10 E1 36 00 00 00 00 00
02037.185723  1  7AE  Rx    d 8 30 00 01 00 00 00 00 00
02037.187746  1  7A6  Rx    d 8 21 00 00 00 00 00 02 00
02037.190690  1  7A6  Rx    d 8 22 AC 50 00 00 B4 50 00
02037.193705  1  7A6  Rx    d 8 23 00 BC 50 00 00 C4 50
02037.196745  1  7A6  Rx    d 8 24 00 00 00 00 00 00 03
02037.199752  1  7A6  Rx    d 8 25 00 04 00 05 00 0C 00
02037.202704  1  7A6  Rx    d 8 26 13 00 01 01 01 01 01
02037.205719  1  7A6  Rx    d 8 27 01 01 01 01 01 06 03
02037.208678  1  7A6  Rx    d 8 28 06 03 06 19 19 32 0A
02037.211686  1  7A6  Rx    d 8 29 19 19 19 32 0A 19 00
02037.214709  1  7A6  Rx    d 8 2A FA 00 F4 01 F4 01 F4
02037.217746  1  7A6  Rx    d 8 2B 01 F4 01 F4 01 F4 01
02037.220746  1  7A6  Rx    d 8 2C 00 00 00 00 00 00 00
02037.223722  1  7A6  Rx    d 8 2D 01 02 04 08 10 20 40
02037.227519  1  7A6  Rx    d 8 2E 42 C0 01 00 2E C0 01
02037.229719  1  7A6  Rx    d 8 2F 00 1A C0 01 00 06 C0
02037.233196  1  7A6  Rx    d 8 20 01 00 F2 BF 01 00 DE
02037.236162  1  7A6  Rx    d 8 21 BF 01 00 CA BF 01 00
02037.238722  1  7A6  Rx    d 8 22 03 67 00 00 02 85 00
02037.241721  1  7A6  Rx    d 8 23 00 7E 00 00 00 07 00
02037.244752  1  7A6  Rx    d 8 24 00 00 00 00 00 00 E0
02037.247736  1  7A6  Rx    d 8 25 08 02 00 00 00 00 00
02037.250735  1  7A6  Rx    d 8 26 51 00 00 00 07 00 00
02037.253734  1  7A6  Rx    d 8 27 00 00 00 00 00 2E 05
02037.256742  1  7A6  Rx    d 8 28 02 00 00 00 00 00 58
02037.259741  1  7A6  Rx    d 8 29 00 00 00 07 00 00 00
02037.262716  1  7A6  Rx    d 8 2A 00 00 00 00 E6 03 02
02037.265748  1  7A6  Rx    d 8 2B 00 00 00 00 00 54 00
02037.268739  1  7A6  Rx    d 8 2C 00 00 07 00 00 00 00
02037.271730  1  7A6  Rx    d 8 2D 00 00 00 28 03 02 00
02037.274738  1  7A6  Rx    d 8 2E 00 00 00 00 50 00 00
02037.277752  1  7A6  Rx    d 8 2F 00 07 00 00 00 00 00
02037.280776  1  7A6  Rx    d 8 20 00 00 00 00 00 00 00
02037.282543  1  7AE  Rx    d 8 03 7F 36 78 00 00 00 00
02037.283503  1  7AE  Rx    d 8 03 7F 36 78 00 00 00 00
02037.291334  1  7AE  Rx    d 8 01 76 00 00 00 00 00 00
02037.313165  1  7A6  Rx    d 8 10 E1 36 84 09 02 00 2E
02037.314188  1  7AE  Rx    d 8 30 00 01 00 00 00 00 00
02037.315716  1  7A6  Rx    d 8 21 09 02 00 E0 00 00 00
02037.318762  1  7A6  Rx    d 8 22 05 00 00 00 00 00 00
02037.321722  1  7A6  Rx    d 8 23 00 B4 F5 01 00 34 07
02037.324737  1  7A6  Rx    d 8 24 02 00 71 00 00 00 07
02037.328544  1  7A6  Rx    d 8 25 00 00 00 00 00 00 00
02037.330711  1  7A6  Rx    d 8 26 D4 01 02 00 3C 07 02
02037.334453  1  7A6  Rx    d 8 27 00 72 00 00 00 07 00
02037.343119  1  7A6  Rx    d 8 28 00 00 00 00 00 00 26
02037.345750  1  7A6  Rx    d 8 29 01 02 00 00 00 00 00
02037.348741  1  7A6  Rx    d 8 2A 73 00 00 00 07 00 00
02037.351741  1  7A6  Rx    d 8 2B 00 00 00 00 00 36 00
02037.354740  1  7A6  Rx    d 8 2C 02 00 00 00 00 00 7B
02037.357748  1  7A6  Rx    d 8 2D 00 00 00 07 00 00 00
02037.360740  1  7A6  Rx    d 8 2E 00 00 00 00 C6 F5 01
02037.363747  1  7A6  Rx    d 8 2F 00 00 00 00 00 61 00
02037.367585  1  7A6  Rx    d 8 20 00 00 07 00 00 00 00
02037.369744  1  7A6  Rx    d 8 21 00 00 00 64 F7 01 00
02037.372744  1  7A6  Rx    d 8 22 00 00 00 00 62 00 00
02037.375751  1  7A6  Rx    d 8 23 00 07 00 00 00 00 00
02037.378750  1  7A6  Rx    d 8 24 00 00 D4 FF 01 00 00
02037.381758  1  7A6  Rx    d 8 25 00 00 00 67 00 00 00
02037.384749  1  7A6  Rx    d 8 26 07 00 00 00 00 00 00
02037.387724  1  7A6  Rx    d 8 27 00 38 F3 01 00 2C 07
02037.390755  1  7A6  Rx    d 8 28 02 00 68 00 00 00 07
02037.393770  1  7A6  Rx    d 8 29 00 00 00 00 00 00 00
02037.397482  1  7A6  Rx    d 8 2A 4A 08 02 00 44 07 02
02037.399760  1  7A6  Rx    d 8 2B 00 74 00 00 00 06 00
02037.402768  1  7A6  Rx    d 8 2C 00 00 00 00 00 00 BE
02037.405776  1  7A6  Rx    d 8 2D FC 01 00 00 00 00 00
02037.408742  1  7A6  Rx    d 8 2E 76 00 00 00 06 00 00
02037.411757  1  7A6  Rx    d 8 2F 00 00 00 00 00 AC FC
02037.414772  1  7A6  Rx    d 8 20 01 00 00 00 00 00 00
02037.417563  1  7AE  Rx    d 8 03 7F 36 78 00 00 00 00
02037.418522  1  7AE  Rx    d 8 03 7F 36 78 00 00 00 00
02037.426497  1  7AE  Rx    d 8 01 76 00 00 00 00 00 00
02037.455116  1  7A6  Rx    d 8 10 E1 36 00 00 00 00 77
02037.456140  1  7AE  Rx    d 8 30 00 01 00 00 00 00 00
02037.457764  1  7A6  Rx    d 8 21 00 00 00 06 00 00 00
02037.460756  1  7A6  Rx    d 8 22 00 00 00 00 9A FC 01
02037.463763  1  7A6  Rx    d 8 23 00 00 00 00 00 6E 00
02037.467578  1  7A6  Rx    d 8 24 00 00 07 00 00 00 00
02037.469745  1  7A6  Rx    d 8 25 00 00 00 D2 FC 01 00
02037.472768  1  7A6  Rx    d 8 26 00 00 00 00 6F 00 00
02037.475768  1  7A6  Rx    d 8 27 00 05 00 00 00 00 00
02037.478774  1  7A6  Rx    d 8 28 00 00 0A F8 01 00 24
02037.481749  1  7A6  Rx    d 8 29 07 02 00 C5 00 00 00
02037.484773  1  7A6  Rx    d 8 2A 07 00 00 00 00 00 00
02037.487740  1  7A6  Rx    d 8 2B 00 24 FC 01 00 14 07
02037.490756  1  7A6  Rx    d 8 2C 02 00 F1 00 00 00 07
02037.493771  1  7A6  Rx    d 8 2D 00 00 00 00 00 00 00
02037.496738  1  7A6  Rx    d 8 2E A2 F5 01 00 1C 07 02
02037.499778  1  7A6  Rx    d 8 2F 00 FF FF FF FF FF FF
02037.502785  1  7A6  Rx    d 8 20 FF FF FF FF FF FF FF
02037.505792  1  7A6  Rx    d 8 21 FF FF FF 04 01 FF FF
02037.508766  1  7A6  Rx    d 8 22 03 FF FF FF 02 FF FF
02037.511782  1  7A6  Rx    d 8 23 FF FF FF FF FF FF 0A
02037.514757  1  7A6  Rx    d 8 24 0B FF FF FF FF 0C 0D
02037.517788  1  7A6  Rx    d 8 25 FF FF FF FF FF 11 12
02037.520755  1  7A6  Rx    d 8 26 FF 06 07 08 0E FF 0F
02037.523770  1  7A6  Rx    d 8 27 10 FF FF FF 09 FF FF
02037.527561  1  7A6  Rx    d 8 28 00 FF FF FF FF FF FF
02037.529777  1  7A6  Rx    d 8 29 13 FF FF FF FF FF FF
02037.532784  1  7A6  Rx    d 8 2A FF FF FF FF FF FF FF
02037.537644  1  7A6  Rx    d 8 2B FF FF FF FF FF FF FF
02037.540602  1  7A6  Rx    d 8 2C FF FF FF FF FF FF 05
02037.542776  1  7A6  Rx    d 8 2D FF FF FF FF FF FF FF
02037.545792  1  7A6  Rx    d 8 2E FF FF FF FF FF FF FF
02037.548791  1  7A6  Rx    d 8 2F FF FF 14 FF FF FF FF
02037.551806  1  7A6  Rx    d 8 20 FF FF 00 00 00 00 00
02037.554542  1  7AE  Rx    d 8 03 7F 36 78 00 00 00 00
02037.555501  1  7AE  Rx    d 8 03 7F 36 78 00 00 00 00
02037.562324  1  7AE  Rx    d 8 01 76 00 00 00 00 00 00
02037.595342  1  7A6  Rx    d 8 10 E1 36 FF FF FF FF FF
02037.596366  1  7AE  Rx    d 8 30 00 01 00 00 00 00 00
02037.597758  1  7A6  Rx    d 8 21 FF FF FF 01 27 07 00
02037.600765  1  7A6  Rx    d 8 22 E4 03 00 00 E3 03 00
02037.603756  1  7A6  Rx    d 8 23 00 E3 03 00 00 E2 03
02037.607386  1  7A6  Rx    d 8 24 00 00 E1 03 00 00 E0
02037.609786  1  7A6  Rx    d 8 25 03 00 00 E0 03 00 00
02037.612769  1  7A6  Rx    d 8 26 DF 03 00 00 DE 03 00
02037.615777  1  7A6  Rx    d 8 27 00 DD 03 00 00 DD 03
02037.618759  1  7A6  Rx    d 8 28 00 00 DC 03 00 00 DB
02037.621774  1  7A6  Rx    d 8 29 03 00 00 DA 03 00 00
02037.624750  1  7A6  Rx    d 8 2A D9 03 00 00 D8 03 00
02037.628484  1  7A6  Rx    d 8 2B 00 D7 03 00 00 D6 03
02037.630772  1  7A6  Rx    d 8 2C 00 00 D5 03 00 00 D4
02037.634651  1  7A6  Rx    d 8 2D 03 00 00 D3 03 00 00
02037.637474  1  7A6  Rx    d 8 2E D2 03 00 00 D1 03 00
02037.639770  1  7A6  Rx    d 8 2F 00 D0 03 00 00 CF 03
02037.642785  1  7A6  Rx    d 8 20 00 00 CE 03 00 00 CD
02037.645784  1  7A6  Rx    d 8 21 03 00 00 CC 03 00 00
02037.648764  1  7A6  Rx    d 8 22 CA 03 00 00 C9 03 00
02037.651764  1  7A6  Rx    d 8 23 00 C8 03 00 00 C7 03
02037.654771  1  7A6  Rx    d 8 24 00 00 C5 03 00 00 C4
02037.659216  1  7A6  Rx    d 8 25 03 00 00 C3 03 00 00
02037.661792  1  7A6  Rx    d 8 26 C1 03 00 00 C0 03 00
02037.664791  1  7A6  Rx    d 8 27 00 BF 03 00 00 BD 03
02037.667798  1  7A6  Rx    d 8 28 00 00 BC 03 00 00 BA
02037.670773  1  7A6  Rx    d 8 29 03 00 00 B9 03 00 00
02037.673772  1  7A6  Rx    d 8 2A B7 03 00 00 B6 03 00
02037.677499  1  7A6  Rx    d 8 2B 00 B4 03 00 00 B2 03
02037.679779  1  7A6  Rx    d 8 2C 00 00 B1 03 00 00 AF
02037.682794  1  7A6  Rx    d 8 2D 03 00 00 AD 03 00 00
02037.685786  1  7A6  Rx    d 8 2E AC 03 00 00 AA 03 00
02037.688769  1  7A6  Rx    d 8 2F 00 A8 03 00 00 A6 03
02037.691832  1  7A6  Rx    d 8 20 00 00 00 00 00 00 00
02037.694536  1  7AE  Rx    d 8 03 7F 36 78 00 00 00 00
02037.695495  1  7AE  Rx    d 8 03 7F 36 78 00 00 00 00
02037.704244  1  7AE  Rx    d 8 01 76 00 00 00 00 00 00
02037.728505  1  7A6  Rx    d 8 10 E1 36 A4 03 00 00 A2
02037.729528  1  7AE  Rx    d 8 30 00 01 00 00 00 00 00
02037.730792  1  7A6  Rx    d 8 21 03 00 00 A0 03 00 00
02037.734094  1  7A6  Rx    d 8 22 9F 03 00 00 9C 03 00
02037.737892  1  7A6  Rx    d 8 23 00 9A 03 00 00 98 03
02037.740842  1  7A6  Rx    d 8 24 00 00 96 03 00 00 94
02037.743840  1  7A6  Rx    d 8 25 03 00 00 92 03 00 00
02037.748788  1  7A6  Rx    d 8 26 90 03 00 00 8E 03 00
02037.752755  1  7A6  Rx    d 8 27 00 8B 03 00 00 89 03
02037.755795  1  7A6  Rx    d 8 28 00 00 87 03 00 00 85
02037.758794  1  7A6  Rx    d 8 29 03 00 00 82 03 00 00
02037.761794  1  7A6  Rx    d 8 2A 80 03 00 00 7D 03 00
02037.764769  1  7A6  Rx    d 8 2B 00 7B 03 00 00 78 03
02037.767816  1  7A6  Rx    d 8 2C 00 00 76 03 00 00 73
02037.770799  1  7A6  Rx    d 8 2D 03 00 00 70 03 00 00
02037.773782  1  7A6  Rx    d 8 2E 6E 03 00 00 6B 03 00
02037.777518  1  7A6  Rx    d 8 2F 00 68 03 00 00 66 03
02037.779821  1  7A6  Rx    d 8 20 00 00 63 03 00 00 60
02037.782796  1  7A6  Rx    d 8 21 03 00 00 5D 03 00 00
02037.785780  1  7A6  Rx    d 8 22 5B 03 00 00 58 03 00
02037.788788  1  7A6  Rx    d 8 23 00 55 03 00 00 52 03
02037.791795  1  7A6  Rx    d 8 24 00 00 4F 03 00 00 4C
02037.794802  1  7A6  Rx    d 8 25 03 00 00 48 03 00 00
02037.797785  1  7A6  Rx    d 8 26 45 03 00 00 42 03 00
02037.800808  1  7A6  Rx    d 8 27 00 3F 03 00 00 3C 03
02037.803800  1  7A6  Rx    d 8 28 00 00 39 03 00 00 35
02037.807534  1  7A6  Rx    d 8 29 03 00 00 32 03 00 00
02037.809790  1  7A6  Rx    d 8 2A 2F 03 00 00 2B 03 00
02037.812797  1  7A6  Rx    d 8 2B 00 28 03 00 00 25 03
02037.815805  1  7A6  Rx    d 8 2C 00 00 21 03 00 00 1E
02037.818804  1  7A6  Rx    d 8 2D 03 00 00 1A 03 00 00
02037.821787  1  7A6  Rx    d 8 2E 17 03 00 00 13 03 00
02037.824802  1  7A6  Rx    d 8 2F 00 0F 03 00 00 0C 03
02037.827842  1  7A6  Rx    d 8 20 00 00 00 00 00 00 00
02037.829537  1  7AE  Rx    d 8 03 7F 36 78 00 00 00 00
02037.830496  1  7AE  Rx    d 8 03 7F 36 78 00 00 00 00
02037.838318  1  7AE  Rx    d 8 01 76 00 00 00 00 00 00
02037.882950  1  7A6  Rx    d 8 10 E1 36 08 03 00 00 05
02037.884934  1  7AE  Rx    d 8 30 00 01 00 00 00 00 00
02037.886885  1  7A6  Rx    d 8 21 03 00 00 01 03 00 00
02037.889820  1  7A6  Rx    d 8 22 FD 02 00 00 F9 02 00
02037.892804  1  7A6  Rx    d 8 23 00 F6 02 00 00 F2 02
02037.895811  1  7A6  Rx    d 8 24 00 00 EE 02 00 00 EA
02037.898803  1  7A6  Rx    d 8 25 02 00 00 E6 02 00 00
02037.901802  1  7A6  Rx    d 8 26 E2 02 00 00 DE 02 00
02037.904810  1  7A6  Rx    d 8 27 00 DA 02 00 00 D6 02
02037.907808  1  7A6  Rx    d 8 28 00 00 D2 02 00 00 CE
02037.910816  1  7A6  Rx    d 8 29 02 00 00 CA 02 00 00
02037.913791  1  7A6  Rx    d 8 2A C6 02 00 00 C2 02 00
02037.917526  1  7A6  Rx    d 8 2B 00 BE 02 00 00 BA 02
02037.919822  1  7A6  Rx    d 8 2C 00 00 B6 02 00 00 B2
02037.922829  1  7A6  Rx    d 8 2D 02 00 00 AD 02 00 00
02037.925812  1  7A6  Rx    d 8 2E A9 02 00 00 A5 02 00
02037.928804  1  7A6  Rx    d 8 2F 00 A1 02 00 00 9D 02
02037.931827  1  7A6  Rx    d 8 20 00 00 98 02 00 00 94
02037.935170  1  7A6  Rx    d 8 21 02 00 00 90 02 00 00
02037.938032  1  7A6  Rx    d 8 22 8C 02 00 00 87 02 00
02037.940973  1  7A6  Rx    d 8 23 00 83 02 00 00 7F 02
02037.943804  1  7A6  Rx    d 8 24 00 00 7A 02 00 00 76
02037.946827  1  7A6  Rx    d 8 25 02 00 00 72 02 00 00
02037.949810  1  7A6  Rx    d 8 26 6D 02 00 00 69 02 00
02037.952818  1  7A6  Rx    d 8 27 00 65 02 00 00 60 02
02037.955833  1  7A6  Rx    d 8 28 00 00 5C 02 00 00 58
02037.958825  1  7A6  Rx    d 8 29 02 00 00 53 02 00 00
02037.961808  1  7A6  Rx    d 8 2A 4F 02 00 00 4B 02 00
02037.964816  1  7A6  Rx    d 8 2B 00 46 02 00 00 42 02
02037.967862  1  7A6  Rx    d 8 2C 00 00 3D 02 00 00 39
02037.970830  1  7A6  Rx    d 8 2D 02 00 00 35 02 00 00
02037.974669  1  7A6  Rx    d 8 2E 30 02 00 00 2C 02 00
02037.977475  1  7A6  Rx    d 8 2F 00 28 02 00 00 23 02
02037.979858  1  7A6  Rx    d 8 20 00 00 00 00 00 00 00
02037.982530  1  7AE  Rx    d 8 03 7F 36 78 00 00 00 00
02037.983488  1  7AE  Rx    d 8 03 7F 36 78 00 00 00 00
02037.991320  1  7AE  Rx    d 8 01 76 00 00 00 00 00 00
02038.016516  1  7A6  Rx    d 8 10 E1 36 1F 02 00 00 1B
02038.017540  1  7AE  Rx    d 8 30 00 01 00 00 00 00 00
02038.018828  1  7A6  Rx    d 8 21 02 00 00 16 02 00 00
02038.021819  1  7A6  Rx    d 8 22 12 02 00 00 0E 02 00
02038.024842  1  7A6  Rx    d 8 23 00 09 02 00 00 05 02
02038.027848  1  7A6  Rx    d 8 24 00 00 01 02 00 00 FD
02038.030840  1  7A6  Rx    d 8 25 01 00 00 F8 01 00 00
02038.033824  1  7A6  Rx    d 8 26 F4 01 00 00 F0 01 00
02038.036823  1  7A6  Rx    d 8 27 00 EC 01 00 00 E7 01
02038.039838  1  7A6  Rx    d 8 28 00 00 E3 01 00 00 DF
02038.042830  1  7A6  Rx    d 8 29 01 00 00 DB 01 00 00
02038.045821  1  7A6  Rx    d 8 2A D7 01 00 00 D2 01 00
02038.048828  1  7A6  Rx    d 8 2B 00 CE 01 00 00 CA 01
02038.051836  1  7A6  Rx    d 8 2C 00 00 C6 01 00 00 C2
02038.054835  1  7A6  Rx    d 8 2D 01 00 00 BE 01 00 00
02038.057826  1  7A6  Rx    d 8 2E BA 01 00 00 B6 01 00
02038.060834  1  7A6  Rx    d 8 2F 00 B2 01 00 00 AE 01
02038.063825  1  7A6  Rx    d 8 20 00 00 AA 01 00 00 A6
02038.068495  1  7A6  Rx    d 8 21 01 00 00 A2 01 00 00
02038.070839  1  7A6  Rx    d 8 22 9E 01 00 00 9A 01 00
02038.073814  1  7A6  Rx    d 8 23 00 96 01 00 00 92 01
02038.077468  1  7A6  Rx    d 8 24 00 00 8F 01 00 00 8B
02038.079836  1  7A6  Rx    d 8 25 01 00 00 87 01 00 00
02038.082827  1  7A6  Rx    d 8 26 83 01 00 00 80 01 00
02038.086386  1  7A6  Rx    d 8 27 00 7C 01 00 00 78 01
02038.088832  1  7A6  Rx    d 8 28 00 00 75 01 00 00 71
02038.091840  1  7A6  Rx    d 8 29 01 00 00 6E 01 00 00
02038.094816  1  7A6  Rx    d 8 2A 6A 01 00 00 67 01 00
02038.097831  1  7A6  Rx    d 8 2B 00 63 01 00 00 60 01
02038.100846  1  7A6  Rx    d 8 2C 00 00 5C 01 00 00 59
02038.103846  1  7A6  Rx    d 8 2D 01 00 00 55 01 00 00
02038.107492  1  7A6  Rx    d 8 2E 52 01 00 00 4F 01 00
02038.109836  1  7A6  Rx    d 8 2F 00 4B 01 00 00 48 01
02038.112892  1  7A6  Rx    d 8 20 00 00 00 00 00 00 00
02038.115523  1  7AE  Rx    d 8 03 7F 36 78 00 00 00 00
02038.116482  1  7AE  Rx    d 8 03 7F 36 78 00 00 00 00
02038.124318  1  7AE  Rx    d 8 01 76 00 00 00 00 00 00
02038.144182  1  7A6  Rx    d 8 10 E1 36 45 01 00 00 41
02038.145205  1  7AE  Rx    d 8 30 00 01 00 00 00 00 00
02038.146852  1  7A6  Rx    d 8 21 01 00 00 3E 01 00 00
02038.149836  1  7A6  Rx    d 8 22 3B 01 00 00 38 01 00
02038.152852  1  7A6  Rx    d 8 23 00 35 01 00 00 32 01
02038.155859  1  7A6  Rx    d 8 24 00 00 2E 01 00 00 2B
02038.161714  1  7A6  Rx    d 8 25 01 00 00 28 01 00 00
02038.163834  1  7A6  Rx    d 8 26 25 01 00 00 22 01 00
02038.169479  1  7A6  Rx    d 8 27 00 1F 01 00 00 1C 01
02038.171863  1  7A6  Rx    d 8 28 00 00 19 01 00 00 17
02038.174854  1  7A6  Rx    d 8 29 01 00 00 14 01 00 00
02038.177836  1  7A6  Rx    d 8 2A 11 01 00 00 0E 01 00
02038.180860  1  7A6  Rx    d 8 2B 00 0B 01 00 00 08 01
02038.183859  1  7A6  Rx    d 8 2C 00 00 06 01 00 00 03
02038.186866  1  7A6  Rx    d 8 2D 01 00 00 00 01 00 00
02038.189858  1  7A6  Rx    d 8 2E FE 00 00 00 FB 00 00
02038.192850  1  7A6  Rx    d 8 2F 00 F8 00 00 00 F6 00
02038.195857  1  7A6  Rx    d 8 20 00 00 F3 00 00 00 F1
02038.198856  1  7A6  Rx    d 8 21 00 00 00 20 20 20 20
02038.201848  1  7A6  Rx    d 8 22 20 20 20 20 00 20 20
02038.204855  1  7A6  Rx    d 8 23 20 20 20 20 20 20 20
02038.207846  1  7A6  Rx    d 8 24 20 20 20 20 20 20 20
02038.210862  1  7A6  Rx    d 8 25 20 20 20 20 20 20 20
02038.213846  1  7A6  Rx    d 8 26 20 20 20 20 20 20 20
02038.217508  1  7A6  Rx    d 8 27 20 20 20 20 00 20 20
02038.219851  1  7A6  Rx    d 8 28 20 20 20 20 20 20 00
02038.222866  1  7A6  Rx    d 8 29 20 20 00 20 20 20 00
02038.225850  1  7A6  Rx    d 8 2A 20 20 20 20 20 20 45
02038.228840  1  7A6  Rx    d 8 2B 6D 70 74 79 20 20 20
02038.231880  1  7A6  Rx    d 8 2C 20 20 00 20 20 00 20
02038.234847  1  7A6  Rx    d 8 2D 20 20 20 20 20 20 20
02038.238454  1  7A6  Rx    d 8 2E 20 20 20 20 20 20 20
02038.241452  1  7A6  Rx    d 8 2F 20 20 20 20 20 20 20
02038.244466  1  7A6  Rx    d 8 20 20 20 00 00 00 00 00
02038.246529  1  7AE  Rx    d 8 03 7F 36 78 00 00 00 00
02038.247488  1  7AE  Rx    d 8 03 7F 36 78 00 00 00 00
02038.255310  1  7AE  Rx    d 8 01 76 00 00 00 00 00 00
02038.286233  1  7A6  Rx    d 8 10 E1 36 20 20 20 20 20
02038.288216  1  7AE  Rx    d 8 30 00 01 00 00 00 00 00
02038.289343  1  7A6  Rx    d 8 21 20 20 20 00 20 20 20
02038.291862  1  7A6  Rx    d 8 22 20 20 20 20 20 20 20
02038.294870  1  7A6  Rx    d 8 23 20 20 20 20 20 20 20
02038.297862  1  7A6  Rx    d 8 24 20 20 20 20 20 20 20
02038.300869  1  7A6  Rx    d 8 25 20 20 20 20 20 20 20
02038.303868  1  7A6  Rx    d 8 26 00 2E 00 2E 00 20 20
02038.307491  1  7A6  Rx    d 8 27 00 20 20 20 20 45 6D
02038.309834  1  7A6  Rx    d 8 28 70 74 79 20 20 20 20
02038.312858  1  7A6  Rx    d 8 29 20 00 53 54 00 20 20
02038.315873  1  7A6  Rx    d 8 2A 20 20 20 20 00 41 4D
02038.318856  1  7A6  Rx    d 8 2B 20 20 20 20 00 20 20
02038.321880  1  7A6  Rx    d 8 2C 20 20 20 20 20 20 00
02038.324863  1  7A6  Rx    d 8 2D 41 4D 20 41 53 00 20
02038.327870  1  7A6  Rx    d 8 2E 20 20 20 20 20 20 20
02038.330829  1  7A6  Rx    d 8 2F 00 46 4D 20 31 20 20
02038.333852  1  7A6  Rx    d 8 20 00 46 4D 20 32 20 20
02038.337338  1  7A6  Rx    d 8 21 00 46 4D 20 41 53 00
02038.340232  1  7A6  Rx    d 8 22 52 44 53 00 20 20 20
02038.343111  1  7A6  Rx    d 8 23 20 20 20 20 20 00 20
02038.346004  1  7A6  Rx    d 8 24 00 45 6D 65 72 67 65
02038.348844  1  7A6  Rx    d 8 25 6E 63 79 20 42 27 63
02038.351835  1  7A6  Rx    d 8 26 61 73 74 20 00 50 72
02038.354842  1  7A6  Rx    d 8 27 65 73 73 20 27 45 58
02038.357825  1  7A6  Rx    d 8 28 49 54 27 20 62 75 74
02038.360832  1  7A6  Rx    d 8 29 74 6F 6E 20 74 6F 20
02038.363856  1  7A6  Rx    d 8 2A 73 74 6F 70 00 20 00
02038.367502  1  7A6  Rx    d 8 2B 54 72 61 66 66 69 63
02038.369829  1  7A6  Rx    d 8 2C 20 41 6E 6E 6F 75 6E
02038.372836  1  7A6  Rx    d 8 2D 63 65 2E 2E 2E 00 50
02038.375828  1  7A6  Rx    d 8 2E 72 65 73 73 20 27 45
02038.378844  1  7A6  Rx    d 8 2F 58 49 54 27 20 62 75
02038.381891  1  7A6  Rx    d 8 20 74 74 00 00 00 00 00
02038.385522  1  7AE  Rx    d 8 03 7F 36 78 00 00 00 00
02038.386481  1  7AE  Rx    d 8 03 7F 36 78 00 00 00 00
02038.394312  1  7AE  Rx    d 8 01 76 00 00 00 00 00 00
02038.416092  1  7A6  Rx    d 8 10 E1 36 6F 6E 20 74 6F
02038.417115  1  7AE  Rx    d 8 30 00 01 00 00 00 00 00
02038.418851  1  7A6  Rx    d 8 21 20 73 74 6F 70 00 20
02038.421850  1  7A6  Rx    d 8 22 00 50 72 6F 67 72 61
02038.424850  1  7A6  Rx    d 8 23 6D 20 54 79 70 65 73
02038.427857  1  7A6  Rx    d 8 24 20 00 4E 6F 74 20 46
02038.430856  1  7A6  Rx    d 8 25 6F 75 6E 64 00 20 20
02038.433880  1  7A6  Rx    d 8 26 20 20 20 20 20 20 20
02038.436879  1  7A6  Rx    d 8 27 20 20 20 20 20 20 20
02038.439886  1  7A6  Rx    d 8 28 20 20 20 20 20 20 20
02038.442870  1  7A6  Rx    d 8 29 20 20 20 20 20 20 20
02038.445894  1  7A6  Rx    d 8 2A 20 20 20 20 20 20 20
02038.448877  1  7A6  Rx    d 8 2B 20 20 20 20 20 20 20
02038.451892  1  7A6  Rx    d 8 2C 20 20 00 20 20 20 20
02038.454875  1  7A6  Rx    d 8 2D 20 20 20 20 20 20 20
02038.457882  1  7A6  Rx    d 8 2E 20 20 20 20 20 20 20
02038.460890  1  7A6  Rx    d 8 2F 20 20 20 20 20 20 20
02038.463881  1  7A6  Rx    d 8 20 20 20 20 20 20 20 20
02038.469478  1  7A6  Rx    d 8 21 20 20 20 20 20 20 20
02038.471870  1  7A6  Rx    d 8 22 20 20 20 20 20 20 20
02038.474844  1  7A6  Rx    d 8 23 00 4E 65 77 73 00 43
02038.477836  1  7A6  Rx    d 8 24 75 72 72 65 6E 74 20
02038.480835  1  7A6  Rx    d 8 25 41 66 66 61 69 72 73
02038.483850  1  7A6  Rx    d 8 26 00 49 6E 66 6F 72 6D
02038.486850  1  7A6  Rx    d 8 27 61 74 69 6F 6E 00 53
02038.489865  1  7A6  Rx    d 8 28 70 6F 72 74 00 45 64
02038.492833  1  7A6  Rx    d 8 29 75 63 61 74 69 6F 6E
02038.495856  1  7A6  Rx    d 8 2A 00 44 72 61 6D 61 00
02038.498840  1  7A6  Rx    d 8 2B 43 75 6C 74 75 72 65
02038.501847  1  7A6  Rx    d 8 2C 00 53 63 69 65 6E 63
02038.504846  1  7A6  Rx    d 8 2D 65 00 56 61 72 69 65
02038.507877  1  7A6  Rx    d 8 2E 64 00 50 6F 70 20 4D
02038.510844  1  7A6  Rx    d 8 2F 75 73 69 63 00 52 6F
02038.513908  1  7A6  Rx    d 8 20 63 6B 00 00 00 00 00
02038.516523  1  7AE  Rx    d 8 03 7F 36 78 00 00 00 00
02038.517482  1  7AE  Rx    d 8 03 7F 36 78 00 00 00 00
02038.524304  1  7AE  Rx    d 8 01 76 00 00 00 00 00 00
02038.567950  1  7A6  Rx    d 8 10 E1 36 20 4D 75 73 69
02038.568974  1  7AE  Rx    d 8 30 00 01 00 00 00 00 00
02038.570853  1  7A6  Rx    d 8 21 63 00 45 61 73 79 20
02038.573845  1  7A6  Rx    d 8 22 4C 69 73 74 65 6E 69
02038.577396  1  7A6  Rx    d 8 23 6E 67 20 4D 75 73 69
02038.579875  1  7A6  Rx    d 8 24 63 00 4C 69 67 68 74
02038.582850  1  7A6  Rx    d 8 25 20 43 6C 61 73 73 69
02038.586314  1  7A6  Rx    d 8 26 63 61 6C 00 53 65 72
02038.589199  1  7A6  Rx    d 8 27 69 6F 75 73 20 43 6C
02038.591846  1  7A6  Rx    d 8 28 61 73 73 69 63 61 6C
02038.594853  1  7A6  Rx    d 8 29 00 4F 74 68 65 72 20
02038.597860  1  7A6  Rx    d 8 2A 4D 75 73 69 63 00 57
02038.600860  1  7A6  Rx    d 8 2B 65 61 74 68 65 72 00
02038.603851  1  7A6  Rx    d 8 2C 46 69 6E 61 6E 63 65
02038.607434  1  7A6  Rx    d 8 2D 00 43 68 69 6C 64 72
02038.609873  1  7A6  Rx    d 8 2E 65 6E 27 73 20 50 72
02038.612872  1  7A6  Rx    d 8 2F 6F 67 72 61 6D 73 00
02038.615864  1  7A6  Rx    d 8 20 53 6F 63 69 61 6C 20
02038.618855  1  7A6  Rx    d 8 21 41 66 66 61 69 72 73
02038.621862  1  7A6  Rx    d 8 22 00 52 65 6C 69 67 69
02038.624886  1  7A6  Rx    d 8 23 6F 6E 00 50 68 6F 6E
02038.627876  1  7A6  Rx    d 8 24 65 20 49 6E 00 54 72
02038.631571  1  7A6  Rx    d 8 25 61 76 65 6C 00 4C 65
02038.634578  1  7A6  Rx    d 8 26 69 73 75 72 65 00 4A
02038.636865  1  7A6  Rx    d 8 27 61 7A 7A 20 4D 75 73
02038.639856  1  7A6  Rx    d 8 28 69 63 00 43 6F 75 6E
02038.642872  1  7A6  Rx    d 8 29 74 72 79 20 4D 75 73
02038.645872  1  7A6  Rx    d 8 2A 69 63 00 4E 61 74 69
02038.648862  1  7A6  Rx    d 8 2B 6F 6E 61 6C 20 4D 75
02038.651869  1  7A6  Rx    d 8 2C 73 69 63 00 4F 6C 64
02038.654860  1  7A6  Rx    d 8 2D 69 65 73 20 4D 75 73
02038.660008  1  7A6  Rx    d 8 2E 69 63 00 46 6F 6C 6B
02038.662856  1  7A6  Rx    d 8 2F 20 4D 75 73 69 63 00
02038.665928  1  7A6  Rx    d 8 20 44 6F 00 00 00 00 00
02038.668518  1  7AE  Rx    d 8 03 7F 36 78 00 00 00 00
02038.670484  1  7AE  Rx    d 8 03 7F 36 78 00 00 00 00
02038.676306  1  7AE  Rx    d 8 01 76 00 00 00 00 00 00
02038.712332  1  7A6  Rx    d 8 10 E1 36 63 75 6D 65 6E
02038.713354  1  7AE  Rx    d 8 30 00 01 00 00 00 00 00
02038.714882  1  7A6  Rx    d 8 21 74 61 72 79 00 41 6C
02038.717905  1  7A6  Rx    d 8 22 61 72 6D 20 54 65 73
02038.720889  1  7A6  Rx    d 8 23 74 00 41 6C 61 72 6D
02038.723944  1  7A6  Rx    d 8 24 00 00 20 00 20 20 20
02038.728389  1  7A6  Rx    d 8 25 20 20 20 20 20 20 20
02038.730893  1  7A6  Rx    d 8 26 00 50 48 4F 4E 45 00
02038.733876  1  7A6  Rx    d 8 27 52 65 61 64 69 6E 67
02038.736908  1  7A6  Rx    d 8 28 20 44 69 73 63 00 50
02038.740362  1  7A6  Rx    d 8 29 6C 65 61 73 65 20 57
02038.743184  1  7A6  Rx    d 8 2A 61 69 74 2E 2E 2E 00
02038.746134  1  7A6  Rx    d 8 2B 20 20 20 20 20 20 20
02038.749124  1  7A6  Rx    d 8 2C 20 20 20 20 20 20 20
02038.752106  1  7A6  Rx    d 8 2D 20 20 20 20 20 20 20
02038.755048  1  7A6  Rx    d 8 2E 20 20 20 20 20 20 20
02038.758022  1  7A6  Rx    d 8 2F 20 20 20 00 20 00 20
02038.760885  1  7A6  Rx    d 8 20 20 20 00 54 72 61 63
02038.763924  1  7A6  Rx    d 8 21 6B 20 20 00 20 20 20
02038.768460  1  7A6  Rx    d 8 22 00 20 20 20 20 20 20
02038.770923  1  7A6  Rx    d 8 23 20 20 20 20 20 20 20
02038.773938  1  7A6  Rx    d 8 24 20 20 20 20 20 20 20
02038.777434  1  7A6  Rx    d 8 25 20 00 20 20 20 20 20
02038.779920  1  7A6  Rx    d 8 26 20 20 20 20 20 20 20
02038.782936  1  7A6  Rx    d 8 27 20 20 20 20 20 20 00
02038.785928  1  7A6  Rx    d 8 28 20 20 20 20 20 20 20
02038.788943  1  7A6  Rx    d 8 29 20 00 20 20 20 20 20
02038.791926  1  7A6  Rx    d 8 2A 00 20 20 20 00 41 75
02038.794886  1  7A6  Rx    d 8 2B 78 69 6C 69 61 72 79
02038.797901  1  7A6  Rx    d 8 2C 00 41 75 78 69 6C 69
02038.800893  1  7A6  Rx    d 8 2D 61 72 79 00 41 75 64
02038.803908  1  7A6  Rx    d 8 2E 69 6F 20 4F 66 66 00
02038.807459  1  7A6  Rx    d 8 2F 20 00 41 75 64 69 6F
02038.809962  1  7A6  Rx    d 8 20 20 4F 00 00 00 00 00
02038.812513  1  7AE  Rx    d 8 03 7F 36 78 00 00 00 00
02038.813472  1  7AE  Rx    d 8 03 7F 36 78 00 00 00 00
02038.821296  1  7AE  Rx    d 8 01 76 00 00 00 00 00 00
02038.853284  1  7A6  Rx    d 8 10 E1 36 66 66 00 20 00
02038.854308  1  7AE  Rx    d 8 30 00 01 00 00 00 00 00
02038.855955  1  7A6  Rx    d 8 21 00 00 00 FF FF FF 00
02038.858962  1  7A6  Rx    d 8 22 00 00 00 00 02 00 00
02038.861946  1  7A6  Rx    d 8 23 00 00 00 00 00 48 5B
02038.864970  1  7A6  Rx    d 8 24 00 00 F8 00 00 00 00
02038.868000  1  7A6  Rx    d 8 25 00 00 00 00 00 00 00
02038.870968  1  7A6  Rx    d 8 26 00 00 00 00 00 00 00
02038.873967  1  7A6  Rx    d 8 27 00 00 00 00 00 00 00
02038.877447  1  7A6  Rx    d 8 28 00 00 03 E0 E0 00 00
02038.879967  1  7A6  Rx    d 8 29 00 00 00 00 00 00 00
02038.882974  1  7A6  Rx    d 8 2A 00 00 00 00 00 00 00
02038.885973  1  7A6  Rx    d 8 2B 00 00 00 00 00 00 00
02038.888956  1  7A6  Rx    d 8 2C 00 00 00 00 00 E0 C3
02038.891971  1  7A6  Rx    d 8 2D FF FF FF FF FF FF FF
02038.894970  1  7A6  Rx    d 8 2E FF FF FF FF FF FF FF
02038.897986  1  7A6  Rx    d 8 2F FF FF FF FF FF FF FF
02038.900970  1  7A6  Rx    d 8 20 FF FF FF FF FF FF F8
02038.903953  1  7A6  Rx    d 8 21 60 8F 81 80 FF FF FF
02038.908438  1  7A6  Rx    d 8 22 FF FF FF FF FF FF FF
02038.910974  1  7A6  Rx    d 8 23 FF FF FF FF FF FF FF
02038.914676  1  7A6  Rx    d 8 24 FF FF FF FF FF FF FF
02038.916956  1  7A6  Rx    d 8 25 FF FE 20 9F 00 80 7F
02038.919972  1  7A6  Rx    d 8 26 FF FF FF FF FF FF FF
02038.922979  1  7A6  Rx    d 8 27 FF FF FF FF FF FF FF
02038.925978  1  7A6  Rx    d 8 28 FF FF FF FF FF FF FF
02038.928961  1  7A6  Rx    d 8 29 FF FF FF FF 20 1E 3C
02038.931960  1  7A6  Rx    d 8 2A 9E 3F FF FF FF FF FF
02038.934976  1  7A6  Rx    d 8 2B FF FF FF FF FF FF FF
02038.937982  1  7A6  Rx    d 8 2C FF FF FF FF FF FF FF
02038.941436  1  7A6  Rx    d 8 2D FF FF FF FF FF FF 00
02038.944314  1  7A6  Rx    d 8 2E 3E 7F 9F 3F FF FF FF
02038.948296  1  7A6  Rx    d 8 2F FF FF FF FF FF FF FF
02038.950983  1  7A6  Rx    d 8 20 FF FF 00 00 00 00 00
02038.953510  1  7AE  Rx    d 8 03 7F 36 78 00 00 00 00
02038.954469  1  7AE  Rx    d 8 03 7F 36 78 00 00 00 00
02038.960292  1  7AE  Rx    d 8 01 76 00 00 00 00 00 00
02038.996225  1  7A6  Rx    d 8 10 E1 36 FF FF FF FF FF
02038.997248  1  7AE  Rx    d 8 30 00 01 00 00 00 00 00
02038.998976  1  7A6  Rx    d 8 21 FF FF FF FF FF FF FF
02039.001959  1  7A6  Rx    d 8 22 FF 80 3E 7F 9F 3F FF
02039.004990  1  7A6  Rx    d 8 23 FF FF FF FF FF FF FF
02039.008500  1  7A6  Rx    d 8 24 FF FF FF FF FF FF FF
02039.010988  1  7A6  Rx    d 8 25 FF FF FF FF FF FF FF
02039.013987  1  7A6  Rx    d 8 26 FF FF FF 80 3E 7F 9F
02039.017474  1  7A6  Rx    d 8 27 3F FF FF FF FF FF FF
02039.019994  1  7A6  Rx    d 8 28 FF FF FF FF FF FF FF
02039.023009  1  7A6  Rx    d 8 29 FF FF FF FF FF FF FF
02039.025985  1  7A6  Rx    d 8 2A FF FF FF FF FF 80 3E
02039.028975  1  7A6  Rx    d 8 2B 7F 9F 3F FF FF FF FF
02039.031998  1  7A6  Rx    d 8 2C FF FF FF FF FF FF FF
02039.034982  1  7A6  Rx    d 8 2D FF FF FF FF FF FF FF
02039.037982  1  7A6  Rx    d 8 2E FF FF FF FF FF FF FF
02039.040965  1  7A6  Rx    d 8 2F 80 3E 3C 9E 3F FF FF
02039.044004  1  7A6  Rx    d 8 20 FF FF FF FF FF FF FF
02039.046988  1  7A6  Rx    d 8 21 FF FF FF FF FF FF FF
02039.049996  1  7A6  Rx    d 8 22 FF FF FF FF FF FF FF
02039.052971  1  7A6  Rx    d 8 23 FF FF 80 3F 00 80 7F
02039.055986  1  7A6  Rx    d 8 24 FF FF FF FF FF FF FF
02039.058986  1  7A6  Rx    d 8 25 FF FF FF FF FF FF FF
02039.061985  1  7A6  Rx    d 8 26 FF FF FF FF FF FF FF
02039.064984  1  7A6  Rx    d 8 27 FF FF FF FF 80 3F 81
02039.068462  1  7A6  Rx    d 8 28 80 FF FF FF FF FF FF
02039.071014  1  7A6  Rx    d 8 29 FF FF FF FF FF FF FF
02039.074006  1  7A6  Rx    d 8 2A FF FF FF FF FF FF FF
02039.078371  1  7A6  Rx    d 8 2B FF FF FF FF FF FF 80
02039.080994  1  7A6  Rx    d 8 2C 3F FF FF FF FF FF FF
02039.083994  1  7A6  Rx    d 8 2D FF FF FF FF FF FF FF
02039.087376  1  7A6  Rx    d 8 2E FF FF FF FF FF FF FF
02039.090015  1  7A6  Rx    d 8 2F FF FF FF FF FF FF FF
02039.093014  1  7A6  Rx    d 8 20 FF 80 00 00 00 00 00
02039.096508  1  7AE  Rx    d 8 03 7F 36 78 00 00 00 00
02039.097467  1  7AE  Rx    d 8 03 7F 36 78 00 00 00 00
02039.102290  1  7AE  Rx    d 8 01 76 00 00 00 00 00 00
02039.138564  1  7A6  Rx    d 8 10 E1 36 00 00 00 00 00
02039.139587  1  7AE  Rx    d 8 30 00 01 00 00 00 00 00
02039.141018  1  7A6  Rx    d 8 21 00 00 00 00 00 00 00
02039.144425  1  7A6  Rx    d 8 22 00 00 00 00 00 00 00
02039.147326  1  7A6  Rx    d 8 23 00 00 00 00 00 00 00
02039.150286  1  7A6  Rx    d 8 24 00 00 00 00 00 00 EB
02039.152988  1  7A6  Rx    d 8 25 00 0F 00 1E 00 01 00
02039.155956  1  7A6  Rx    d 8 26 5C 5B 00 00 50 5B 00
02039.160504  1  7A6  Rx    d 8 27 00 00 00 00 00 FF FF
02039.163000  1  7A6  Rx    d 8 28 FF 00 00 00 00 00 02
02039.165999  1  7A6  Rx    d 8 29 00 00 00 00 00 00 00
02039.168974  1  7A6  Rx    d 8 2A 34 5D 00 00 C0 C0 7F
02039.171998  1  7A6  Rx    d 8 2B FF E0 80 40 3F FF E0
02039.174997  1  7A6  Rx    d 8 2C 1E 4F 1F FF E0 3F CF
02039.177987  1  7A6  Rx    d 8 2D 9F FF E0 3F CF 9F FF
02039.181086  1  7A6  Rx    d 8 2E E0 3F CF 9F FF E0 3F
02039.183980  1  7A6  Rx    d 8 2F CF 9F FF E0 1E 4F 1F
02039.188418  1  7A6  Rx    d 8 20 FF E0 80 40 3F FF E0
02039.191000  1  7A6  Rx    d 8 21 C0 C0 7F FF E0 00 00
02039.193984  1  7A6  Rx    d 8 22 23 00 0A 00 05 00 01
02039.196960  1  7A6  Rx    d 8 23 00 48 5D 00 00 3C 5D
02039.200023  1  7A6  Rx    d 8 24 00 00 00 00 00 00 FF
02039.203014  1  7A6  Rx    d 8 25 FF FF 00 00 00 00 00
02039.206014  1  7A6  Rx    d 8 26 02 00 00 00 00 00 00
02039.208988  1  7A6  Rx    d 8 27 00 90 5D 00 00 FC 0F
02039.212012  1  7A6  Rx    d 8 28 01 E7 CF FB 80 FC 07
02039.214963  1  7A6  Rx    d 8 29 00 E3 8F F9 80 FC F3
02039.217986  1  7A6  Rx    d 8 2A 3C 63 8F F8 80 FC F3
02039.220978  1  7A6  Rx    d 8 2B 3E 61 0F FA 00 FC 07
02039.223978  1  7A6  Rx    d 8 2C 3E 61 0F FB 00 FC 0F
02039.227368  1  7A6  Rx    d 8 2D 3E 64 4F FB 00 FC E7
02039.229952  1  7A6  Rx    d 8 2E 3E 64 4F C3 80 FC F3
02039.232976  1  7A6  Rx    d 8 2F 3C 66 CF 83 80 FC F3
02039.236015  1  7A6  Rx    d 8 20 00 E6 00 00 00 00 00
02039.238502  1  7AE  Rx    d 8 03 7F 36 78 00 00 00 00
02039.239461  1  7AE  Rx    d 8 03 7F 36 78 00 00 00 00
02039.248521  1  7AE  Rx    d 8 01 76 00 00 00 00 00 00
02039.280090  1  7A6  Rx    d 8 10 E1 36 CF 83 80 FC F3
02039.281114  1  7AE  Rx    d 8 30 00 01 00 00 00 00 00
02039.282994  1  7A6  Rx    d 8 21 01 E7 CF C7 80 00 00
02039.286400  1  7A6  Rx    d 8 22 31 00 0A 00 07 00 01
02039.288984  1  7A6  Rx    d 8 23 00 A4 5D 00 00 98 5D
02039.292039  1  7A6  Rx    d 8 24 00 00 00 00 00 00 FF
02039.295031  1  7A6  Rx    d 8 25 FF FF 00 00 00 00 00
02039.298030  1  7A6  Rx    d 8 26 02 00 00 00 00 00 00
02039.301014  1  7A6  Rx    d 8 27 00 00 5E 00 00 FF FF
02039.304014  1  7A6  Rx    d 8 28 FF FF FF FF FF F0 FF
02039.308442  1  7A6  Rx    d 8 29 FF FF FF FF FF FF F0
02039.311034  1  7A6  Rx    d 8 2A FF FF FF FF FF FF FF
02039.314033  1  7A6  Rx    d 8 2B F0 FF FF FF FF FF FF
02039.317368  1  7A6  Rx    d 8 2C FF F0 FF FF FF FF FF
02039.320032  1  7A6  Rx    d 8 2D FF FF F0 FF FF FF FF
02039.323015  1  7A6  Rx    d 8 2E FF FF FF F0 FF FF FF
02039.326038  1  7A6  Rx    d 8 2F FF FF FF FF F0 FF FF
02039.329037  1  7A6  Rx    d 8 20 FF FF FF FF FF F0 FF
02039.332020  1  7A6  Rx    d 8 21 FF FF FF FF FF FF F0
02039.335044  1  7A6  Rx    d 8 22 FF FF FF FF FF FF FF
02039.338994  1  7A6  Rx    d 8 23 F0 3C 00 0A 00 08 00
02039.342010  1  7A6  Rx    d 8 24 01 00 14 5E 00 00 08
02039.345465  1  7A6  Rx    d 8 25 5E 00 00 00 00 00 00
02039.348358  1  7A6  Rx    d 8 26 FF FF FF 00 00 00 00
02039.351324  1  7A6  Rx    d 8 27 00 02 00 00 00 00 00
02039.354028  1  7A6  Rx    d 8 28 00 00 78 5E 00 00 FF
02039.356987  1  7A6  Rx    d 8 29 03 C0 F0 0F FB 80 FF
02039.360018  1  7A6  Rx    d 8 2A 01 C0 70 0F F9 80 FF
02039.362986  1  7A6  Rx    d 8 2B 3C CE 3E 7F F8 80 FF
02039.365993  1  7A6  Rx    d 8 2C 3C CF 3E 7F FA 00 FF
02039.369014  1  7A6  Rx    d 8 2D 01 CE 3E 7F FB 00 FF
02039.372006  1  7A6  Rx    d 8 2E 03 C0 7E 7F FB 00 FF
02039.374988  1  7A6  Rx    d 8 2F 39 C0 FE 7F C3 80 FF
02039.378026  1  7A6  Rx    d 8 20 3C CF 00 00 00 00 00
02039.380498  1  7AE  Rx    d 8 03 7F 36 78 00 00 00 00
02039.381458  1  7AE  Rx    d 8 03 7F 36 78 00 00 00 00
02039.388289  1  7AE  Rx    d 8 01 76 00 00 00 00 00 00
02039.421708  1  7A6  Rx    d 8 10 E1 36 FE 7F 83 80 FF
02039.422732  1  7AE  Rx    d 8 30 00 01 00 00 00 00 00
02039.424004  1  7A6  Rx    d 8 21 3C CF FE 7F 83 80 FF
02039.428369  1  7A6  Rx    d 8 22 3C CF FE 7F C7 80 00
02039.431024  1  7A6  Rx    d 8 23 00 31 00 0A 00 07 00
02039.434008  1  7A6  Rx    d 8 24 01 00 8C 5E 00 00 80
02039.437032  1  7A6  Rx    d 8 25 5E 00 00 00 00 00 00
02039.440039  1  7A6  Rx    d 8 26 FF FF FF 00 00 00 00
02039.443038  1  7A6  Rx    d 8 27 00 02 00 00 00 00 00
02039.446006  1  7A6  Rx    d 8 28 00 00 E8 5E 00 00 E1
02039.449021  1  7A6  Rx    d 8 29 C0 DE C0 BE 40 7D 80
02039.452004  1  7A6  Rx    d 8 2A 73 80 73 80 7F 80 BF
02039.455012  1  7A6  Rx    d 8 2B 40 DE C0 E1 C0 0A 00
02039.458043  1  7A6  Rx    d 8 2C 0A 00 02 00 01 00 FC
02039.461010  1  7A6  Rx    d 8 2D 5E 00 00 F0 5E 00 00
02039.464050  1  7A6  Rx    d 8 2E 00 00 00 00 FF FF FF
02039.469454  1  7A6  Rx    d 8 2F 00 00 00 00 00 02 00
02039.472069  1  7A6  Rx    d 8 20 00 00 00 00 00 00 24
02039.475013  1  7A6  Rx    d 8 21 5F 00 00 E1 C0 DE C0
02039.478011  1  7A6  Rx    d 8 22 9F 40 6F 80 73 80 73
02039.481018  1  7A6  Rx    d 8 23 80 7F 80 BF 40 DE C0
02039.484034  1  7A6  Rx    d 8 24 E1 C0 0A 00 0A 00 02
02039.487424  1  7A6  Rx    d 8 25 00 01 00 38 5F 00 00
02039.490040  1  7A6  Rx    d 8 26 2C 5F 00 00 00 00 00
02039.493047  1  7A6  Rx    d 8 27 00 FF FF FF 00 00 00
02039.496047  1  7A6  Rx    d 8 28 00 00 02 00 00 00 00
02039.499038  1  7A6  Rx    d 8 29 00 00 00 60 5F 00 00
02039.502006  1  7A6  Rx    d 8 2A E1 C0 DE C0 BF 40 7F
02039.505013  1  7A6  Rx    d 8 2B 80 73 80 73 80 6F 80
02039.508011  1  7A6  Rx    d 8 2C 9F 40 DE C0 E1 C0 0A
02039.511058  1  7A6  Rx    d 8 2D 00 0A 00 02 00 01 00
02039.514026  1  7A6  Rx    d 8 2E 74 5F 00 00 68 5F 00
02039.517057  1  7A6  Rx    d 8 2F 00 00 00 00 00 FF FF
02039.520057  1  7A6  Rx    d 8 20 FF 00 00 00 00 00 00
02039.522497  1  7AE  Rx    d 8 03 7F 36 78 00 00 00 00
02039.523456  1  7AE  Rx    d 8 03 7F 36 78 00 00 00 00
02039.531286  1  7AE  Rx    d 8 01 76 00 00 00 00 00 00
02039.580024  1  7A6  Rx    d 8 10 E1 36 00 00 00 00 02
02039.581048  1  7AE  Rx    d 8 30 00 01 00 00 00 00 00
02039.583079  1  7A6  Rx    d 8 21 00 00 00 00 00 00 00
02039.586310  1  7A6  Rx    d 8 22 9C 5F 00 00 E1 C0 DE
02039.589021  1  7A6  Rx    d 8 23 C0 BF 40 7F 80 73 80
02039.592028  1  7A6  Rx    d 8 24 73 80 7D 80 BE 40 DE
02039.595036  1  7A6  Rx    d 8 25 C0 E1 C0 0A 00 0A 00
02039.598051  1  7A6  Rx    d 8 26 02 00 01 00 B0 5F 00
02039.601050  1  7A6  Rx    d 8 27 00 A4 5F 00 00 00 00
02039.604058  1  7A6  Rx    d 8 28 00 00 FF FF FF 00 00
02039.608431  1  7A6  Rx    d 8 29 00 00 00 02 00 00 00
02039.611047  1  7A6  Rx    d 8 2A 00 00 00 00 D8 5F 00
02039.614022  1  7A6  Rx    d 8 2B 00 FC 0F 03 C0 3F C3
02039.617046  1  7A6  Rx    d 8 2C 80 FC 07 01 C0 3F BD
02039.620029  1  7A6  Rx    d 8 2D 80 FC F3 38 F9 FF 7E
02039.623044  1  7A6  Rx    d 8 2E 80 FC F3 3C F9 FE FF
02039.626036  1  7A6  Rx    d 8 2F 00 FC 07 38 F9 FE E7
02039.629042  1  7A6  Rx    d 8 20 00 FC 0F 01 F9 FE E7
02039.632049  1  7A6  Rx    d 8 21 00 FC E7 03 F9 FE FF
02039.635032  1  7A6  Rx    d 8 22 00 FC F3 3F F9 FF 7E
02039.638047  1  7A6  Rx    d 8 23 80 FC F3 3F F9 FF BD
02039.641038  1  7A6  Rx    d 8 24 80 FC F3 3F F9 FF C3
02039.644070  1  7A6  Rx    d 8 25 80 00 00 31 00 0A 00
02039.647054  1  7A6  Rx    d 8 26 07 00 01 00 EC 5F 00
02039.650061  1  7A6  Rx    d 8 27 00 E0 5F 00 00 00 00
02039.653069  1  7A6  Rx    d 8 28 00 00 FF FF FF 00 00
02039.656068  1  7A6  Rx    d 8 29 00 00 00 02 00 00 00
02039.660880  1  7A6  Rx    d 8 2A 00 00 00 00 48 60 00
02039.663064  1  7A6  Rx    d 8 2B 00 FF FF FF FF FF FF
02039.666087  1  7A6  Rx    d 8 2C FF FF FF FF FF FF FF
02039.669068  1  7A6  Rx    d 8 2D FF FF FF FF FF FF FF
02039.672068  1  7A6  Rx    d 8 2E FF FF FF FF FF FF FF
02039.675099  1  7A6  Rx    d 8 2F FF FF FF FF FF FF FF
02039.678082  1  7A6  Rx    d 8 20 FF FF 00 00 00 00 00
02039.681497  1  7AE  Rx    d 8 03 7F 36 78 00 00 00 00
02039.682456  1  7AE  Rx    d 8 03 7F 36 78 00 00 00 00
02039.689279  1  7AE  Rx    d 8 01 76 00 00 00 00 00 00
02039.735060  1  7A6  Rx    d 8 10 E1 36 FF FF FF FF FF
02039.737043  1  7AE  Rx    d 8 30 00 01 00 00 00 00 00
02039.738250  1  7A6  Rx    d 8 21 FF FF FF FF FF FF FF
02039.741090  1  7A6  Rx    d 8 22 FF FF FF FF FF FF FF
02039.744089  1  7A6  Rx    d 8 23 FF FF FF FF FF FF FF
02039.747088  1  7A6  Rx    d 8 24 FF FF FF FF FF FF FF
02039.750077  1  7A6  Rx    d 8 25 FF FF FF FF FF FF 00
02039.754026  1  7A6  Rx    d 8 26 28 00 0F 00 05 00 01
02039.757064  1  7A6  Rx    d 8 27 00 5C 60 00 00 50 60
02039.760094  1  7A6  Rx    d 8 28 00 00 00 00 00 00 FF
02039.763100  1  7A6  Rx    d 8 29 FF FF 00 00 00 00 00
02039.766074  1  7A6  Rx    d 8 2A 02 00 00 00 00 00 00
02039.769064  1  7A6  Rx    d 8 2B 00 BC 60 00 00 F8 1F
02039.772096  1  7A6  Rx    d 8 2C FF 9F FF FF FF FF FF
02039.775079  1  7A6  Rx    d 8 2D CF 3F FF FF FF FF 00
02039.778070  1  7A6  Rx    d 8 2E FF 3F FF FF E0 E3 C7
02039.781093  1  7A6  Rx    d 8 2F FF 9F FF FF FF FF FF
02039.784076  1  7A6  Rx    d 8 20 CF 3F FF FF FF FF 00
02039.787403  1  7A6  Rx    d 8 21 3F 3F FF FF E0 CE 73
02039.790090  1  7A6  Rx    d 8 22 FF 9F FF FF FF FF FF
02039.793082  1  7A6  Rx    d 8 23 CF FF FF FF FF FF 3F
02039.796074  1  7A6  Rx    d 8 24 1F FF FF FF E0 9E 79
02039.799088  1  7A6  Rx    d 8 25 FF 9F FF FF FF FF FF
02039.802072  1  7A6  Rx    d 8 26 CF FF FF FF FF FF 3F
02039.805071  1  7A6  Rx    d 8 27 8F FF FF FF E0 BF FD
02039.808070  1  7A6  Rx    d 8 28 FF 9F FF C1 FE 0F F0
02039.811061  1  7A6  Rx    d 8 29 4F 3C C3 FC 13 FF 3F
02039.814060  1  7A6  Rx    d 8 2A CF 3E 0F F0 60 3C FC
02039.817092  1  7A6  Rx    d 8 2B FF 9F FF 80 FC 07 E0
02039.820067  1  7A6  Rx    d 8 2C 0F 3C 81 F8 03 FF 3F
02039.823066  1  7A6  Rx    d 8 2D E7 3C 03 E0 20 7E 7E
02039.826058  1  7A6  Rx    d 8 2E FF 9F FF 1C 78 E3 C7
02039.829040  1  7A6  Rx    d 8 2F 0F 3C 38 F1 C3 FF 3F
02039.832088  1  7A6  Rx    d 8 20 E7 38 00 00 00 00 00
02039.836326  1  7AE  Rx    d 8 03 7F 36 78 00 00 00 00
02039.838276  1  7AE  Rx    d 8 03 7F 36 78 00 00 00 00
02039.843283  1  7AE  Rx    d 8 01 76 00 00 00 00 00 00
02039.877326  1  7A6  Rx    d 8 10 E1 36 F1 C7 00 7E 7E
02039.878350  1  7AE  Rx    d 8 30 00 01 00 00 00 00 00
02039.880077  1  7A6  Rx    d 8 21 FF 9F FE 3E 39 F3 8F
02039.883060  1  7A6  Rx    d 8 22 8F 3C 7C E3 E3 FF 3F
02039.886083  1  7A6  Rx    d 8 23 E7 39 F9 8F 80 7E 7E
02039.889066  1  7A6  Rx    d 8 24 FF 9F FE 7F 3F F3 9F
02039.892066  1  7A6  Rx    d 8 25 CF 3C FC E7 F3 FF 3F
02039.895065  1  7A6  Rx    d 8 26 E7 38 7F 9F E0 7E 7E
02039.898096  1  7A6  Rx    d 8 27 FF 9F FE 7F 3E 03 9F
02039.901080  1  7A6  Rx    d 8 28 CF 3C FC E7 F3 FF 3F
02039.904079  1  7A6  Rx    d 8 29 E7 3C 0F 9F E0 3E 7C
02039.909339  1  7A6  Rx    d 8 2A FF 9F FE 7F 38 03 9F
02039.912058  1  7A6  Rx    d 8 2B CF 3C FC E7 F3 FF 3F
02039.915074  1  7A6  Rx    d 8 2C E7 3F 83 9F E0 BE 7D
02039.918121  1  7A6  Rx    d 8 2D FF 9F FE 7F 31 F3 9F
02039.921064  1  7A6  Rx    d 8 2E CF 3C FC E7 F3 FF 3F
02039.924080  1  7A6  Rx    d 8 2F CF 3F F1 9F E0 9E 39
02039.927351  1  7A6  Rx    d 8 20 FF 9F FE 3E 33 E3 8F
02039.930062  1  7A6  Rx    d 8 21 8F 3C FC E3 E3 FF 3F
02039.933061  1  7A6  Rx    d 8 22 8F 39 F9 8F 80 CF 73
02039.936324  1  7A6  Rx    d 8 23 FF 9F FF 1C 71 83 C7
02039.939060  1  7A6  Rx    d 8 24 0F 3C FC F1 C3 FF 3F
02039.942051  1  7A6  Rx    d 8 25 1F 38 F1 C7 00 E3 C7
02039.945098  1  7A6  Rx    d 8 26 FF 80 0F 80 F8 11 E0
02039.948090  1  7A6  Rx    d 8 27 0F 3C FC F8 03 FF 00
02039.952006  1  7A6  Rx    d 8 28 3F 3C 03 E0 20 F8 1F
02039.954956  1  7A6  Rx    d 8 29 FF 80 0F C1 FC 39 F0
02039.957091  1  7A6  Rx    d 8 2A 4F 3C FC FC 13 FF 00
02039.960114  1  7A6  Rx    d 8 2B FF 3E 07 F0 60 FF FF
02039.963122  1  7A6  Rx    d 8 2C FF FF FF FF FF FF FF
02039.966114  1  7A6  Rx    d 8 2D FF FF FF E7 F3 FF FF
02039.969119  1  7A6  Rx    d 8 2E FF FF FF FF E0 FF FF
02039.972134  1  7A6  Rx    d 8 2F FF FF FF FF FF FF FF
02039.975134  1  7A6  Rx    d 8 20 FF FF 00 00 00 00 00
02039.977484  1  7AE  Rx    d 8 03 7F 36 78 00 00 00 00
02039.978443  1  7AE  Rx    d 8 03 7F 36 78 00 00 00 00
02039.984274  1  7AE  Rx    d 8 01 76 00 00 00 00 00 00
02040.016118  1  7A6  Rx    d 8 10 E1 36 FF E3 E3 FF FF
02040.017140  1  7AE  Rx    d 8 30 00 01 00 00 00 00 00
02040.019651  1  7A6  Rx    d 8 21 FF FF FF FF E0 FF FF
02040.022130  1  7A6  Rx    d 8 22 FF FF FF FF FF FF FF
02040.025146  1  7A6  Rx    d 8 23 FF FF FF F0 07 FF FF
02040.028360  1  7A6  Rx    d 8 24 FF FF FF FF E0 FF FF
02040.031128  1  7A6  Rx    d 8 25 FF FF FF FF FF FF FF
02040.034127  1  7A6  Rx    d 8 26 FF FF FF F8 0F FF FF
02040.037317  1  7A6  Rx    d 8 27 FF FF FF FF E0 A3 00
02040.040100  1  7A6  Rx    d 8 28 14 00 15 00 01 00 D0
02040.043108  1  7A6  Rx    d 8 29 60 00 00 C4 60 00 00
02040.046116  1  7A6  Rx    d 8 2A 00 00 00 00 FF FF FF
02040.049122  1  7A6  Rx    d 8 2B 00 00 00 00 00 02 00
02040.052122  1  7A6  Rx    d 8 2C 00 00 00 00 00 00 88
02040.055106  1  7A6  Rx    d 8 2D 62 00 00 F8 00 00 00
02040.058121  1  7A6  Rx    d 8 2E 00 00 00 00 00 00 00
02040.061120  1  7A6  Rx    d 8 2F 00 00 00 00 00 00 00
02040.064160  1  7A6  Rx    d 8 20 00 00 00 00 00 00 00
02040.067398  1  7A6  Rx    d 8 21 00 00 00 03 E0 E0 00
02040.070142  1  7A6  Rx    d 8 22 00 00 00 00 00 00 00
02040.073124  1  7A6  Rx    d 8 23 00 00 00 00 00 00 00
02040.076132  1  7A6  Rx    d 8 24 00 00 00 00 00 00 00
02040.079122  1  7A6  Rx    d 8 25 00 00 00 00 00 00 E0
02040.082130  1  7A6  Rx    d 8 26 C3 FF FF FF FF FF FF
02040.085137  1  7A6  Rx    d 8 27 FF FF FF FF FF FF FF
02040.089088  1  7A6  Rx    d 8 28 FF FF FF FF FF FF FF
02040.092152  1  7A6  Rx    d 8 29 FF FF FF FF FF FF FF
02040.095127  1  7A6  Rx    d 8 2A F8 60 8F FF FF FF FF
02040.098126  1  7A6  Rx    d 8 2B FF FF FF FF FF FF FF
02040.101134  1  7A6  Rx    d 8 2C FF FF FF FF FF FF FF
02040.104133  1  7A6  Rx    d 8 2D FF FF FF FF FF FF FF
02040.107388  1  7A6  Rx    d 8 2E FF FF FE 20 9F FF FF
02040.110155  1  7A6  Rx    d 8 2F FF FF FF FF FF FF FF
02040.113154  1  7A6  Rx    d 8 20 FF FF 00 00 00 00 00
02040.117393  1  7AE  Rx    d 8 03 7F 36 78 00 00 00 00
02040.118352  1  7AE  Rx    d 8 03 7F 36 78 00 00 00 00
02040.125270  1  7AE  Rx    d 8 01 76 00 00 00 00 00 00
02040.161266  1  7A6  Rx    d 8 10 E1 36 FF FF FF FF FF
02040.162288  1  7AE  Rx    d 8 30 00 01 00 00 00 00 00
02040.164144  1  7A6  Rx    d 8 21 FF FF FF FF FF FF FF
02040.167391  1  7A6  Rx    d 8 22 FF FF FF FF FF 20 1F
02040.170142  1  7A6  Rx    d 8 23 FF FF FF FF FF FF FF
02040.173141  1  7A6  Rx    d 8 24 FF FF FF FF FF FF FF
02040.176141  1  7A6  Rx    d 8 25 FF FF FF FF FF FF FF
02040.179140  1  7A6  Rx    d 8 26 FF FF FF FF FF FF FF
02040.182148  1  7A6  Rx    d 8 27 00 3F FF FF FF FF FF
02040.185146  1  7A6  Rx    d 8 28 FF FF FF FF FF FF FF
02040.188162  1  7A6  Rx    d 8 29 FF FF FF FF FF FF FF
02040.191154  1  7A6  Rx    d 8 2A FF FF FF FF FF FF FF
02040.194145  1  7A6  Rx    d 8 2B FF FF 80 3F FF FF FF
02040.197152  1  7A6  Rx    d 8 2C FF FF FF FF FF FF FF
02040.200152  1  7A6  Rx    d 8 2D FF FF FF FF FF FF FF
02040.203851  1  7A6  Rx    d 8 2E FF FF FF FF FF FF FF
02040.208790  1  7A6  Rx    d 8 2F FF FF FF FF 80 3F FF
02040.211165  1  7A6  Rx    d 8 20 FF FF FF FF FF FF FF
02040.214148  1  7A6  Rx    d 8 21 FF FF FF FF FF FF FF
02040.217156  1  7A6  Rx    d 8 22 FF FF FF FF FF FF FF
02040.220156  1  7A6  Rx    d 8 23 FF FF FF FF FF FF 80
02040.223148  1  7A6  Rx    d 8 24 3F FF FF FF FF FF FF
02040.226147  1  7A6  Rx    d 8 25 FF FF FF FF FF FF FF
02040.229145  1  7A6  Rx    d 8 26 FF FF FF FF FF FF FF
02040.232152  1  7A6  Rx    d 8 27 FF FF FF FF FF FF FF
