
00 delta   ID  data ...                  < cansniffer can0 # l=20 h=100 t=500 >
9.999999   90  EF 5C 00 54 80 00 00 00 .\.T....
03 delta   ID  data ...                  < cansniffer can0 # l=20 h=100 t=500 >
0.339997   85  03 D7 85 7C 03 1B 83 1C ...|....
0.000000   90  EF 5C 00 54 80 00 00 00 .\.T....
9.999999   97  01 66 00 17 01 6B 00 25 .f...k.%
9.999999   FC  03 00 00 00 00 00 00 00 ........
9.999999  120  01 6B 00 0E 00 00 00 00 .k......
9.999999  128  00 D6 00 00 00 00 00 00 ........
9.999999  12D  81 00 00 00 00 00 00 04 ........
9.999999  200  03 54 02 51 03 4F C0 00 .T.Q.O..
9.999999  207  00 00 00 00 00 00 00 00 ........
9.999999  210  21 E0 F8 49 10 21 E0 00 !..I.!..
9.999999  230  00 BE 76 06 68 00 00 00 ..v.h...
9.999999  307  00 00 00 00 00 00 00 00 ........
9.999999  340  00 1A 00 00 00 00 00 00 ........
9.999999  350  04 00 00 00 00 00 00 00 ........
9.999999  353  33 81 00 00 09 B1 00 00 3.......
9.999999  403  02 04 77 24 24 00 00 00 ..w$$...
9.999999  425  00 FF FF FF FF 02 80 00 ........
0.096054  427  77 63 1D 7F 7F 00 05 00 wc......
0.700178  437  3A 3E 01 00 00 00 00 81 :>......
9.999999  44D  00 40 00 00 4A F0 7F C3 .@..J...
9.999999  453  00 00 00 00 00 04 99 00 ........
9.999999  454  00 00 00 00 00 00 00 00 ........
9.999999  4B0  00 00 00 00 FF FF 00 00 ........
0.241201  6F6  15 C1 4B A8 7C C6 89 65 ..K.|..e
14 delta   ID  data ...                  < cansniffer can0 # l=20 h=100 t=500 >
0.799873   85  03 D8 85 7C 03 1B 83 1C ...|....
0.000000   90  EF 5C 00 54 80 00 00 00 .\.T....
0.000000   97  01 66 00 17 01 6B 00 25 .f...k.%
0.000000   FC  03 00 00 00 00 00 00 00 ........
0.000000  120  01 6B 00 0E 00 00 00 00 .k......
0.000000  128  00 D6 00 00 00 00 00 00 ........
0.000000  12D  81 00 00 00 00 00 00 04 ........
0.000000  200  03 54 02 51 03 4F C0 00 .T.Q.O..
0.000000  207  00 00 00 00 00 00 00 00 ........
0.000000  210  21 E0 F8 49 10 21 E0 00 !..I.!..
0.000000  230  00 BE 76 06 68 00 00 00 ..v.h...
0.000000  307  00 00 00 00 00 00 00 00 ........
0.000000  340  00 1A 00 00 00 00 00 00 ........
0.000000  350  04 00 00 00 00 00 00 00 ........
0.000000  353  33 81 00 00 09 B1 00 00 3.......
0.000000  403  02 04 77 24 24 00 00 00 ..w$$...
0.000000  425  00 FF FF FF FF 02 80 00 ........
0.000000  427  77 63 1D 7F 7F 00 05 00 wc......
0.000000  437  3A 3E 01 00 00 00 00 81 :>......
0.000000  44D  00 40 00 00 4A E0 7F C3 .@..J...
0.000000  453  00 00 00 00 00 04 99 00 ........
0.000000  454  00 00 00 00 00 00 00 00 ........
0.000000  4B0  00 00 00 00 FF FF 00 00 ........
0.000000  623  36 44 12 82 00 00 00 00 6D......
0.000000  640  44 60 00 78 00 0C 86 00 D`.x....
0.993965  650  11 42 00 00 00 00 00 00 .B......
0.960946  6F6  15 C0 6D 8E 44 6E CE 71 ..m.Dn.q
21 delta   ID  data ...                  < cansniffer can0 # l=20 h=100 t=500 >
0.320073   85  03 D7 85 7C 03 1B 83 1C ...|....
0.000000   90  EF 5C 00 54 80 00 00 00 .\.T....
0.000000   97  01 66 00 17 01 6B 00 25 .f...k.%
0.000000   FC  03 00 00 00 00 00 00 00 ........
0.000000  120  01 6B 00 0E 00 00 00 00 .k......
0.000000  128  00 D6 00 00 00 00 00 00 ........
0.000000  12D  81 00 00 00 00 00 00 04 ........
0.000000  200  03 54 02 51 03 4F C0 00 .T.Q.O..
0.000000  207  00 00 00 00 00 00 00 00 ........
0.000000  210  21 E0 F8 49 10 21 E0 00 !..I.!..
0.000000  230  00 BE 76 06 68 00 00 00 ..v.h...
0.000000  307  00 00 00 00 00 00 00 00 ........
0.000000  340  00 1A 00 00 00 00 00 00 ........
0.000000  350  04 00 00 00 00 00 00 00 ........
0.000000  353  33 81 00 00 09 B1 00 00 3.......
0.000000  403  02 04 77 24 24 00 00 00 ..w$$...
0.000000  425  00 FF FF FF FF 02 80 00 ........
0.000000  427  77 63 1D 7F 7F 00 05 00 wc......
0.000000  437  3A 3E 01 00 00 00 00 81 :>......
0.000000  44D  00 40 00 00 4A E0 7F C3 .@..J...
0.000000  453  00 00 00 00 00 04 99 00 ........
0.000000  454  00 00 00 00 00 00 00 00 ........
0.000000  4B0  00 00 00 00 FF FF 00 00 ........
0.000000  4C0  00 2D FA 00 00 00 00 00 .-......
0.000000  623  36 44 12 82 00 00 00 00 6D......
0.000000  640  44 60 00 78 00 0C 86 00 D`.x....
0.992045  650  11 42 00 00 00 00 00 00 .B......
0.960733  6F6  15 AA 07 E4 2E 04 A4 1B ........
22 delta   ID  data ...                  < cansniffer can0 # l=20 h=100 t=500 >
0.260132   85  03 D7 85 7C 03 1B 83 1C ...|....
0.000000  403  02 04 77 24 24 00 00 00 ..w$$...
0.000000  427  77 63 1D 7F 7F 00 05 00 wc......
0.000000  437  3A 3E 01 00 00 00 00 81 :>......
0.000000  44D  00 40 00 00 4A E0 7F C3 .@..J...
0.000000  4C0  00 2D FA 00 00 00 00 00 .-......
0.000000  623  36 44 12 82 00 00 00 00 6D......
0.000000  640  44 60 00 78 00 0C 86 00 D`.x....
0.000000  650  11 42 00 00 00 00 00 00 .B......
0.960929  6F6  15 18 14 F7 EB E1 AE 42 .......B
23 delta   ID  data ...                  < cansniffer can0 # l=20 h=100 t=500 >
0.179764   85  03 D7 85 7C 03 1B 83 1C ...|....
0.000000  427  77 63 1D 7F 7F 00 05 00 wc......
0.000000  437  3A 3E 01 00 00 00 00 81 :>......
0.000000  44D  00 40 00 00 4A E0 7F C3 .@..J...
0.000000  4C0  00 2D FA 00 00 00 00 00 .-......
0.000000  623  36 44 12 82 00 00 00 00 6D......
0.000000  640  44 60 00 78 00 0C 86 00 D`.x....
0.994439  650  10 36 44 01 06 00 00 00 .6D.....
0.000000  6F6  15 18 14 F7 EB E1 AE 42 .......B
24 delta   ID  data ...                  < cansniffer can0 # l=20 h=100 t=500 >
0.000000   85  03 D7 85 7C 03 1B 83 1C ...|....
0.000000  44D  00 40 00 00 4A E0 7F C3 .@..J...
0.000000  4C0  00 2D FA 00 00 00 00 00 .-......
0.000000  623  36 44 12 82 00 00 00 00 6D......
0.000000  640  44 60 00 78 00 0C 86 00 D`.x....
0.000000  650  10 36 44 01 06 00 00 00 .6D.....
0.000000  6F6  15 18 14 F7 EB E1 AE 42 .......B
26 delta   ID  data ...                  < cansniffer can0 # l=20 h=100 t=500 >
0.280003   85  03 D7 85 7C 03 1A 83 1C ...|....
0.000000  44D  00 40 00 00 4A E0 7F C3 .@..J...
0.000000  4C0  00 2D FA 00 00 00 00 00 .-......
0.000000  650  10 36 44 01 06 00 00 00 .6D.....
0.960973  6F6  15 94 39 DA 10 3A 9A 25 ..9..:.%
35 delta   ID  data ...                  < cansniffer can0 # l=20 h=100 t=500 >
0.200012   85  03 D7 85 7C 03 1B 83 1C ...|....
0.000000  4C0  00 2D FA 00 00 00 00 00 .-......
0.991958  650  10 36 44 01 06 00 00 00 .6D.....
0.960701  6F6  15 7E D3 30 FA D0 70 CF .~.0..p.
42 delta   ID  data ...                  < cansniffer can0 # l=20 h=100 t=500 >
0.220215   85  03 D7 85 7C 03 1B 83 1C ...|....
0.991797  650  10 36 44 01 06 00 00 00 .6D.....
0.961220  6F6  15 4D E0 03 C9 E3 43 FC .M....C.
61 delta   ID  data ...                  < cansniffer can0 # l=20 h=100 t=500 >
0.200941   85  03 D7 85 7C 03 1B 83 1C ...|....
0.000000  427  77 63 20 7F 7F 00 05 00 wc .....
0.993716  650  11 42 00 00 00 00 00 00 .B......
0.961297  6F6  15 EC 41 A2 68 42 E2 5D ..A.hB.]
75 delta   ID  data ...                  < cansniffer can0 # l=20 h=100 t=500 >
0.200020   85  03 D8 85 7C 03 1B 83 1C ...|....
0.000000  427  77 63 20 7F 7F 00 05 00 wc .....
0.000000  44D  00 40 00 00 4A D0 7F C3 .@..J...
0.994436  650  10 36 44 01 06 00 00 00 .6D.....
0.960493  6F6  15 0C 08 EB 07 CD 82 6E .......n
82 delta   ID  data ...                  < cansniffer can0 # l=20 h=100 t=500 >
0.319966   85  03 D8 85 7C 03 1B 83 1C ...|....
0.000000  44D  00 40 00 00 4A D0 7F C3 .@..J...
0.993351  650  10 36 44 01 06 00 00 00 .6D.....
1.202392  6F6  15 8F 22 C1 0B 23 81 38 .."..#.8
83 delta   ID  data ...                  < cansniffer can0 # l=20 h=100 t=500 >
0.200386   85  03 D7 85 7C 03 1B 83 1C ...|....
0.000000  650  10 36 44 01 06 00 00 00 .6D.....
0.000000  6F6  15 8F 22 C1 0B 23 81 38 .."..#.8
Warning: console output active while logging!  can0  RX - -  7DF   [8]  02 09 02 00 00 00 00 00   '........'
  can0  RX - -  7E8   [8]  10 14 49 02 01 36 46 50   '..I..6FP'
  can0  RX - -  7E0   [8]  30 00 00 00 00 00 00 00   '0.......'
  can0  RX - -  7E8   [8]  21 41 41 41 4A 47 53 57   '!AAAJGSW'
  can0  RX - -  7E8   [8]  22 39 45 38 36 31 30 31   '"9E86101'
  can0  RX - -  760   [8]  03 22 E2 1A 00 00 00 00   '."......'
  can0  RX - -  768   [8]  07 62 E2 1A 38 52 32 39   '.b..8R29'
  can0  RX - -  760   [8]  03 22 E2 17 00 00 00 00   '."......'
  can0  RX - -  768   [8]  07 62 E2 17 02 0C 04 05   '.b......'
  can0  RX - -  760   [8]  03 22 E2 19 00 00 00 00   '."......'
  can0  RX - -  768   [8]  05 62 E2 19 04 01 00 00   '.b......'
  can0  RX - -  760   [8]  02 10 87 00 00 00 00 00   '........'
  can0  RX - -  768   [8]  02 50 87 00 00 00 00 00   '.P......'
  can0  RX - -  760   [8]  10 13 3B 00 FF FF FF FF   '..;.....'
  can0  RX - -  768   [8]  30 00 05 00 00 00 00 00   '0.......'
  can0  RX - -  760   [8]  21 FF FF FF FF FF FF FF   '!.......'
  can0  RX - -  760   [8]  22 FF FF FF FF FF FF 00   '".......'
  can0  RX - -  768   [8]  03 7F 3B 78 00 00 00 00   '..;x....'
  can0  RX - -  768   [8]  03 7F 3B 78 00 00 00 00   '..;x....'
  can0  RX - -  768   [8]  03 7F 3B 78 00 00 00 00   '..;x....'
  can0  RX - -  768   [8]  03 7F 3B 78 00 00 00 00   '..;x....'
  can0  RX - -  768   [8]  03 7F 3B 78 00 00 00 00   '..;x....'
  can0  RX - -  768   [8]  03 7F 3B 78 00 00 00 00   '..;x....'
  can0  RX - -  768   [8]  02 7B 00 00 00 00 00 00   '.{......'
  can0  RX - -  760   [8]  02 21 00 00 00 00 00 00   '.!......'
  can0  RX - -  768   [8]  10 13 61 00 FF FF FF FF   '..a.....'
  can0  RX - -  760   [8]  30 00 00 00 00 00 00 00   '0.......'
  can0  RX - -  768   [8]  21 FF FF FF FF FF FF FF   '!.......'
  can0  RX - -  768   [8]  22 FF FF FF FF FF FF 00   '".......'
  can0  RX - -  760   [8]  05 3B 01 20 01 01 00 00   '.;. ....'
  can0  RX - -  768   [8]  02 7B 01 00 00 00 00 00   '.{......'
  can0  RX - -  760   [8]  02 21 01 00 00 00 00 00   '.!......'
  can0  RX - -  768   [8]  05 61 01 20 01 01 00 00   '.a. ....'
  can0  RX - -  760   [8]  02 10 81 00 00 00 00 00   '........'
  can0  RX - -  768   [8]  02 50 81 00 00 00 00 00   '.P......'
  can0  RX - -  7DF   [8]  02 09 02 00 00 00 00 00   '........'
  can0  RX - -  7E8   [8]  10 14 49 02 01 36 46 50   '..I..6FP'
  can0  RX - -  7E0   [8]  30 00 00 00 00 00 00 00   '0.......'
  can0  RX - -  7E8   [8]  21 41 41 41 4A 47 53 57   '!AAAJGSW'
  can0  RX - -  7E8   [8]  22 39 45 38 36 31 30 31   '"9E86101'
  can0  RX - -  733   [8]  02 10 85 00 00 00 00 00   '........'
  can0  RX - -  73B   [8]  02 50 85 00 00 00 00 00   '.P......'
  can0  RX - -  733   [8]  03 3B 00 BD 00 00 00 00   '.;......'
  can0  RX - -  73B   [8]  02 7B 00 00 00 00 00 00   '.{......'
  can0  RX - -  733   [8]  02 21 00 00 00 00 00 00   '.!......'
  can0  RX - -  73B   [8]  03 61 00 BD 00 00 00 00   '.a......'
  can0  RX - -  733   [8]  02 10 81 00 00 00 00 00   '........'
  can0  RX - -  73B   [8]  02 50 81 00 00 00 00 00   '.P......'
