(1663373326.801702) can0 090#0000000000000000
(1663373326.801951) can0 4B0#0000000000000000
(1663373326.802209) can0 210#21E0F8C91021E000
(1663373326.802436) can0 085#0000000000000000
(1663373326.806643) can0 200#034502510340C000
(1663373326.806886) can0 207#0000000000000000
(1663373326.807138) can0 425#000000FFFF028000
(1663373326.807374) can0 12D#8100000000000004
(1663373326.807631) can0 427#5B232F78F6000500
(1663373326.807821) can0 44D#0040000038F051C7
(1663373326.808076) can0 097#01680028016E0025
(1663373326.808333) can0 120#016E000000000000
(1663373326.811430) can0 340#001A000000000000
(1663373326.821699) can0 090#0000000000000000
(1663373326.821951) can0 4B0#0000000000000000
(1663373326.822181) can0 768#0562290608000000
(1663373326.822422) can0 210#21E0F8C91021E000
(1663373326.822674) can0 085#0000000000000000
(1663373326.822917) can0 12D#8100000000000004
(1663373326.823165) can0 097#01680028016E0025
(1663373326.823397) can0 120#016E000000000000
(1663373326.827680) can0 353#3381000017B50000
(1663373326.838687) can0 230#00BE760668000000
(1663373326.838929) can0 12D#8100000000000004
(1663373326.839156) can0 097#01680028016E0025
(1663373326.839432) can0 120#016E000000000000
(1663373326.841752) can0 090#0000000000000000
(1663373326.842004) can0 4B0#0000000000000000
(1663373326.842232) can0 210#21E0F8C91021E000
(1663373326.842477) can0 085#0000000000000000
(1663373326.854700) can0 200#034502510340C000
(1663373326.854915) can0 12D#8100000000000004
(1663373326.855160) can0 097#01680028016E0025
(1663373326.855410) can0 120#016E000000000000
(1663373326.855653) can0 207#0000000000000000
(1663373326.861789) can0 090#0000000000000000
(1663373326.862008) can0 4B0#0000000000000000
(1663373326.862224) can0 210#21E0F8C91021E000
(1663373326.862488) can0 085#0000000000000000
(1663373326.864992) can0 760#0322290600000000
(1663373326.870722) can0 12D#8100000000000004
(1663373326.870966) can0 097#01680028016E0025
(1663373326.871196) can0 120#016E000000000000
(1663373326.871455) can0 128#0080000000000000
(1663373326.871689) can0 350#0400000000000000
(1663373326.871930) can0 403#8202902424000000
(1663373326.872174) can0 437#7979010000000081
(1663373326.872416) can0 453#0000000000073500
(1663373326.877649) can0 353#3381000017B50000
(1663373326.881698) can0 090#0000000000000000
(1663373326.881942) can0 4B0#0000000000000000
(1663373326.882208) can0 210#21E0F8C91021E000
(1663373326.882456) can0 085#0000000000000000
(1663373326.886750) can0 12D#8100000000000004
(1663373326.886997) can0 097#01680028016E0025
(1663373326.887257) can0 120#016E000000000000
(1663373326.890079) can0 768#0562290608000000
(1663373326.901663) can0 090#0000000000000000
(1663373326.901910) can0 4B0#0000000000000000
(1663373326.902146) can0 210#21E0F8C91021E000
(1663373326.902395) can0 085#0000000000000000
(1663373326.902653) can0 200#034502510340C000
(1663373326.902904) can0 207#0000000000000000
(1663373326.903145) can0 230#00BE760668000000
(1663373326.903391) can0 425#000000FFFF028000
(1663373326.903655) can0 12D#8100000000000004
(1663373326.903897) can0 427#5B232F78F6000500
(1663373326.904131) can0 44D#0040000038F051C7
(1663373326.904339) can0 097#01680028016E0025
(1663373326.904600) can0 120#016E000000000000
(1663373326.911343) can0 340#001A000000000000
(1663373326.918722) can0 12D#8100000000000004
(1663373326.918964) can0 097#01680028016E0025
(1663373326.919213) can0 120#016E000000000000
(1663373326.921676) can0 090#0000000000000000
(1663373326.921919) can0 4B0#0000000000000000
(1663373326.922174) can0 210#21E0F8C91021E000
(1663373326.922412) can0 085#0000000000000000
(1663373326.927651) can0 353#3381000017B50000
(1663373326.932456) can0 760#0322290600000000
(1663373326.934746) can0 12D#8100000000000004
(1663373326.934974) can0 097#01680028016E0025
(1663373326.935223) can0 120#016E000000000000
(1663373326.941713) can0 0FC#0300000000000000
(1663373326.941984) can0 4B0#0000000000000000
(1663373326.942163) can0 210#21E0F8C91021E000
(1663373326.942501) can0 085#0000000000000000
(1663373326.942659) can0 090#0000000000000000
(1663373326.950737) can0 200#034502510340C000
(1663373326.950973) can0 12D#8100000000000004
(1663373326.951314) can0 097#01680028016E0025
(1663373326.951492) can0 120#016E000000000000
(1663373326.951714) can0 207#0000000000000000
(1663373326.957081) can0 768#0562290608000000
(1663373326.961683) can0 090#0000000000000000
(1663373326.961919) can0 4B0#0000000000000000
(1663373326.962157) can0 210#21E0F8C91021E000
(1663373326.962443) can0 085#0000000000000000
(1663373326.966755) can0 230#00BE760668000000
(1663373326.966993) can0 12D#8100000000000004
(1663373326.967307) can0 097#01680028016E0025
(1663373326.967480) can0 120#016E000000000000
(1663373326.971202) can0 128#0080000000000000
(1663373326.971446) can0 350#0400000000000000
(1663373326.971683) can0 437#7979010000000081
(1663373326.971924) can0 453#0000000000073500
(1663373326.977673) can0 353#3381000017B50000
(1663373326.981700) can0 090#0000000000000000
(1663373326.981944) can0 4B0#0000000000000000
(1663373326.982178) can0 210#21E0F8C91021E000
(1663373326.982458) can0 085#0000000000000000
(1663373326.982873) can0 12D#8100000000000004
(1663373326.983028) can0 097#01680028016D0025
(1663373326.983279) can0 120#016D000000000000
(1663373326.998785) can0 200#034502510340C000
(1663373326.999029) can0 207#0000000000000000
(1663373326.999351) can0 425#000000FFFF028000
(1663373326.999532) can0 12D#8100000000000004
(1663373326.999754) can0 427#5B232F78F6000500
(1663373327.000019) can0 44D#0040000038F051C7
(1663373327.000225) can0 097#01680028016D0025
(1663373327.000515) can0 120#016D000000000000
(1663373327.000701) can0 6F6#154F08EB07CDC12D
(1663373327.001027) can0 760#0322290600000000
(1663373327.001852) can0 090#0000000000000000
(1663373327.002061) can0 4B0#0000000000000000
(1663373327.002282) can0 210#21E0F8C91021E000
(1663373327.002596) can0 085#0000000000000000
(1663373327.011398) can0 340#001A000000000000
(1663373327.014849) can0 12D#8100000000000004
(1663373327.015078) can0 097#01680028016D0025
(1663373327.015348) can0 120#016D000000000000
(1663373327.021723) can0 090#0000000000000000
(1663373327.021904) can0 4B0#0000000000000000
(1663373327.022179) can0 210#21E0F8C91021E000
(1663373327.022395) can0 085#0000000000000000
(1663373327.026086) can0 768#0562290608000000
(1663373327.027678) can0 353#3381000017B50000
(1663373327.030928) can0 230#00BE760668000000
(1663373327.031170) can0 12D#8100000000000004
(1663373327.031405) can0 097#01680028016D0025
(1663373327.031698) can0 120#016D000000000000
(1663373327.041677) can0 090#0000000000000000
(1663373327.041923) can0 4B0#0000000000000000
(1663373327.042160) can0 210#21E0F8C91021E000
(1663373327.042410) can0 085#0000000000000000
(1663373327.046825) can0 200#034502510340C000
(1663373327.047074) can0 12D#8100000000000004
(1663373327.047308) can0 097#01680028016D0025
(1663373327.047556) can0 120#016D000000000000
(1663373327.047808) can0 207#0000000000000000
(1663373327.061631) can0 090#0000000000000000
(1663373327.061878) can0 4B0#0000000000000000
(1663373327.062114) can0 210#21E0F8C91021E000
(1663373327.062364) can0 085#0000000000000000
(1663373327.063038) can0 12D#8100000000000004
(1663373327.063275) can0 097#01680028016D0025
(1663373327.063540) can0 120#016D000000000000
(1663373327.066195) can0 760#0322290600000000
(1663373327.071199) can0 128#0080000000000000
(1663373327.071472) can0 350#0400000000000000
(1663373327.071683) can0 437#7979010000000081
(1663373327.071923) can0 453#0000000000073500
(1663373327.077666) can0 353#3381000017B50000
(1663373327.079167) can0 12D#8100000000000004
(1663373327.079369) can0 097#01680028016D0025
(1663373327.079618) can0 120#016D000000000000
(1663373327.081648) can0 090#0000000000000000
(1663373327.081895) can0 4B0#0000000000000000
(1663373327.082126) can0 210#21E0F8C91021E000
(1663373327.082382) can0 085#0000000000000000
(1663373327.091073) can0 768#0562290608000000
(1663373327.095089) can0 200#034502510340C000
(1663373327.095350) can0 207#0000000000000000
(1663373327.095618) can0 230#00BE760668000000
(1663373327.095863) can0 425#000000FFFF028000
(1663373327.096074) can0 12D#8100000000000004
(1663373327.096325) can0 427#5B232F78F6000500
(1663373327.096527) can0 44D#0040000038F051C7
(1663373327.096786) can0 097#01680028016D0025
(1663373327.097017) can0 120#016D000000000000
(1663373327.101720) can0 090#0000000000000000
(1663373327.101966) can0 4B0#0000000000000000
(1663373327.102201) can0 210#21E0F8C91021E000
(1663373327.102452) can0 085#0000000000000000
(1663373327.110043) can0 340#001A000000000000
(1663373327.111102) can0 12D#8100000000000004
(1663373327.111391) can0 097#01680028016D0025
(1663373327.111603) can0 120#016D000000000000
(1663373327.121640) can0 090#0000000000000000
(1663373327.121886) can0 4B0#0000000000000000
(1663373327.122123) can0 210#21E0F8C91021E000
(1663373327.122373) can0 085#0000000000000000
(1663373327.127151) can0 12D#8100000000000004
(1663373327.127388) can0 097#01680028016D0025
(1663373327.127637) can0 120#016D000000000000
(1663373327.127874) can0 353#3381000017B50000
(1663373327.137461) can0 760#0322290600000000
(1663373327.141634) can0 0FC#0300000000000000
(1663373327.141881) can0 4B0#0000000000000000
(1663373327.142117) can0 210#21E0F8C91021E000
(1663373327.142367) can0 085#0000000000000000
(1663373327.142617) can0 090#0000000000000000
(1663373327.143150) can0 200#034502510340C000
(1663373327.143358) can0 12D#8100000000000004
(1663373327.143609) can0 097#01680028016D0025
(1663373327.143884) can0 120#016D000000000000
(1663373327.144106) can0 207#0000000000000000
(1663373327.159149) can0 230#00BE760668000000
(1663373327.159386) can0 12D#8100000000000004
(1663373327.159624) can0 097#01680028016E0025
(1663373327.159884) can0 120#016E000000000000
(1663373327.161655) can0 090#0000000000000000
(1663373327.161902) can0 4B0#0000000000000000
(1663373327.162146) can0 768#0562290608000000
(1663373327.162386) can0 210#21E0F8C91021E000
(1663373327.162630) can0 085#0000000000000000
(1663373327.171203) can0 128#0080000000000000
(1663373327.171448) can0 350#0400000000000000
(1663373327.171705) can0 437#7979010000000081
(1663373327.171954) can0 453#0000000000073500
(1663373327.175207) can0 12D#8100000000000004
(1663373327.175440) can0 097#01680028016E0025
(1663373327.175689) can0 120#016E000000000000
(1663373327.177682) can0 353#3381000017B50000
(1663373327.181660) can0 090#0000000000000000
(1663373327.181903) can0 4B0#0000000000000000
(1663373327.182138) can0 210#21E0F8C91021E000
(1663373327.182390) can0 085#0000000000000000
(1663373327.191186) can0 200#034502510340C000
(1663373327.191437) can0 207#0000000000000000
(1663373327.191682) can0 425#000000FFFF028000
(1663373327.191927) can0 12D#8100000000000004
(1663373327.192157) can0 427#5B232F78F6000500
(1663373327.192394) can0 44D#0040000038F051C7
(1663373327.192629) can0 097#01680028016E0025
(1663373327.192875) can0 120#016E000000000000
(1663373327.201228) can0 307#0000000000000000
(1663373327.201727) can0 090#0000000000000000
(1663373327.201976) can0 4B0#0000000000000000
(1663373327.202211) can0 210#21E0F8C91021E000
(1663373327.202461) can0 085#0000000000000000
(1663373327.203712) can0 760#0322290600000000
(1663373327.207218) can0 12D#8100000000000004
(1663373327.207452) can0 097#01680028016E0025
(1663373327.207702) can0 120#016E000000000000
(1663373327.209879) can0 340#001A000000000000
(1663373327.221634) can0 090#0000000000000000
(1663373327.221880) can0 4B0#0000000000000000
(1663373327.222111) can0 210#21E0F8C91021E000
(1663373327.222366) can0 085#0000000000000000
(1663373327.222982) can0 230#00BE760668000000
(1663373327.223226) can0 12D#8100000000000004
(1663373327.223467) can0 097#01680028016E0025
(1663373327.223726) can0 120#016E000000000000
(1663373327.227690) can0 353#3381000017B50000
(1663373327.228106) can0 768#0562290608000000
(1663373327.239059) can0 200#034502510340C000
(1663373327.239297) can0 12D#8100000000000004
(1663373327.239536) can0 097#01680028016E0025
(1663373327.239784) can0 120#016E000000000000
(1663373327.240035) can0 207#0000000000000000
(1663373327.240270) can0 6F6#154F08EB07CDC12D
(1663373327.241695) can0 090#0000000000000000
(1663373327.241967) can0 4B0#0000000000000000
(1663373327.242222) can0 210#21E0F8C91021E000
(1663373327.242455) can0 085#0000000000000000
(1663373327.255094) can0 12D#8100000000000004
(1663373327.255322) can0 097#01680028016E0025
(1663373327.255607) can0 120#016E000000000000
(1663373327.261679) can0 090#0000000000000000
(1663373327.261927) can0 4B0#0000000000000000
(1663373327.262162) can0 210#21E0F8C91021E000
(1663373327.262412) can0 085#0000000000000000
(1663373327.271087) can0 12D#8100000000000004
(1663373327.271344) can0 097#01680028016E0025
(1663373327.271595) can0 120#016E000000000000
(1663373327.271845) can0 128#0080000000000000
(1663373327.272087) can0 350#0400000000000000
(1663373327.272337) can0 437#7979010000000081
(1663373327.272564) can0 453#0000000000073500
(1663373327.272800) can0 760#0322290600000000
(1663373327.277715) can0 353#3381000017B50000
(1663373327.281679) can0 090#0000000000000000
(1663373327.281921) can0 4B0#0000000000000000
(1663373327.282197) can0 210#21E0F8C91021E000
(1663373327.282424) can0 085#0000000000000000
(1663373327.287139) can0 200#034502510340C000
(1663373327.287386) can0 207#0000000000000000
(1663373327.287664) can0 230#00BE760668000000
(1663373327.287889) can0 425#000000FFFF028000
(1663373327.288161) can0 12D#8100000000000004
(1663373327.288359) can0 427#5B232F78F6000500
(1663373327.288589) can0 44D#0040000038F051C7
(1663373327.288830) can0 097#01680028016D0025
(1663373327.289070) can0 120#016D000000000000
(1663373327.297101) can0 768#0562290608000000
(1663373327.301687) can0 090#0000000000000000
(1663373327.301941) can0 4B0#0000000000000000
(1663373327.302158) can0 210#21E0F8C91021E000
(1663373327.302427) can0 085#0000000000000000
(1663373327.303099) can0 12D#8100000000000004
(1663373327.303323) can0 097#01680028016D0025
(1663373327.303610) can0 120#016D000000000000
(1663373327.310714) can0 340#001A000000000000
(1663373327.319147) can0 12D#8100000000000004
(1663373327.319374) can0 097#01680028016D0025
(1663373327.319662) can0 120#016D000000000000
(1663373327.321666) can0 090#0000000000000000
(1663373327.321913) can0 4B0#0000000000000000
(1663373327.322144) can0 210#21E0F8C91021E000
(1663373327.322394) can0 085#0000000000000000
(1663373327.327720) can0 353#3381000017B50000
(1663373327.335172) can0 200#034502510340C000
(1663373327.335412) can0 12D#8100000000000004
(1663373327.335642) can0 097#01680028016D0025
(1663373327.335911) can0 120#016D000000000000
(1663373327.336146) can0 207#0000000000000000
(1663373327.341704) can0 0FC#0300000000000000
(1663373327.341951) can0 4B0#0000000000000000
(1663373327.342229) can0 210#21E0F8C91021E000
(1663373327.342451) can0 085#0000000000000000
(1663373327.342691) can0 090#0000000000000000
(1663373327.351164) can0 230#00BE760668000000
(1663373327.351408) can0 12D#8100000000000004
(1663373327.351647) can0 097#01680028016D0025
(1663373327.351892) can0 120#016D000000000000
(1663373327.354981) can0 760#0322290600000000
(1663373327.361726) can0 090#0000000000000000
(1663373327.361933) can0 4B0#0000000000000000
(1663373327.362180) can0 210#21E0F8C91021E000
(1663373327.362447) can0 085#0000000000000000
(1663373327.367201) can0 12D#8100000000000004
(1663373327.367452) can0 097#01680028016E0025
(1663373327.367716) can0 120#016E000000000000
(1663373327.371207) can0 128#0080000000000000
(1663373327.371468) can0 350#0400000000000000
(1663373327.371719) can0 403#8202902424000000
(1663373327.371971) can0 437#7979010000000081
(1663373327.372209) can0 453#0000000000073500
(1663373327.377709) can0 353#3381000017B50000
(1663373327.380066) can0 768#0562290608000000
(1663373327.381694) can0 090#0000000000000000
(1663373327.381933) can0 4B0#0000000000000000
(1663373327.382182) can0 210#21E0F8C91021E000
(1663373327.382437) can0 085#0000000000000000
(1663373327.383192) can0 200#034502510340C000
(1663373327.383444) can0 207#0000000000000000
(1663373327.383702) can0 425#000000FFFF028000
(1663373327.383951) can0 12D#8100000000000004
(1663373327.384165) can0 427#5B232F78F6000500
(1663373327.384436) can0 44D#0040000038F051C7
(1663373327.384718) can0 097#01680028016E0025
(1663373327.384847) can0 120#016E000000000000
(1663373327.399171) can0 12D#8100000000000004
(1663373327.399419) can0 097#01680028016E0025
(1663373327.399687) can0 120#016E000000000000
(1663373327.401711) can0 090#0000000000000000
(1663373327.401953) can0 4B0#0000000000000000
(1663373327.402183) can0 210#21E0F8C91021E000
(1663373327.402416) can0 085#0000000000000000
(1663373327.409902) can0 340#001A000000000000
(1663373327.415200) can0 230#00BE760668000000
(1663373327.415445) can0 12D#8100000000000004
(1663373327.415703) can0 097#01680028016E0025
(1663373327.415965) can0 120#016E000000000000
(1663373327.421687) can0 090#0000000000000000
(1663373327.421932) can0 4B0#0000000000000000
(1663373327.422188) can0 210#21E0F8C91021E000
(1663373327.422468) can0 085#0000000000000000
(1663373327.424953) can0 760#0322290600000000
(1663373327.427717) can0 353#3381000017B50000
(1663373327.431347) can0 200#034502510340C000
(1663373327.431580) can0 12D#8100000000000004
(1663373327.431851) can0 097#01680028016E0025
(1663373327.432094) can0 120#016E000000000000
(1663373327.432385) can0 207#0000000000000000
(1663373327.441691) can0 090#0000000000000000
(1663373327.441932) can0 4B0#0000000000000000
(1663373327.442228) can0 210#21E0F8C91021E000
(1663373327.442417) can0 085#0000000000000000
(1663373327.447249) can0 12D#8100000000000004
(1663373327.447507) can0 097#01680028016E0025
(1663373327.447784) can0 120#016E000000000000
(1663373327.450075) can0 768#0562290608000000
(1663373327.461648) can0 090#0000000000000000
(1663373327.461893) can0 4B0#0000000000000000
(1663373327.462164) can0 210#21E0F8C91021E000
(1663373327.462444) can0 085#0000000000000000
(1663373327.463259) can0 12D#8100000000000004
(1663373327.463513) can0 097#01680028016E0025
(1663373327.463782) can0 120#016E000000000000
(1663373327.471194) can0 128#0080000000000000
(1663373327.471456) can0 350#0400000000000000
(1663373327.471709) can0 437#7979010000000081
(1663373327.471950) can0 453#0000000000073500
(1663373327.477723) can0 353#3381000017B50000
(1663373327.479305) can0 200#034502510340C000
(1663373327.479562) can0 207#0000000000000000
(1663373327.479856) can0 230#00BE760668000000
(1663373327.480039) can0 425#000000FFFF028000
(1663373327.480298) can0 12D#8100000000000004
(1663373327.480528) can0 427#5B232F78F6000500
(1663373327.480818) can0 44D#0040000038F051C7
(1663373327.481009) can0 097#01680028016E0025
(1663373327.481297) can0 120#016E000000000000
(1663373327.481512) can0 6F6#15B91DFE3A7B6962
(1663373327.481802) can0 090#0000000000000000
(1663373327.482017) can0 4B0#0000000000000000
(1663373327.482273) can0 210#21E0F8C91021E000
(1663373327.482508) can0 085#0000000000000000
(1663373327.493736) can0 760#0322290600000000
(1663373327.495319) can0 12D#8100000000000004
(1663373327.495574) can0 097#01680028016E0025
(1663373327.495829) can0 120#016E000000000000
(1663373327.501688) can0 090#0000000000000000
(1663373327.501945) can0 4B0#0000000000000000
(1663373327.502203) can0 210#21E0F8C91021E000
(1663373327.502495) can0 085#0000000000000000
(1663373327.510502) can0 340#001A000000000000
(1663373327.511338) can0 12D#8100000000000004
(1663373327.511564) can0 097#01680028016E0025
(1663373327.511843) can0 120#016E000000000000
(1663373327.518075) can0 768#0562290608000000
(1663373327.521672) can0 090#0000000000000000
(1663373327.521927) can0 4B0#0000000000000000
(1663373327.522188) can0 210#21E0F8C91021E000
(1663373327.522482) can0 085#0000000000000000
(1663373327.527320) can0 200#034502510340C000
(1663373327.527583) can0 12D#8100000000000004
(1663373327.527824) can0 097#01680028016E0025
(1663373327.528114) can0 120#016E000000000000
(1663373327.528287) can0 207#0000000000000000
(1663373327.528589) can0 353#3381000017B50000
(1663373327.541656) can0 0FC#0300000000000000
(1663373327.541909) can0 4B0#0000000000000000
(1663373327.542167) can0 210#21E0F8C91021E000
(1663373327.542402) can0 085#0000000000000000
(1663373327.542696) can0 090#0000000000000000
(1663373327.543562) can0 230#00BE760668000000
(1663373327.543823) can0 12D#8100000000000004
(1663373327.544093) can0 097#01680028016E0025
(1663373327.544329) can0 120#016E000000000000
(1663373327.559541) can0 12D#8100000000000004
(1663373327.559785) can0 097#01680028016E0025
(1663373327.560022) can0 120#016E000000000000
(1663373327.561680) can0 090#0000000000000000
(1663373327.561940) can0 4B0#0000000000000000
(1663373327.562183) can0 210#21E0F8C91021E000
(1663373327.562406) can0 085#0000000000000000
(1663373327.562675) can0 760#023E010000000000
(1663373327.571192) can0 128#0080000000000000
(1663373327.571439) can0 350#0400000000000000
(1663373327.571696) can0 437#7979010000000081
(1663373327.571977) can0 453#0000000000073500
(1663373327.575597) can0 200#034502510340C000
(1663373327.575847) can0 207#0000000000000000
(1663373327.576094) can0 425#000000FFFF028000
(1663373327.576340) can0 12D#8100000000000004
(1663373327.576568) can0 427#5B232F78F6000500
(1663373327.576817) can0 44D#0040000038F051C7
(1663373327.577043) can0 097#01680028016D0025
(1663373327.577290) can0 120#016D000000000000
(1663373327.577532) can0 623#3644128200000000
(1663373327.577770) can0 353#3381000017B50000
(1663373327.578008) can0 640#44600078000C8600
(1663373327.578256) can0 650#1142000000000000
(1663373327.581766) can0 090#0000000000000000
(1663373327.582014) can0 4B0#0000000000000000
(1663373327.582250) can0 210#21E0F8C91021E000
(1663373327.582500) can0 085#0000000000000000
(1663373327.587071) can0 768#017E000000000000
(1663373327.591616) can0 12D#8100000000000004
(1663373327.591854) can0 097#01680028016D0025
(1663373327.592110) can0 120#016D000000000000
(1663373327.601637) can0 090#0000000000000000
(1663373327.601884) can0 4B0#0000000000000000
(1663373327.602142) can0 210#21E0F8C91021E000
(1663373327.602376) can0 085#0000000000000000
(1663373327.607589) can0 230#00BE760668000000
(1663373327.607833) can0 12D#8100000000000004
(1663373327.608084) can0 097#01680028016D0025
(1663373327.608319) can0 120#016D000000000000
(1663373327.610331) can0 340#001A000000000000
(1663373327.621678) can0 090#0000000000000000
(1663373327.621929) can0 4B0#0000000000000000
(1663373327.622185) can0 210#21E0F8C91021E000
(1663373327.622426) can0 085#0000000000000000
(1663373327.623610) can0 200#034502510340C000
(1663373327.623844) can0 12D#8100000000000004
(1663373327.624091) can0 097#01680028016D0025
(1663373327.624331) can0 120#016D000000000000
(1663373327.624592) can0 207#0000000000000000
(1663373327.627741) can0 353#3381000017B50000
(1663373327.628715) can0 760#0322290600000000
(1663373327.639618) can0 12D#8100000000000004
(1663373327.639859) can0 097#01680028016D0025
(1663373327.640115) can0 120#016D000000000000
(1663373327.641682) can0 090#0000000000000000
(1663373327.641974) can0 4B0#0000000000000000
(1663373327.642191) can0 210#21E0F8C91021E000
(1663373327.642435) can0 085#0000000000000000
(1663373327.653066) can0 768#0562290608000000
(1663373327.655657) can0 12D#8100000000000004
(1663373327.655898) can0 097#01680028016D0025
(1663373327.656152) can0 120#016D000000000000
(1663373327.661665) can0 090#0000000000000000
(1663373327.661909) can0 4B0#0000000000000000
(1663373327.662164) can0 210#21E0F8C91021E000
(1663373327.662402) can0 085#0000000000000000
(1663373327.671191) can0 128#0080000000000000
(1663373327.671437) can0 350#0400000000000000
(1663373327.671699) can0 200#034502510340C000
(1663373327.671953) can0 207#0000000000000000
(1663373327.672205) can0 230#00BE760668000000
(1663373327.672407) can0 425#000000FFFF028000
(1663373327.672665) can0 12D#8100000000000004
(1663373327.672899) can0 427#5B232F78F6000500
(1663373327.673153) can0 437#7979010000000081
(1663373327.673367) can0 44D#0040000038F051C7
(1663373327.673599) can0 097#01680028016D0025
(1663373327.673852) can0 120#016D000000000000
(1663373327.674104) can0 453#0000000000073500
(1663373327.677749) can0 353#3381000017B50000
(1663373327.681717) can0 090#0000000000000000
(1663373327.681959) can0 4B0#0000000000000000
(1663373327.682214) can0 210#21E0F8C91021E000
(1663373327.682455) can0 085#0000000000000000
(1663373327.687736) can0 12D#8100000000000004
(1663373327.687979) can0 097#01680028016D0025
(1663373327.688230) can0 120#016D000000000000
(1663373327.699966) can0 760#0322290600000000
(1663373327.701194) can0 307#0000000000000000
(1663373327.701656) can0 090#0000000000000000
(1663373327.701923) can0 4B0#0000000000000000
(1663373327.702178) can0 210#21E0F8C91021E000
(1663373327.702419) can0 085#0000000000000000
(1663373327.703533) can0 12D#8100000000000004
(1663373327.703775) can0 097#01680028016D0025
(1663373327.704029) can0 120#016D000000000000
(1663373327.710482) can0 340#001A000000000000
(1663373327.712252) can0 454#0000000000000000
(1663373327.719483) can0 200#034502510340C000
(1663373327.719728) can0 12D#8100000000000004
(1663373327.719979) can0 097#01680028016D0025
(1663373327.720215) can0 120#016D000000000000
(1663373327.720481) can0 207#0000000000000000
(1663373327.720698) can0 6F6#15B91DFE3A7B6962
(1663373327.721698) can0 090#0000000000000000
(1663373327.721966) can0 4B0#0000000000000000
(1663373327.722179) can0 210#21E0F8C91021E000
(1663373327.722447) can0 085#0000000000000000
(1663373327.725070) can0 768#0562290608000000
(1663373327.727755) can0 353#3381000017B50000
(1663373327.735572) can0 230#00BE760668000000
(1663373327.735814) can0 12D#8100000000000004
(1663373327.736071) can0 097#01680028016D0025
(1663373327.736308) can0 120#016D000000000000
(1663373327.741662) can0 0FC#0300000000000000
(1663373327.741905) can0 4B0#0000000000000000
(1663373327.742159) can0 210#21E0F8C91021E000
(1663373327.742394) can0 085#0000000000000000
(1663373327.742661) can0 090#0000000000000000
(1663373327.751569) can0 12D#8100000000000004
(1663373327.751803) can0 097#01680028016D0025
(1663373327.752063) can0 120#016D000000000000
(1663373327.761631) can0 090#0000000000000000
(1663373327.761876) can0 4B0#0000000000000000
(1663373327.762130) can0 210#21E0F8C91021E000
(1663373327.762366) can0 085#0000000000000000
(1663373327.767566) can0 200#034502510340C000
(1663373327.767816) can0 207#0000000000000000
(1663373327.768080) can0 425#000000FFFF028000
(1663373327.768315) can0 12D#8100000000000004
(1663373327.768566) can0 427#5B232F78F6000500
(1663373327.768764) can0 44D#0040000038F051C7
(1663373327.769035) can0 097#01680028016D0025
(1663373327.769268) can0 120#016D000000000000
(1663373327.769499) can0 760#0322290600000000
(1663373327.771183) can0 128#0080000000000000
(1663373327.771464) can0 350#0400000000000000
(1663373327.771703) can0 437#7979010000000081
(1663373327.771987) can0 453#0000000000073500
(1663373327.777761) can0 353#3381000017B50000
(1663373327.781639) can0 090#0000000000000000
(1663373327.781882) can0 4B0#0000000000000000
(1663373327.782119) can0 210#21E0F8C91021E000
(1663373327.782381) can0 085#0000000000000000
(1663373327.783660) can0 12D#8100000000000004
(1663373327.783916) can0 097#01680028016D0025
(1663373327.784208) can0 120#016D000000000000
(1663373327.794090) can0 768#0562290608000000
(1663373327.799563) can0 230#00BE760668000000
(1663373327.799807) can0 12D#8100000000000004
(1663373327.800046) can0 097#01680028016D0025
(1663373327.800293) can0 120#016D000000000000
(1663373327.801651) can0 090#0000000000000000
(1663373327.801897) can0 4B0#0000000000000000
(1663373327.802133) can0 210#21E0F8C91021E000
(1663373327.802384) can0 085#0000000000000000
(1663373327.810376) can0 340#001A000000000000
(1663373327.815614) can0 200#034502510340C000
(1663373327.815859) can0 12D#8100000000000004
(1663373327.816098) can0 097#01680028016D0025
(1663373327.816441) can0 120#016D000000000000
(1663373327.816599) can0 207#0000000000000000
(1663373327.821663) can0 090#0000000000000000
(1663373327.821911) can0 4B0#0000000000000000
(1663373327.822148) can0 210#21E0F8C91021E000
(1663373327.822397) can0 085#0000000000000000
(1663373327.827765) can0 353#3381000017B50000
(1663373327.831755) can0 12D#8100000000000004
(1663373327.831990) can0 097#01680028016D0025
(1663373327.832238) can0 120#016D000000000000
(1663373327.836228) can0 760#0322290600000000
(1663373327.841641) can0 090#0000000000000000
(1663373327.841886) can0 4B0#0000000000000000
(1663373327.842123) can0 210#21E0F8C91021E000
(1663373327.842373) can0 085#0000000000000000
(1663373327.847662) can0 12D#8100000000000004
(1663373327.847903) can0 097#01680028016D0025
(1663373327.848148) can0 120#016D000000000000
(1663373327.861096) can0 768#0562290608000000
(1663373327.861723) can0 090#0000000000000000
(1663373327.861919) can0 4B0#0000000000000000
(1663373327.862166) can0 210#21E0F8C91021E000
(1663373327.862445) can0 085#0000000000000000
(1663373327.863647) can0 200#034502510340C000
(1663373327.863912) can0 207#0000000000000000
(1663373327.864166) can0 230#00BE760668000000
(1663373327.864438) can0 425#000000FFFF028000
(1663373327.864685) can0 12D#8100000000000004
(1663373327.864858) can0 427#5B232F78F6000500
(1663373327.865111) can0 44D#0040000038F051C7
(1663373327.865334) can0 097#01680028016D0025
(1663373327.865612) can0 120#016D000000000000
(1663373327.871185) can0 128#0080000000000000
(1663373327.871428) can0 350#0400000000000000
(1663373327.871694) can0 403#8202902424000000
(1663373327.871941) can0 437#7979010000000081
(1663373327.872191) can0 453#0000000000073500
(1663373327.877772) can0 353#3381000017B50000
(1663373327.879704) can0 12D#8100000000000004
(1663373327.879940) can0 097#01680028016E0025
(1663373327.880203) can0 120#016E000000000000
(1663373327.881658) can0 090#0000000000000000
(1663373327.881914) can0 4B0#0000000000000000
(1663373327.882129) can0 210#21E0F8C91021E000
(1663373327.882400) can0 085#0000000000000000
(1663373327.895701) can0 12D#8100000000000004
(1663373327.895937) can0 097#01680028016E0025
(1663373327.896185) can0 120#016E000000000000
(1663373327.901687) can0 090#0000000000000000
(1663373327.901916) can0 4B0#0000000000000000
(1663373327.902149) can0 210#21E0F8C91021E000
(1663373327.902401) can0 085#0000000000000000
(1663373327.907470) can0 760#0322290600000000
(1663373327.910260) can0 340#001A000000000000
(1663373327.911702) can0 200#034502510340C000
(1663373327.911947) can0 12D#8100000000000004
(1663373327.912186) can0 097#01680028016E0025
(1663373327.912435) can0 120#016E000000000000
(1663373327.912686) can0 207#0000000000000000
(1663373327.921665) can0 090#0000000000000000
(1663373327.921912) can0 4B0#0000000000000000
(1663373327.922134) can0 210#21E0F8C91021E000
(1663373327.922399) can0 085#0000000000000000
(1663373327.927716) can0 230#00BE760668000000
(1663373327.927960) can0 12D#8100000000000004
(1663373327.928201) can0 097#01680028016E0025
(1663373327.928447) can0 120#016E000000000000
(1663373327.928685) can0 353#3381000017B50000
(1663373327.932063) can0 768#0562290608000000
(1663373327.941657) can0 0FC#0300000000000000
(1663373327.941893) can0 4B0#0000000000000000
(1663373327.942129) can0 210#21E0F8C91021E000
(1663373327.942379) can0 085#0000000000000000
(1663373327.942630) can0 090#0000000000000000
(1663373327.943765) can0 12D#8100000000000004
(1663373327.944003) can0 097#01680028016E0025
(1663373327.944251) can0 120#016E000000000000
(1663373327.959716) can0 200#034502510340C000
(1663373327.959965) can0 207#0000000000000000
(1663373327.960213) can0 425#000000FFFF028000
(1663373327.960458) can0 12D#8100000000000004
(1663373327.960687) can0 427#5B232F78F6000500
(1663373327.960919) can0 44D#0040000038F051C7
(1663373327.961164) can0 097#01680028016E0025
(1663373327.961410) can0 120#016E000000000000
(1663373327.961657) can0 6F6#15B91DFE3A7B6962
(1663373327.961937) can0 090#0000000000000000
(1663373327.962128) can0 4B0#0000000000000000
(1663373327.962396) can0 210#21E0F8C91021E000
(1663373327.962623) can0 085#0000000000000000
(1663373327.971209) can0 128#0080000000000000
(1663373327.971456) can0 350#0400000000000000
(1663373327.971743) can0 437#7979010000000081
(1663373327.971934) can0 453#0000000000073500
(1663373327.975848) can0 12D#8100000000000004
(1663373327.976077) can0 097#01680028016E0025
(1663373327.976326) can0 120#016E000000000000
(1663373327.977779) can0 353#3381000017B50000
(1663373327.981658) can0 090#0000000000000000
(1663373327.981906) can0 4B0#0000000000000000
(1663373327.982142) can0 210#21E0F8C91021E000
(1663373327.982392) can0 085#0000000000000000
(1663373327.989321) can0 760#0322290600000000
(1663373327.991806) can0 230#00BE760668000000
(1663373327.992045) can0 12D#8100000000000004
(1663373327.992283) can0 097#01680028016E0025
(1663373327.992531) can0 120#016E000000000000
(1663373328.001681) can0 090#0000000000000000
(1663373328.001924) can0 4B0#0000000000000000
(1663373328.002175) can0 210#21E0F8C91021E000
(1663373328.002425) can0 085#0000000000000000
(1663373328.007802) can0 200#034502510340C000
(1663373328.008043) can0 12D#8100000000000004
(1663373328.008277) can0 097#01680028016E0025
(1663373328.008522) can0 120#016E000000000000
(1663373328.008834) can0 207#0000000000000000
(1663373328.010125) can0 340#001A000000000000
(1663373328.014077) can0 768#0562290608000000
(1663373328.021654) can0 090#0000000000000000
(1663373328.021894) can0 4B0#0000000000000000
(1663373328.022133) can0 210#21E0F8C91021E000
(1663373328.022416) can0 085#0000000000000000
(1663373328.024057) can0 12D#8100000000000004
(1663373328.024261) can0 097#01680028016E0025
(1663373328.024552) can0 120#016E000000000000
(1663373328.027792) can0 353#3381000017B50000
(1663373328.040035) can0 12D#8100000000000004
(1663373328.040271) can0 097#01680028016E0025
(1663373328.040519) can0 120#016E000000000000
(1663373328.041673) can0 090#0000000000000000
(1663373328.041919) can0 4B0#0000000000000000
(1663373328.042169) can0 210#21E0F8C91021E000
(1663373328.042413) can0 085#0000000000000000
(1663373328.056054) can0 200#034502510340C000
(1663373328.056299) can0 207#0000000000000000
(1663373328.056536) can0 230#00BE760668000000
(1663373328.056794) can0 425#000000FFFF028000
(1663373328.057025) can0 12D#8100000000000004
(1663373328.057282) can0 427#5B232F78F6000500
(1663373328.057491) can0 44D#0040000038F051C7
(1663373328.057769) can0 097#01680028016D0025
(1663373328.058018) can0 120#016D000000000000
(1663373328.061736) can0 090#0000000000000000
(1663373328.061980) can0 4B0#0000000000000000
(1663373328.062234) can0 210#21E0F8C91021E000
(1663373328.062473) can0 085#0000000000000000
(1663373328.063758) can0 760#0322290600000000
(1663373328.071185) can0 128#0080000000000000
(1663373328.071433) can0 350#0400000000000000
(1663373328.071664) can0 437#7979010000000081
(1663373328.071909) can0 453#0000000000073500
(1663373328.072183) can0 12D#8100000000000004
(1663373328.072395) can0 097#01680028016D0025
(1663373328.072670) can0 120#016D000000000000
(1663373328.077802) can0 353#3381000017B50000
(1663373328.081648) can0 090#0000000000000000
(1663373328.081893) can0 4B0#0000000000000000
(1663373328.082127) can0 210#21E0F8C91021E000
(1663373328.082424) can0 085#0000000000000000
(1663373328.088065) can0 768#0562290608000000
(1663373328.088303) can0 12D#8100000000000004
(1663373328.088542) can0 097#01680028016D0025
(1663373328.088864) can0 120#016D000000000000
(1663373328.101644) can0 090#0000000000000000
(1663373328.101883) can0 4B0#0000000000000000
(1663373328.102124) can0 210#21E0F8C91021E000
(1663373328.102402) can0 085#0000000000000000
(1663373328.104096) can0 200#034502510340C000
(1663373328.104329) can0 12D#8100000000000004
(1663373328.104563) can0 097#01680028016D0025
(1663373328.104851) can0 120#016D000000000000
(1663373328.105067) can0 207#0000000000000000
(1663373328.109642) can0 340#001A000000000000
(1663373328.120069) can0 230#00BE760668000000
(1663373328.120305) can0 12D#8100000000000004
(1663373328.120546) can0 097#01680028016D0025
(1663373328.120839) can0 120#016D000000000000
(1663373328.121725) can0 090#0000000000000000
(1663373328.121965) can0 4B0#0000000000000000
(1663373328.122216) can0 210#21E0F8C91021E000
(1663373328.122486) can0 085#0000000000000000
(1663373328.127811) can0 353#3381000017B50000
(1663373328.129993) can0 760#0322290600000000
(1663373328.136162) can0 12D#8100000000000004
(1663373328.136391) can0 097#01680028016D0025
(1663373328.136721) can0 120#016D000000000000
(1663373328.141725) can0 0FC#0300000000000000
(1663373328.141931) can0 4B0#0000000000000000
(1663373328.142152) can0 210#21E0F8C91021E000
(1663373328.142483) can0 085#0000000000000000
(1663373328.142651) can0 090#0000000000000000
(1663373328.152140) can0 200#034502510340C000
(1663373328.152387) can0 207#0000000000000000
(1663373328.152711) can0 425#000000FFFF028000
(1663373328.152879) can0 12D#8100000000000004
(1663373328.153103) can0 427#5B232F78F6000500
(1663373328.153369) can0 44D#0040000038F051C7
(1663373328.153577) can0 097#01680028016D0025
(1663373328.153873) can0 120#016D000000000000
(1663373328.155058) can0 768#0562290608000000
(1663373328.161715) can0 090#0000000000000000
(1663373328.161953) can0 4B0#0000000000000000
(1663373328.162191) can0 210#21E0F8C91021E000
(1663373328.162523) can0 085#0000000000000000
(1663373328.168177) can0 12D#8100000000000004
(1663373328.168408) can0 097#01680028016D0025
(1663373328.168656) can0 120#016D000000000000
(1663373328.171182) can0 128#0080000000000000
(1663373328.171435) can0 350#0400000000000000
(1663373328.171669) can0 437#7979010000000081
(1663373328.171906) can0 453#0000000000073500
(1663373328.177813) can0 353#3381000017B50000
(1663373328.181653) can0 090#0000000000000000
(1663373328.181894) can0 4B0#0000000000000000
(1663373328.182135) can0 210#21E0F8C91021E000
(1663373328.182429) can0 085#0000000000000000
(1663373328.184040) can0 230#00BE760668000000
(1663373328.184319) can0 12D#8100000000000004
(1663373328.184502) can0 097#01680028016D0025
(1663373328.184815) can0 120#016D000000000000
(1663373328.198729) can0 760#0322290600000000
(1663373328.199964) can0 200#034502510340C000
(1663373328.200208) can0 12D#8100000000000004
(1663373328.200447) can0 097#01680028016D0025
(1663373328.200694) can0 120#016D000000000000
(1663373328.200950) can0 207#0000000000000000
(1663373328.201198) can0 307#0000000000000000
(1663373328.201412) can0 6F6#15B91DFE3A7B6962
(1663373328.201808) can0 090#0000000000000000
(1663373328.202026) can0 4B0#0000000000000000
(1663373328.202260) can0 210#21E0F8C91021E000
(1663373328.202509) can0 085#0000000000000000
(1663373328.208887) can0 340#001A000000000000
(1663373328.216070) can0 12D#8100000000000004
(1663373328.216304) can0 097#01680028016D0025
(1663373328.216553) can0 120#016D000000000000
(1663373328.221672) can0 090#0000000000000000
(1663373328.221914) can0 4B0#0000000000000000
(1663373328.222149) can0 210#21E0F8C91021E000
(1663373328.222401) can0 085#0000000000000000
(1663373328.223058) can0 768#0562290608000000
(1663373328.227819) can0 353#3381000017B50000
(1663373328.232162) can0 12D#8100000000000004
(1663373328.232399) can0 097#01680028016D0025
(1663373328.232647) can0 120#016D000000000000
(1663373328.241642) can0 090#0000000000000000
(1663373328.241887) can0 4B0#0000000000000000
(1663373328.242124) can0 210#21E0F8C91021E000
(1663373328.242373) can0 085#0000000000000000
(1663373328.248047) can0 200#034502510340C000
(1663373328.248300) can0 207#0000000000000000
(1663373328.248540) can0 230#00BE760668000000
(1663373328.248785) can0 425#000000FFFF028000
(1663373328.249032) can0 12D#8100000000000004
(1663373328.249277) can0 427#5B232F78F6000500
(1663373328.249489) can0 44D#0040000038F051C7
(1663373328.249732) can0 097#01680028016D0025
(1663373328.250008) can0 120#016D000000000000
(1663373328.261669) can0 090#0000000000000000
(1663373328.261913) can0 4B0#0000000000000000
(1663373328.262149) can0 210#21E0F8C91021E000
(1663373328.262399) can0 085#0000000000000000
(1663373328.264105) can0 12D#8100000000000004
(1663373328.264318) can0 097#01680028016D0025
(1663373328.264585) can0 120#016D000000000000
(1663373328.266240) can0 760#0322290600000000
(1663373328.271179) can0 128#0080000000000000
(1663373328.271427) can0 350#0400000000000000
(1663373328.271666) can0 437#7979010000000081
(1663373328.271909) can0 453#0000000000073500
(1663373328.277826) can0 353#3381000017B50000
(1663373328.280127) can0 12D#8100000000000004
(1663373328.280369) can0 097#01680028016D0025
(1663373328.280623) can0 120#016D000000000000
(1663373328.281680) can0 090#0000000000000000
(1663373328.281922) can0 4B0#0000000000000000
(1663373328.282188) can0 210#21E0F8C91021E000
(1663373328.282439) can0 085#0000000000000000
(1663373328.291061) can0 768#0562290608000000
(1663373328.296096) can0 200#034502510340C000
(1663373328.296340) can0 12D#8100000000000004
(1663373328.296578) can0 097#01680028016D0025
(1663373328.296825) can0 120#016D000000000000
(1663373328.297079) can0 207#0000000000000000
(1663373328.301673) can0 090#0000000000000000
(1663373328.301917) can0 4B0#0000000000000000
(1663373328.302153) can0 210#21E0F8C91021E000
(1663373328.302404) can0 085#0000000000000000
(1663373328.309472) can0 340#001A000000000000
(1663373328.312117) can0 230#00BE760668000000
(1663373328.312358) can0 12D#8100000000000004
(1663373328.312597) can0 097#01680028016D0025
(1663373328.312845) can0 120#016D000000000000
(1663373328.321652) can0 090#0000000000000000
(1663373328.321896) can0 4B0#0000000000000000
(1663373328.322126) can0 210#21E0F8C91021E000
(1663373328.322395) can0 085#0000000000000000
(1663373328.327832) can0 353#3381000017B50000
(1663373328.328149) can0 12D#8100000000000004
(1663373328.328402) can0 097#01680028016D0025
(1663373328.328637) can0 120#016D000000000000
(1663373328.333107) can0 760#0322290600000000
(1663373328.341617) can0 0FC#0300000000000000
(1663373328.341864) can0 4B0#0000000000000000
(1663373328.342100) can0 210#21E0F8C91021E000
(1663373328.342351) can0 085#0000000000000000
(1663373328.342600) can0 090#0000000000000000
(1663373328.344170) can0 200#034502510340C000
(1663373328.344400) can0 207#0000000000000000
(1663373328.344646) can0 425#000000FFFF028000
(1663373328.344891) can0 12D#8100000000000004
(1663373328.345120) can0 427#5B232F78F6000500
(1663373328.345356) can0 44D#0040000038F051C7
(1663373328.345593) can0 097#01680028016D0025
(1663373328.345841) can0 120#016D000000000000
(1663373328.358077) can0 768#0562290608000000
(1663373328.360151) can0 12D#8100000000000004
(1663373328.360368) can0 097#01680028016E0025
(1663373328.360630) can0 120#016E000000000000
(1663373328.361625) can0 090#0000000000000000
(1663373328.361872) can0 4B0#0000000000000000
(1663373328.362109) can0 210#21E0F8C91021E000
(1663373328.362386) can0 085#0000000000000000
(1663373328.371180) can0 128#0080000000000000
(1663373328.371423) can0 350#0400000000000000
(1663373328.371692) can0 403#8202902424000000
(1663373328.371908) can0 437#7979010000000081
(1663373328.372144) can0 453#0000000000073500
(1663373328.376190) can0 230#00BE760668000000
(1663373328.376434) can0 12D#8100000000000004
(1663373328.376673) can0 097#01680028016E0025
(1663373328.376920) can0 120#016E000000000000
(1663373328.377834) can0 353#3381000017B50000
(1663373328.381652) can0 090#0000000000000000
(1663373328.381898) can0 4B0#0000000000000000
(1663373328.382132) can0 210#21E0F8C91021E000
(1663373328.382384) can0 085#0000000000000000
(1663373328.392197) can0 200#034502510340C000
(1663373328.392440) can0 12D#8100000000000004
(1663373328.392678) can0 097#01680028016E0025
(1663373328.392927) can0 120#016E000000000000
(1663373328.393179) can0 207#0000000000000000
(1663373328.401670) can0 090#0000000000000000
(1663373328.401917) can0 4B0#0000000000000000
(1663373328.402154) can0 210#21E0F8C91021E000
(1663373328.402404) can0 085#0000000000000000
(1663373328.403719) can0 760#0322290600000000
(1663373328.408218) can0 12D#8100000000000004
(1663373328.408454) can0 097#01680028016E0025
(1663373328.408704) can0 120#016E000000000000
(1663373328.409355) can0 340#001A000000000000
(1663373328.421618) can0 090#0000000000000000
(1663373328.421864) can0 4B0#0000000000000000
(1663373328.422101) can0 210#21E0F8C91021E000
(1663373328.422351) can0 085#0000000000000000
(1663373328.424238) can0 12D#8100000000000004
(1663373328.424475) can0 097#01680028016E0025
(1663373328.424723) can0 120#016E000000000000
(1663373328.427844) can0 353#3381000017B50000
(1663373328.428086) can0 768#0562290608000000
(1663373328.440218) can0 200#034502510340C000
(1663373328.440462) can0 207#0000000000000000
(1663373328.440704) can0 230#00BE760668000000
(1663373328.440951) can0 425#000000FFFF028000
(1663373328.441197) can0 12D#8100000000000004
(1663373328.441416) can0 427#5B232F78F6000500
(1663373328.441680) can0 44D#0040000038F051C7
(1663373328.441915) can0 090#0000000000000000
(1663373328.442152) can0 097#01680028016E0025
(1663373328.442399) can0 120#016E000000000000
(1663373328.442650) can0 4B0#0000000000000000
(1663373328.442886) can0 210#21E0F8C91021E000
(1663373328.443135) can0 085#0000000000000000
(1663373328.443380) can0 6F6#158622C10546515E
(1663373328.456294) can0 12D#8100000000000004
(1663373328.456527) can0 097#01680028016E0025
(1663373328.456790) can0 120#016E000000000000
(1663373328.461627) can0 090#0000000000000000
(1663373328.461875) can0 4B0#0000000000000000
(1663373328.462111) can0 210#21E0F8C91021E000
(1663373328.462360) can0 085#0000000000000000
(1663373328.470005) can0 760#0322290600000000
(1663373328.471176) can0 128#0080000000000000
(1663373328.471440) can0 350#0400000000000000
(1663373328.471652) can0 437#7979010000000081
(1663373328.471899) can0 453#0000000000073500
(1663373328.472302) can0 12D#8100000000000004
(1663373328.472522) can0 097#01680028016E0025
(1663373328.472765) can0 120#016E000000000000
(1663373328.477851) can0 353#3381000017B50000
(1663373328.481631) can0 090#0000000000000000
(1663373328.481872) can0 4B0#0000000000000000
(1663373328.482110) can0 210#21E0F8C91021E000
(1663373328.482359) can0 085#0000000000000000
(1663373328.488322) can0 200#034502510340C000
(1663373328.488565) can0 12D#8100000000000004
(1663373328.488804) can0 097#01680028016D0025
(1663373328.489051) can0 120#016D000000000000
(1663373328.489304) can0 207#0000000000000000
(1663373328.495060) can0 768#0562290608000000
(1663373328.501621) can0 090#0000000000000000
(1663373328.501863) can0 4B0#0000000000000000
(1663373328.502099) can0 210#21E0F8C91021E000
(1663373328.502349) can0 085#0000000000000000
(1663373328.504506) can0 230#00BE760668000000
(1663373328.504748) can0 12D#8100000000000004
(1663373328.504987) can0 097#01680028016D0025
(1663373328.505235) can0 120#016D000000000000
(1663373328.509510) can0 340#001A000000000000
(1663373328.520496) can0 12D#8100000000000004
(1663373328.520731) can0 097#01680028016D0025
(1663373328.520980) can0 120#016D000000000000
(1663373328.521638) can0 090#0000000000000000
(1663373328.521885) can0 4B0#0000000000000000
(1663373328.522147) can0 210#21E0F8C91021E000
(1663373328.522389) can0 085#0000000000000000
(1663373328.527859) can0 353#3381000017B50000
(1663373328.536245) can0 760#0322290600000000
(1663373328.536575) can0 200#034502510340C000
(1663373328.536814) can0 207#0000000000000000
(1663373328.537062) can0 425#000000FFFF028000
(1663373328.537303) can0 12D#8100000000000004
(1663373328.537532) can0 427#5B232F78F6000500
(1663373328.537785) can0 44D#0040000038F051C7
(1663373328.538059) can0 097#01680028016D0025
(1663373328.538268) can0 120#016D000000000000
(1663373328.541725) can0 0FC#0300000000000000
(1663373328.541973) can0 4B0#0000000000000000
(1663373328.542236) can0 210#21E0F8C91021E000
(1663373328.542445) can0 085#0000000000000000
(1663373328.542700) can0 090#0000000000000000
(1663373328.552560) can0 12D#8100000000000004
(1663373328.552808) can0 097#01680028016D0025
(1663373328.553068) can0 120#016D000000000000
(1663373328.561061) can0 768#0562290608000000
(1663373328.561683) can0 090#0000000000000000
(1663373328.561926) can0 4B0#0000000000000000
(1663373328.562163) can0 210#21E0F8C91021E000
(1663373328.562462) can0 085#0000000000000000
(1663373328.568559) can0 230#00BE760668000000
(1663373328.568799) can0 12D#8100000000000004
(1663373328.569037) can0 097#01680028016D0025
(1663373328.569326) can0 120#016D000000000000
(1663373328.569525) can0 623#3644128200000000
(1663373328.569767) can0 640#44600078000C8600
(1663373328.570041) can0 650#1036440106000000
(1663373328.571176) can0 128#0080000000000000
(1663373328.571427) can0 350#0400000000000000
(1663373328.571654) can0 437#7979010000000081
(1663373328.571981) can0 453#0000000000073500
(1663373328.577866) can0 353#3381000017B50000
(1663373328.581642) can0 090#0000000000000000
(1663373328.581877) can0 4B0#0000000000000000
(1663373328.582118) can0 210#21E0F8C91021E000
(1663373328.582404) can0 085#0000000000000000
(1663373328.584619) can0 200#034502510340C000
(1663373328.584857) can0 12D#8100000000000004
(1663373328.585100) can0 097#01680028016D0025
(1663373328.585378) can0 120#016D000000000000
(1663373328.585597) can0 207#0000000000000000
(1663373328.600573) can0 12D#8100000000000004
(1663373328.600807) can0 097#01680028016D0025
(1663373328.601049) can0 120#016D000000000000
(1663373328.601646) can0 090#0000000000000000
(1663373328.601888) can0 4B0#0000000000000000
(1663373328.602127) can0 210#21E0F8C91021E000
(1663373328.602413) can0 085#0000000000000000
(1663373328.602616) can0 760#0322290600000000
(1663373328.609353) can0 340#001A000000000000
(1663373328.616628) can0 12D#8100000000000004
(1663373328.616872) can0 097#01680028016D0025
(1663373328.617106) can0 120#016D000000000000
(1663373328.621641) can0 090#0000000000000000
(1663373328.621885) can0 4B0#0000000000000000
(1663373328.622119) can0 210#21E0F8C91021E000
(1663373328.622408) can0 085#0000000000000000
(1663373328.627058) can0 768#0562290608000000
(1663373328.627870) can0 353#3381000017B50000
(1663373328.632711) can0 200#034502510340C000
(1663373328.632952) can0 207#0000000000000000
(1663373328.633199) can0 230#00BE760668000000
(1663373328.633480) can0 425#000000FFFF028000
(1663373328.633687) can0 12D#8100000000000004
(1663373328.633950) can0 427#5B232F78F6000500
(1663373328.634153) can0 44D#0040000038F051C7
(1663373328.634466) can0 097#01680028016D0025
(1663373328.634642) can0 120#016D000000000000
(1663373328.641737) can0 090#0000000000000000
(1663373328.641973) can0 4B0#0000000000000000
(1663373328.642210) can0 210#21E0F8C91021E000
(1663373328.642506) can0 085#0000000000000000
(1663373328.648660) can0 12D#8100000000000004
(1663373328.648884) can0 097#01680028016D0025
(1663373328.649134) can0 120#016D000000000000
(1663373328.661648) can0 090#0000000000000000
(1663373328.661887) can0 4B0#0000000000000000
(1663373328.662127) can0 210#21E0F8C91021E000
(1663373328.662410) can0 085#0000000000000000
(1663373328.664520) can0 12D#8100000000000004
(1663373328.664754) can0 097#01680028016D0025
(1663373328.664970) can0 120#016D000000000000
(1663373328.671170) can0 128#0080000000000000
(1663373328.671414) can0 350#0400000000000000
(1663373328.671656) can0 437#7979010000000081
(1663373328.671896) can0 453#0000000000073500
(1663373328.672485) can0 760#0322290600000000
(1663373328.677887) can0 353#3381000017B50000
(1663373328.680525) can0 200#034502510340C000
(1663373328.680757) can0 12D#8100000000000004
(1663373328.680999) can0 097#01680028016D0025
(1663373328.681299) can0 120#016D000000000000
(1663373328.681498) can0 207#0000000000000000
(1663373328.681818) can0 090#0000000000000000
(1663373328.682000) can0 4B0#0000000000000000
(1663373328.682235) can0 210#21E0F8C91021E000
(1663373328.682532) can0 085#0000000000000000
(1663373328.682712) can0 6F6#158622C10546515E
(1663373328.696529) can0 230#00BE760668000000
(1663373328.696776) can0 12D#8100000000000004
(1663373328.697001) can0 097#01680028016D0025
(1663373328.697317) can0 120#016D000000000000
(1663373328.697492) can0 768#0562290608000000
(1663373328.701180) can0 307#0000000000000000
(1663373328.701715) can0 090#0000000000000000
(1663373328.701956) can0 4B0#0000000000000000
(1663373328.702194) can0 210#21E0F8C91021E000
(1663373328.702474) can0 085#0000000000000000
(1663373328.708227) can0 340#001A000000000000
(1663373328.709924) can0 454#0000000000000000
(1663373328.712550) can0 12D#8100000000000004
(1663373328.712780) can0 097#01680028016D0025
(1663373328.713028) can0 120#016D000000000000
(1663373328.721627) can0 090#0000000000000000
(1663373328.721865) can0 4B0#0000000000000000
(1663373328.722101) can0 210#21E0F8C91021E000
(1663373328.722389) can0 085#0000000000000000
(1663373328.727884) can0 353#3381000017B50000
(1663373328.728530) can0 200#034502510340C000
(1663373328.728777) can0 207#0000000000000000
(1663373328.729090) can0 425#000000FFFF028000
(1663373328.729264) can0 12D#8100000000000004
(1663373328.729494) can0 427#5B232F78F6000500
(1663373328.729762) can0 44D#0040000038F051C7
(1663373328.729965) can0 097#01680028016D0025
(1663373328.730270) can0 120#016D000000000000
(1663373328.741629) can0 0FC#0300000000000000
(1663373328.741867) can0 4B0#0000000000000000
(1663373328.742103) can0 210#21E0F8C91021E000
(1663373328.742392) can0 085#0000000000000000
(1663373328.742603) can0 090#0000000000000000
(1663373328.742915) can0 760#0322290600000000
(1663373328.744580) can0 12D#8100000000000004
(1663373328.744813) can0 097#01680028016D0025
(1663373328.745059) can0 120#016D000000000000
(1663373328.760532) can0 230#00BE760668000000
(1663373328.760765) can0 12D#8100000000000004
(1663373328.761004) can0 097#01680028016D0025
(1663373328.761313) can0 120#016D000000000000
(1663373328.761737) can0 090#0000000000000000
(1663373328.761982) can0 4B0#0000000000000000
(1663373328.762211) can0 210#21E0F8C91021E000
(1663373328.762499) can0 085#0000000000000000
(1663373328.768053) can0 768#0562290608000000
(1663373328.771173) can0 128#0080000000000000
(1663373328.771414) can0 350#0400000000000000
(1663373328.771653) can0 437#7979010000000081
(1663373328.771958) can0 453#0000000000073500
(1663373328.776614) can0 200#034502510340C000
(1663373328.776851) can0 12D#8100000000000004
(1663373328.777092) can0 097#01680028016E0025
(1663373328.777375) can0 120#016E000000000000
(1663373328.777666) can0 207#0000000000000000
(1663373328.777890) can0 353#3381000017B50000
(1663373328.781705) can0 090#0000000000000000
(1663373328.781946) can0 4B0#0000000000000000
(1663373328.782186) can0 210#21E0F8C91021E000
(1663373328.782465) can0 085#0000000000000000
(1663373328.792636) can0 12D#8100000000000004
(1663373328.792856) can0 097#01680028016E0025
(1663373328.793143) can0 120#016E000000000000
(1663373328.801662) can0 090#0000000000000000
(1663373328.801902) can0 4B0#0000000000000000
(1663373328.802137) can0 210#21E0F8C91021E000
(1663373328.802386) can0 085#0000000000000000
(1663373328.807488) can0 760#0322290600000000
(1663373328.807947) can0 340#001A000000000000
(1663373328.808630) can0 12D#8100000000000004
(1663373328.808868) can0 097#01680028016E0025
(1663373328.809147) can0 120#016E000000000000
(1663373328.821649) can0 090#0000000000000000
(1663373328.821900) can0 4B0#0000000000000000
(1663373328.822153) can0 210#21E0F8C91021E000
(1663373328.822409) can0 085#0000000000000000
(1663373328.824615) can0 200#034502510340C000
(1663373328.824866) can0 207#0000000000000000
(1663373328.825145) can0 230#00BE760668000000
(1663373328.825338) can0 425#000000FFFF028000
(1663373328.825610) can0 12D#8100000000000004
(1663373328.825831) can0 427#5B232F78F6000500
(1663373328.826089) can0 44D#0040000038F051C7
(1663373328.826312) can0 097#01680028016E0025
(1663373328.826560) can0 120#016E000000000000
(1663373328.827894) can0 353#3381000017B50000
(1663373328.832053) can0 768#0562290608000000
(1663373328.840619) can0 12D#8100000000000004
(1663373328.840856) can0 097#01680028016E0025
(1663373328.841120) can0 120#016E000000000000
(1663373328.841677) can0 090#0000000000000000
(1663373328.841953) can0 4B0#0000000000000000
(1663373328.842182) can0 210#21E0F8C91021E000
(1663373328.842414) can0 085#0000000000000000
(1663373328.856702) can0 12D#8100000000000004
(1663373328.856894) can0 097#01680028016E0025
(1663373328.857163) can0 120#016E000000000000
(1663373328.861672) can0 090#0000000000000000
(1663373328.861901) can0 4B0#0000000000000000
(1663373328.862136) can0 210#21E0F8C91021E000
(1663373328.862389) can0 085#0000000000000000
(1663373328.871176) can0 128#0080000000000000
(1663373328.871437) can0 350#0400000000000000
(1663373328.871656) can0 403#8202902424000000
(1663373328.871926) can0 437#7979010000000081
(1663373328.872168) can0 453#0000000000073500
(1663373328.872666) can0 200#034502510340C000
(1663373328.872932) can0 12D#8100000000000004
(1663373328.873164) can0 097#01680028016D0025
(1663373328.873423) can0 120#016D000000000000
(1663373328.873700) can0 207#0000000000000000
(1663373328.875611) can0 760#0322290600000000
(1663373328.877907) can0 353#3381000017B50000
(1663373328.881647) can0 090#0000000000000000
(1663373328.881896) can0 4B0#0000000000000000
(1663373328.882131) can0 210#21E0F8C91021E000
(1663373328.882382) can0 085#0000000000000000
(1663373328.888723) can0 230#00BE760668000000
(1663373328.888968) can0 12D#8100000000000004
(1663373328.889206) can0 097#01680028016D0025
(1663373328.889454) can0 120#016D000000000000
(1663373328.900048) can0 768#0562290608000000
(1663373328.901678) can0 090#0000000000000000
(1663373328.901904) can0 4B0#0000000000000000
(1663373328.902139) can0 210#21E0F8C91021E000
(1663373328.902389) can0 085#0000000000000000
(1663373328.904722) can0 12D#8100000000000004
(1663373328.904959) can0 097#01680028016D0025
(1663373328.905207) can0 120#016D000000000000
(1663373328.908644) can0 340#001A000000000000
(1663373328.920677) can0 200#034502510340C000
(1663373328.920924) can0 207#0000000000000000
(1663373328.921170) can0 425#000000FFFF028000
(1663373328.921416) can0 12D#8100000000000004
(1663373328.921640) can0 427#5B232F78F6000500
(1663373328.921913) can0 090#0000000000000000
(1663373328.922133) can0 44D#0040000038F051C7
(1663373328.922371) can0 097#01680028016D0025
(1663373328.922618) can0 120#016D000000000000
(1663373328.922868) can0 4B0#0000000000000000
(1663373328.923105) can0 210#21E0F8C91021E000
(1663373328.923355) can0 085#0000000000000000
(1663373328.923592) can0 6F6#158622C10546515E
(1663373328.927912) can0 353#3381000017B50000
(1663373328.936786) can0 12D#8100000000000004
(1663373328.937019) can0 097#01680028016D0025
(1663373328.937267) can0 120#016D000000000000
(1663373328.941643) can0 0FC#0300000000000000
(1663373328.941891) can0 4B0#0000000000000000
(1663373328.942126) can0 210#21E0F8C91021E000
(1663373328.942377) can0 085#0000000000000000
(1663373328.942627) can0 090#0000000000000000
(1663373328.948748) can0 760#0322290600000000
(1663373328.952751) can0 230#00BE760668000000
(1663373328.952995) can0 12D#8100000000000004
(1663373328.953232) can0 097#01680028016D0025
(1663373328.953480) can0 120#016D000000000000
(1663373328.961659) can0 090#0000000000000000
(1663373328.961906) can0 4B0#0000000000000000
(1663373328.962143) can0 210#21E0F8C91021E000
(1663373328.962394) can0 085#0000000000000000
(1663373328.968765) can0 200#034502510340C000
(1663373328.969012) can0 12D#8100000000000004
(1663373328.969250) can0 097#01680028016D0025
(1663373328.969497) can0 120#016D000000000000
(1663373328.969749) can0 207#0000000000000000
(1663373328.971160) can0 128#0080000000000000
(1663373328.971474) can0 350#0400000000000000
(1663373328.971610) can0 437#7979010000000081
(1663373328.971988) can0 453#0000000000073500
(1663373328.973051) can0 768#0562290608000000
(1663373328.977924) can0 353#3381000017B50000
(1663373328.981624) can0 090#0000000000000000
(1663373328.981865) can0 4B0#0000000000000000
(1663373328.982100) can0 210#21E0F8C91021E000
(1663373328.982385) can0 085#0000000000000000
(1663373328.985054) can0 12D#8100000000000004
(1663373328.985283) can0 097#01680028016D0025
(1663373328.985615) can0 120#016D000000000000
(1663373329.000985) can0 12D#8100000000000004
(1663373329.001211) can0 097#01680028016D0025
(1663373329.001463) can0 120#016D000000000000
(1663373329.001746) can0 090#0000000000000000
(1663373329.001966) can0 4B0#0000000000000000
(1663373329.002232) can0 210#21E0F8C91021E000
(1663373329.002453) can0 085#0000000000000000
(1663373329.007869) can0 340#001A000000000000
(1663373329.017017) can0 200#034502510340C000
(1663373329.017264) can0 207#0000000000000000
(1663373329.017575) can0 230#00BE760668000000
(1663373329.017748) can0 425#000000FFFF028000
(1663373329.018061) can0 12D#8100000000000004
(1663373329.018229) can0 427#5B232F78F6000500
(1663373329.018521) can0 44D#0040000038F051C7
(1663373329.018701) can0 097#01680028016D0025
(1663373329.018946) can0 120#016D000000000000
(1663373329.019984) can0 760#0322290600000000
(1663373329.021698) can0 090#0000000000000000
(1663373329.021941) can0 4B0#0000000000000000
(1663373329.022178) can0 210#21E0F8C91021E000
(1663373329.022427) can0 085#0000000000000000
(1663373329.027921) can0 353#3381000017B50000
(1663373329.033134) can0 12D#8100000000000004
(1663373329.033372) can0 097#01680028016D0025
(1663373329.033620) can0 120#016D000000000000
(1663373329.041626) can0 090#0000000000000000
(1663373329.041871) can0 4B0#0000000000000000
(1663373329.042108) can0 210#21E0F8C91021E000
(1663373329.042358) can0 085#0000000000000000
(1663373329.045050) can0 768#0562290608000000
(1663373329.049060) can0 12D#8100000000000004
(1663373329.049291) can0 097#01680028016D0025
(1663373329.049538) can0 120#016D000000000000
(1663373329.061609) can0 090#0000000000000000
(1663373329.061858) can0 4B0#0000000000000000
(1663373329.062095) can0 210#21E0F8C91021E000
(1663373329.062376) can0 085#0000000000000000
(1663373329.065053) can0 200#034502510340C000
(1663373329.065300) can0 12D#8100000000000004
(1663373329.065544) can0 097#01680028016D0025
(1663373329.065800) can0 120#016D000000000000
(1663373329.066085) can0 207#0000000000000000
(1663373329.071189) can0 128#0080000000000000
(1663373329.071437) can0 350#0400000000000000
(1663373329.071675) can0 437#7979010000000081
(1663373329.071918) can0 453#0000000000073500
(1663373329.077934) can0 353#3381000017B50000
(1663373329.081099) can0 230#00BE760668000000
(1663373329.081361) can0 12D#8100000000000004
(1663373329.081572) can0 097#01680028016D0025
(1663373329.081834) can0 090#0000000000000000
(1663373329.082077) can0 120#016D000000000000
(1663373329.082327) can0 4B0#0000000000000000
(1663373329.082563) can0 210#21E0F8C91021E000
(1663373329.082812) can0 085#0000000000000000
(1663373329.087487) can0 760#0322290600000000
(1663373329.097108) can0 12D#8100000000000004
(1663373329.097339) can0 097#01680028016D0025
(1663373329.097588) can0 120#016D000000000000
(1663373329.101621) can0 090#0000000000000000
(1663373329.101866) can0 4B0#0000000000000000
(1663373329.102101) can0 210#21E0F8C91021E000
(1663373329.102352) can0 085#0000000000000000
(1663373329.108465) can0 340#001A000000000000
(1663373329.112050) can0 768#0562290608000000
(1663373329.113104) can0 200#034502510340C000
(1663373329.113364) can0 207#0000000000000000
(1663373329.113595) can0 425#000000FFFF028000
(1663373329.113847) can0 12D#8100000000000004
(1663373329.114074) can0 427#5B232F78F6000500
(1663373329.114299) can0 44D#0040000038F051C7
(1663373329.114562) can0 097#01680028016D0025
(1663373329.114792) can0 120#016D000000000000
(1663373329.121662) can0 090#0000000000000000
(1663373329.121907) can0 4B0#0000000000000000
(1663373329.122142) can0 210#21E0F8C91021E000
(1663373329.122392) can0 085#0000000000000000
(1663373329.127931) can0 353#3381000017B50000
(1663373329.129175) can0 12D#8100000000000004
(1663373329.129412) can0 097#01680028016D0025
(1663373329.129661) can0 120#016D000000000000
(1663373329.141629) can0 0FC#0300000000000000
(1663373329.141873) can0 4B0#0000000000000000
(1663373329.142109) can0 210#21E0F8C91021E000
(1663373329.142359) can0 085#0000000000000000
(1663373329.142608) can0 090#0000000000000000
(1663373329.144972) can0 230#00BE760668000000
(1663373329.145217) can0 12D#8100000000000004
(1663373329.145455) can0 097#01680028016D0025
(1663373329.145703) can0 120#016D000000000000
(1663373329.156382) can0 760#062F290607000000
(1663373329.160934) can0 200#034502510340C000
(1663373329.161178) can0 12D#8100000000000004
(1663373329.161420) can0 097#01680028016D0025
(1663373329.161668) can0 090#0000000000000000
(1663373329.161928) can0 120#016D000000000000
(1663373329.162167) can0 207#0000000000000000
(1663373329.162416) can0 4B0#0000000000000000
(1663373329.162654) can0 210#21E0F8C91021E000
(1663373329.162902) can0 085#0000000000000000
(1663373329.163132) can0 6F6#158622C10546515E
(1663373329.171164) can0 128#0080000000000000
(1663373329.171407) can0 350#0400000000000000
(1663373329.171662) can0 437#7979010000000081
(1663373329.171892) can0 453#0000000000073500
(1663373329.177045) can0 12D#8100000000000004
(1663373329.177279) can0 097#01680028016D0025
(1663373329.177527) can0 120#016D000000000000
(1663373329.177950) can0 353#3381000017B50000
(1663373329.181038) can0 768#066F290607000000
(1663373329.181734) can0 090#0000000000000000
(1663373329.181978) can0 4B0#0000000000000000
(1663373329.182214) can0 210#21E0F8C91021E000
(1663373329.182469) can0 085#0000000000000000
(1663373329.193035) can0 12D#8100000000000004
(1663373329.193268) can0 097#01680028016D0025
(1663373329.193512) can0 120#016D000000000000
(1663373329.201168) can0 307#0000000000000000
(1663373329.201662) can0 090#0000000000000000
(1663373329.201909) can0 4B0#0000000000000000
(1663373329.202144) can0 210#21E0F8C91021E000
(1663373329.202395) can0 085#0000000000000000
(1663373329.208354) can0 340#001A000000000000
(1663373329.209027) can0 200#034502510340C000
(1663373329.209272) can0 207#0000000000000000
(1663373329.209541) can0 230#00BE760668000000
(1663373329.209769) can0 425#000000FFFF028000
(1663373329.210013) can0 12D#8100000000000004
(1663373329.210235) can0 427#5B232F78F6000500
(1663373329.210464) can0 44D#0040000038F051C7
(1663373329.210715) can0 097#01680028016D0025
(1663373329.210968) can0 120#016D000000000000
(1663373329.221629) can0 090#0000000000000000
(1663373329.221874) can0 4B0#0000000000000000
(1663373329.222111) can0 210#21E0F8C91021E000
(1663373329.222360) can0 085#0000000000000000
(1663373329.225048) can0 12D#8100000000000004
(1663373329.225282) can0 097#01680028016D0025
(1663373329.225530) can0 120#016D000000000000
(1663373329.227946) can0 353#3381000017B50000
(1663373329.241043) can0 12D#8100000000000004
(1663373329.241289) can0 097#01680028016D0025
(1663373329.241524) can0 120#016D000000000000
(1663373329.241774) can0 090#0000000000000000
(1663373329.242025) can0 4B0#0000000000000000
(1663373329.242260) can0 210#21E0F8C91021E000
(1663373329.242510) can0 085#0000000000000000
(1663373329.257070) can0 200#034502510340C000
(1663373329.257307) can0 12D#8100000000000004
(1663373329.257544) can0 097#01680028016D0025
(1663373329.257792) can0 120#016D000000000000
(1663373329.258044) can0 207#0000000000000000
(1663373329.261659) can0 090#0000000000000000
(1663373329.261901) can0 4B0#0000000000000000
(1663373329.262136) can0 210#21E0F8C91021E000
(1663373329.262387) can0 085#0000000000000000
(1663373329.271160) can0 128#0080000000000000
(1663373329.271408) can0 350#0400000000000000
(1663373329.271664) can0 437#7979010000000081
(1663373329.271892) can0 453#0000000000073500
(1663373329.273091) can0 230#00BE760668000000
(1663373329.273351) can0 12D#8100000000000004
(1663373329.273568) can0 097#01680028016D0025
(1663373329.273851) can0 120#016D000000000000
(1663373329.277961) can0 353#3381000017B50000
(1663373329.278193) can0 760#0322290600000000
(1663373329.281686) can0 090#0000000000000000
(1663373329.281930) can0 4B0#0000000000000000
(1663373329.282172) can0 210#21E0F8C91021E000
(1663373329.282434) can0 085#0000000000000000
(1663373329.289156) can0 12D#8100000000000004
(1663373329.289393) can0 097#01680028016D0025
(1663373329.289653) can0 120#016D000000000000
(1663373329.301669) can0 090#0000000000000000
(1663373329.301926) can0 4B0#0000000000000000
(1663373329.302167) can0 210#21E0F8C91021E000
(1663373329.302426) can0 085#0000000000000000
(1663373329.303060) can0 768#0562290608000000
(1663373329.305112) can0 200#034502510340C000
(1663373329.305362) can0 207#0000000000000000
(1663373329.305601) can0 425#000000FFFF028000
(1663373329.305864) can0 12D#8100000000000004
(1663373329.306080) can0 427#5B232F78F6000500
(1663373329.306357) can0 44D#0040000038F051C7
(1663373329.306571) can0 097#01680028016D0025
(1663373329.306847) can0 120#016D000000000000
(1663373329.309131) can0 340#001A000000000000
(1663373329.321117) can0 12D#8100000000000004
(1663373329.321377) can0 097#01680028016D0025
(1663373329.321664) can0 120#016D000000000000
(1663373329.321826) can0 090#0000000000000000
(1663373329.322137) can0 4B0#0000000000000000
(1663373329.322299) can0 210#21E0F8C91021E000
(1663373329.322607) can0 085#0000000000000000
(1663373329.327973) can0 353#3381000017B50000
(1663373329.337168) can0 230#00BE760668000000
(1663373329.337413) can0 12D#8100000000000004
(1663373329.337677) can0 097#01680028016D0025
(1663373329.337938) can0 120#016D000000000000
(1663373329.341682) can0 0FC#0300000000000000
(1663373329.341927) can0 4B0#0000000000000000
(1663373329.342186) can0 210#21E0F8C91021E000
(1663373329.342408) can0 085#0000000000000000
(1663373329.342667) can0 090#0000000000000000
(1663373329.348753) can0 760#0322290600000000
(1663373329.353174) can0 200#034502510340C000
(1663373329.353414) can0 12D#8100000000000004
(1663373329.353671) can0 097#01680028016D0025
(1663373329.353886) can0 120#016D000000000000
(1663373329.354153) can0 207#0000000000000000
(1663373329.361684) can0 090#0000000000000000
(1663373329.361935) can0 4B0#0000000000000000
(1663373329.362196) can0 210#21E0F8C91021E000
(1663373329.362417) can0 085#0000000000000000
(1663373329.369202) can0 12D#8100000000000004
(1663373329.369435) can0 097#01680028016D0025
(1663373329.369688) can0 120#016D000000000000
(1663373329.371187) can0 128#0080000000000000
(1663373329.371455) can0 350#0400000000000000
(1663373329.371695) can0 403#8202902424000000
(1663373329.371933) can0 437#7979010000000081
(1663373329.372170) can0 453#0000000000073500
(1663373329.373058) can0 768#0562290608000000
(1663373329.377989) can0 353#3381000017B50000
(1663373329.381625) can0 090#0000000000000000
(1663373329.381873) can0 4B0#0000000000000000
(1663373329.382129) can0 210#21E0F8C91021E000
(1663373329.382370) can0 085#0000000000000000
(1663373329.385245) can0 12D#8100000000000004
(1663373329.385481) can0 097#01680028016E0025
(1663373329.385751) can0 120#016E000000000000
(1663373329.401161) can0 200#034502510340C000
(1663373329.401417) can0 207#0000000000000000
(1663373329.401675) can0 230#00BE760668000000
(1663373329.401912) can0 090#0000000000000000
(1663373329.402169) can0 425#000000FFFF028000
(1663373329.402434) can0 12D#8100000000000004
(1663373329.402665) can0 427#5B232F78F6000500
(1663373329.402906) can0 44D#0040000038F051C7
(1663373329.403117) can0 097#01680028016E0025
(1663373329.403370) can0 120#016E000000000000
(1663373329.403597) can0 4B0#0000000000000000
(1663373329.403852) can0 210#21E0F8C91021E000
(1663373329.404098) can0 085#0000000000000000
(1663373329.404316) can0 6F6#15FE37D400BAB65A
(1663373329.407096) can0 340#001A000000000000
(1663373329.415014) can0 760#0322290600000000
(1663373329.417257) can0 12D#8100000000000004
(1663373329.417493) can0 097#01680028016E0025
(1663373329.417741) can0 120#016E000000000000
(1663373329.421662) can0 090#0000000000000000
(1663373329.421909) can0 4B0#0000000000000000
(1663373329.422145) can0 210#21E0F8C91021E000
(1663373329.422394) can0 085#0000000000000000
(1663373329.427972) can0 353#3381000017B50000
(1663373329.433360) can0 12D#8100000000000004
(1663373329.433594) can0 097#01680028016E0025
(1663373329.433842) can0 120#016E000000000000
(1663373329.440039) can0 768#0562290608000000
(1663373329.441674) can0 090#0000000000000000
(1663373329.441922) can0 4B0#0000000000000000
(1663373329.442158) can0 210#21E0F8C91021E000
(1663373329.442408) can0 085#0000000000000000
(1663373329.449245) can0 200#034502510340C000
(1663373329.449497) can0 12D#8100000000000004
(1663373329.449729) can0 097#01680028016E0025
(1663373329.449976) can0 120#016E000000000000
(1663373329.450228) can0 207#0000000000000000
(1663373329.461627) can0 090#0000000000000000
(1663373329.461872) can0 4B0#0000000000000000
(1663373329.462108) can0 210#21E0F8C91021E000
(1663373329.462358) can0 085#0000000000000000
(1663373329.465473) can0 230#00BE760668000000
(1663373329.465718) can0 12D#8100000000000004
(1663373329.465956) can0 097#01680028016D0025
(1663373329.466208) can0 120#016D000000000000
(1663373329.471158) can0 128#0080000000000000
(1663373329.471406) can0 350#0400000000000000
(1663373329.471680) can0 437#7979010000000081
(1663373329.471920) can0 453#0000000000073500
(1663373329.477985) can0 353#3381000017B50000
(1663373329.481281) can0 760#0322290600000000
(1663373329.481520) can0 12D#8100000000000004
(1663373329.481765) can0 090#0000000000000000
(1663373329.482001) can0 097#01680028016D0025
(1663373329.482249) can0 120#016D000000000000
(1663373329.482499) can0 4B0#0000000000000000
(1663373329.482735) can0 210#21E0F8C91021E000
(1663373329.482989) can0 085#0000000000000000
(1663373329.497497) can0 200#034502510340C000
(1663373329.497748) can0 207#0000000000000000
(1663373329.497986) can0 425#000000FFFF028000
(1663373329.498232) can0 12D#8100000000000004
(1663373329.498460) can0 427#5B232F78F6000500
(1663373329.498695) can0 44D#0040000038F051C7
(1663373329.498934) can0 097#01680028016D0025
(1663373329.499181) can0 120#016D000000000000
(1663373329.501690) can0 090#0000000000000000
(1663373329.501933) can0 4B0#0000000000000000
(1663373329.502169) can0 210#21E0F8C91021E000
(1663373329.502420) can0 085#0000000000000000
(1663373329.506062) can0 768#0562290608000000
(1663373329.507860) can0 340#001A000000000000
(1663373329.513530) can0 12D#8100000000000004
(1663373329.513760) can0 097#01680028016D0025
(1663373329.514008) can0 120#016D000000000000
(1663373329.521607) can0 090#0000000000000000
(1663373329.521849) can0 4B0#0000000000000000
(1663373329.522085) can0 210#21E0F8C91021E000
(1663373329.522335) can0 085#0000000000000000
(1663373329.527985) can0 353#3381000017B50000
(1663373329.529567) can0 230#00BE760668000000
(1663373329.529810) can0 12D#8100000000000004
(1663373329.530047) can0 097#01680028016D0025
(1663373329.530297) can0 120#016D000000000000
(1663373329.541645) can0 0FC#0300000000000000
(1663373329.541894) can0 4B0#0000000000000000
(1663373329.542145) can0 210#21E0F8C91021E000
(1663373329.542387) can0 085#0000000000000000
(1663373329.542629) can0 090#0000000000000000
(1663373329.545557) can0 200#034502510340C000
(1663373329.545777) can0 12D#8100000000000004
(1663373329.546015) can0 097#01680028016D0025
(1663373329.546264) can0 120#016D000000000000
(1663373329.546515) can0 207#0000000000000000
(1663373329.551256) can0 760#0322290600000000
(1663373329.561522) can0 623#3644128200000000
(1663373329.561766) can0 090#0000000000000000
(1663373329.562011) can0 12D#8100000000000004
(1663373329.562251) can0 097#01680028016D0025
(1663373329.562500) can0 120#016D000000000000
(1663373329.562748) can0 4B0#0000000000000000
(1663373329.562985) can0 210#21E0F8C91021E000
(1663373329.563233) can0 085#0000000000000000
(1663373329.563472) can0 640#44600078000C8600
(1663373329.563715) can0 650#1142000000000000
(1663373329.571163) can0 128#0080000000000000
(1663373329.571419) can0 350#0400000000000000
(1663373329.571658) can0 437#7979010000000081
(1663373329.571898) can0 453#0000000000073500
(1663373329.576055) can0 768#0562290608000000
(1663373329.577620) can0 12D#8100000000000004
(1663373329.577857) can0 097#01680028016D0025
(1663373329.578112) can0 120#016D000000000000
(1663373329.578376) can0 353#3381000017B50000
(1663373329.581676) can0 090#0000000000000000
(1663373329.581920) can0 4B0#0000000000000000
(1663373329.582183) can0 210#21E0F8C91021E000
(1663373329.582428) can0 085#0000000000000000
(1663373329.593623) can0 200#034502510340C000
(1663373329.593870) can0 207#0000000000000000
(1663373329.594131) can0 230#00BE760668000000
(1663373329.594396) can0 425#000000FFFF028000
(1663373329.594638) can0 12D#8100000000000004
(1663373329.594853) can0 427#5B232F78F6000500
(1663373329.595113) can0 44D#0040000038F051C7
(1663373329.595319) can0 097#01680028016D0025
(1663373329.595584) can0 120#016D000000000000
(1663373329.601704) can0 090#0000000000000000
(1663373329.601948) can0 4B0#0000000000000000
(1663373329.602213) can0 210#21E0F8C91021E000
(1663373329.602474) can0 085#0000000000000000
(1663373329.607137) can0 340#001A000000000000
(1663373329.609640) can0 12D#8100000000000004
(1663373329.609879) can0 097#01680028016D0025
(1663373329.610140) can0 120#016D000000000000
(1663373329.621288) can0 760#0322290600000000
(1663373329.621732) can0 090#0000000000000000
(1663373329.621956) can0 4B0#0000000000000000
(1663373329.622217) can0 210#21E0F8C91021E000
(1663373329.622478) can0 085#0000000000000000
(1663373329.625467) can0 12D#8100000000000004
(1663373329.625703) can0 097#01680028016D0025
(1663373329.625971) can0 120#016D000000000000
(1663373329.628015) can0 353#3381000017B50000
(1663373329.641445) can0 200#034502510340C000
(1663373329.641694) can0 090#0000000000000000
(1663373329.641954) can0 207#0000000000000000
(1663373329.642233) can0 4B0#0000000000000000
(1663373329.642452) can0 210#21E0F8C91021E000
(1663373329.642718) can0 085#0000000000000000
(1663373329.642982) can0 4C0#0048120000000000
(1663373329.643193) can0 12D#8100000000000004
(1663373329.643413) can0 097#01680028016D0025
(1663373329.643677) can0 120#016D000000000000
(1663373329.643939) can0 6F6#15FE37D400BAB65A
(1663373329.646053) can0 768#0562290608000000
(1663373329.657513) can0 230#00BE760668000000
(1663373329.657750) can0 12D#8100000000000004
(1663373329.658006) can0 097#01680028016D0025
(1663373329.658269) can0 120#016D000000000000
(1663373329.661650) can0 090#0000000000000000
(1663373329.661912) can0 4B0#0000000000000000
(1663373329.662149) can0 210#21E0F8C91021E000
(1663373329.662388) can0 085#0000000000000000
(1663373329.671173) can0 128#0080000000000000
(1663373329.671435) can0 350#0400000000000000
(1663373329.671656) can0 437#7979010000000081
(1663373329.671929) can0 453#0000000000073500
(1663373329.673578) can0 12D#8100000000000004
(1663373329.673732) can0 097#01680028016D0025
(1663373329.674058) can0 120#016D000000000000
(1663373329.678017) can0 353#3381000017B50000
(1663373329.681615) can0 090#0000000000000000
(1663373329.681859) can0 4B0#0000000000000000
(1663373329.682095) can0 210#21E0F8C91021E000
(1663373329.682344) can0 085#0000000000000000
(1663373329.689514) can0 200#034502510340C000
(1663373329.689765) can0 207#0000000000000000
(1663373329.690010) can0 425#000000FFFF028000
(1663373329.690256) can0 12D#8100000000000004
(1663373329.690476) can0 427#5B232F78F6000500
(1663373329.690720) can0 44D#0040000038F051C7
(1663373329.690961) can0 097#01680028016D0025
(1663373329.691208) can0 120#016D000000000000
(1663373329.691442) can0 760#0322290600000000
(1663373329.701164) can0 307#0000000000000000
(1663373329.701646) can0 090#0000000000000000
(1663373329.701894) can0 4B0#0000000000000000
(1663373329.702133) can0 210#21E0F8C91021E000
(1663373329.702382) can0 085#0000000000000000
(1663373329.705545) can0 12D#8100000000000004
(1663373329.705781) can0 097#01680028016D0025
(1663373329.706029) can0 120#016D000000000000
(1663373329.707721) can0 340#001A000000000000
(1663373329.708993) can0 454#0000000000000000
(1663373329.716041) can0 768#0562290608000000
(1663373329.721497) can0 230#00BE760668000000
(1663373329.721742) can0 090#0000000000000000
(1663373329.721988) can0 12D#8100000000000004
(1663373329.722226) can0 097#01680028016D0025
(1663373329.722474) can0 120#016D000000000000
(1663373329.722726) can0 4B0#0000000000000000
(1663373329.722961) can0 210#21E0F8C91021E000
(1663373329.723210) can0 085#0000000000000000
(1663373329.728010) can0 353#3381000017B50000
(1663373329.737561) can0 200#034502510340C000
(1663373329.737803) can0 12D#8100000000000004
(1663373329.738041) can0 097#01680028016D0025
(1663373329.738288) can0 120#016D000000000000
(1663373329.738540) can0 207#0000000000000000
(1663373329.741634) can0 0FC#0300000000000000
(1663373329.741884) can0 4B0#0000000000000000
(1663373329.742118) can0 210#21E0F8C91021E000
(1663373329.742371) can0 085#0000000000000000
(1663373329.742618) can0 090#0000000000000000
(1663373329.753579) can0 12D#8100000000000004
(1663373329.753814) can0 097#01680028016D0025
(1663373329.754063) can0 120#016D000000000000
(1663373329.758765) can0 760#0322290600000000
(1663373329.761605) can0 090#0000000000000000
(1663373329.761850) can0 4B0#0000000000000000
(1663373329.762086) can0 210#21E0F8C91021E000
(1663373329.762336) can0 085#0000000000000000
(1663373329.769600) can0 12D#8100000000000004
(1663373329.769838) can0 097#01680028016E0025
(1663373329.770086) can0 120#016E000000000000
(1663373329.771152) can0 128#0080000000000000
(1663373329.771398) can0 350#0400000000000000
(1663373329.771664) can0 437#7979010000000081
(1663373329.771933) can0 453#0000000000073500
(1663373329.778015) can0 353#3381000017B50000
(1663373329.781628) can0 090#0000000000000000
(1663373329.781875) can0 4B0#0000000000000000
(1663373329.782135) can0 210#21E0F8C91021E000
(1663373329.782353) can0 085#0000000000000000
(1663373329.783052) can0 768#0562290608000000
(1663373329.785648) can0 200#034502510340C000
(1663373329.785897) can0 207#0000000000000000
(1663373329.786138) can0 230#00BE760668000000
(1663373329.786404) can0 425#000000FFFF028000
(1663373329.786617) can0 12D#8100000000000004
(1663373329.786889) can0 427#5B232F78F6000500
(1663373329.787101) can0 44D#0040000038F051C7
(1663373329.787368) can0 097#01680028016E0025
(1663373329.787584) can0 120#016E000000000000
(1663373329.801602) can0 12D#8100000000000004
(1663373329.801856) can0 090#0000000000000000
(1663373329.802074) can0 097#01680028016E0025
(1663373329.802327) can0 120#016E000000000000
(1663373329.802617) can0 4B0#0000000000000000
(1663373329.802859) can0 210#21E0F8C91021E000
(1663373329.803061) can0 085#0000000000000000
(1663373329.807625) can0 340#001A000000000000
(1663373329.817647) can0 12D#8100000000000004
(1663373329.817873) can0 097#01680028016E0025
(1663373329.818122) can0 120#016E000000000000
(1663373329.821660) can0 090#0000000000000000
(1663373329.821901) can0 4B0#0000000000000000
(1663373329.822135) can0 210#21E0F8C91021E000
(1663373329.822399) can0 085#0000000000000000
(1663373329.828040) can0 353#3381000017B50000
(1663373329.828271) can0 760#0322290600000000
(1663373329.833757) can0 200#034502510340C000
(1663373329.833992) can0 12D#8100000000000004
(1663373329.834228) can0 097#01680028016E0025
(1663373329.834498) can0 120#016E000000000000
(1663373329.834751) can0 207#0000000000000000
(1663373329.841667) can0 090#0000000000000000
(1663373329.841915) can0 4B0#0000000000000000
(1663373329.842176) can0 210#21E0F8C91021E000
(1663373329.842444) can0 085#0000000000000000
(1663373329.849666) can0 230#00BE760668000000
(1663373329.849908) can0 12D#8100000000000004
(1663373329.850140) can0 097#01680028016E0025
(1663373329.850403) can0 120#016E000000000000
(1663373329.853054) can0 768#0562290608000000
(1663373329.861649) can0 090#0000000000000000
(1663373329.861877) can0 4B0#0000000000000000
(1663373329.862107) can0 210#21E0F8C91021E000
(1663373329.862384) can0 085#0000000000000000
(1663373329.865740) can0 12D#8100000000000004
(1663373329.865932) can0 097#01680028016E0025
(1663373329.866191) can0 120#016E000000000000
(1663373329.871171) can0 128#0080000000000000
(1663373329.871412) can0 350#0400000000000000
(1663373329.871664) can0 403#8202902424000000
(1663373329.871887) can0 437#7979010000000081
(1663373329.872133) can0 453#0000000000073500
(1663373329.878047) can0 353#3381000017B50000
(1663373329.881616) can0 090#0000000000000000
(1663373329.881853) can0 200#034502510340C000
(1663373329.882099) can0 207#0000000000000000
(1663373329.882396) can0 425#000000FFFF028000
(1663373329.882599) can0 12D#8100000000000004
(1663373329.882818) can0 427#5B232F78F6000500
(1663373329.883110) can0 44D#0040000038F051C7
(1663373329.883300) can0 097#01680028016E0025
(1663373329.883546) can0 120#016E000000000000
(1663373329.883795) can0 4B0#0000000000000000
(1663373329.884063) can0 210#21E0F8C91021E000
(1663373329.884289) can0 085#0000000000000000
(1663373329.884509) can0 6F6#15FE37D400BAB65A
(1663373329.897742) can0 12D#8100000000000004
(1663373329.897985) can0 097#01680028016E0025
(1663373329.898258) can0 120#016E000000000000
(1663373329.901625) can0 090#0000000000000000
(1663373329.901869) can0 4B0#0000000000000000
(1663373329.902099) can0 210#21E0F8C91021E000
(1663373329.902356) can0 085#0000000000000000
(1663373329.906453) can0 340#001A000000000000
(1663373329.909372) can0 760#0322290600000000
(1663373329.913710) can0 230#00BE760668000000
(1663373329.913954) can0 12D#8100000000000004
(1663373329.914192) can0 097#01680028016E0025
(1663373329.914439) can0 120#016E000000000000
(1663373329.921645) can0 090#0000000000000000
(1663373329.921893) can0 4B0#0000000000000000
(1663373329.922129) can0 210#21E0F8C91021E000
(1663373329.922402) can0 085#0000000000000000
(1663373329.928037) can0 353#3381000017B50000
(1663373329.929743) can0 200#034502510340C000
(1663373329.929988) can0 12D#8100000000000004
(1663373329.930225) can0 097#01680028016E0025
(1663373329.930495) can0 120#016E000000000000
(1663373329.930725) can0 207#0000000000000000
(1663373329.934035) can0 768#0562290608000000
(1663373329.941650) can0 0FC#0300000000000000
(1663373329.941892) can0 4B0#0000000000000000
(1663373329.942128) can0 210#21E0F8C91021E000
(1663373329.942379) can0 085#0000000000000000
(1663373329.942627) can0 090#0000000000000000
(1663373329.945973) can0 12D#8100000000000004
(1663373329.946209) can0 097#01680028016E0025
(1663373329.946457) can0 120#016E000000000000
(1663373329.961619) can0 090#0000000000000000
(1663373329.961868) can0 4B0#0000000000000000
(1663373329.962113) can0 12D#8100000000000004
(1663373329.962369) can0 097#01680028016E0025
(1663373329.962670) can0 120#016E000000000000
(1663373329.962843) can0 210#21E0F8C91021E000
(1663373329.963084) can0 085#0000000000000000
(1663373329.971150) can0 128#0080000000000000
(1663373329.971418) can0 350#0400000000000000
(1663373329.971632) can0 437#7979010000000081
(1663373329.971880) can0 453#0000000000073500
(1663373329.978012) can0 200#034502510340C000
(1663373329.978263) can0 207#0000000000000000
(1663373329.978504) can0 230#00BE760668000000
(1663373329.978768) can0 353#3381000017B50000
(1663373329.978987) can0 425#000000FFFF028000
(1663373329.979234) can0 12D#8100000000000004
(1663373329.979461) can0 427#5B232F78F6000500
(1663373329.979699) can0 44D#0040000038F051C7
(1663373329.979935) can0 097#01680028016D0025
(1663373329.980183) can0 120#016D000000000000
(1663373329.981732) can0 090#0000000000000000
(1663373329.981957) can0 4B0#0000000000000000
(1663373329.982223) can0 210#21E0F8C91021E000
(1663373329.982445) can0 085#0000000000000000
(1663373329.982685) can0 760#0322290600000000
(1663373329.994025) can0 12D#8100000000000004
(1663373329.994256) can0 097#01680028016D0025
(1663373329.994504) can0 120#016D000000000000
(1663373330.001602) can0 090#0000000000000000
(1663373330.001848) can0 4B0#0000000000000000
(1663373330.002083) can0 210#21E0F8C91021E000
(1663373330.002333) can0 085#0000000000000000
(1663373330.007032) can0 768#0562290608000000
(1663373330.007388) can0 340#001A000000000000
(1663373330.010023) can0 12D#8100000000000004
(1663373330.010258) can0 097#01680028016D0025
(1663373330.010507) can0 120#016D000000000000
(1663373330.021613) can0 090#0000000000000000
(1663373330.021857) can0 4B0#0000000000000000
(1663373330.022094) can0 210#21E0F8C91021E000
(1663373330.022343) can0 085#0000000000000000
(1663373330.026024) can0 200#034502510340C000
(1663373330.026267) can0 12D#8100000000000004
(1663373330.026505) can0 097#01680028016D0025
(1663373330.026755) can0 120#016D000000000000
(1663373330.027005) can0 207#0000000000000000
(1663373330.028051) can0 353#3381000017B50000
(1663373330.041646) can0 090#0000000000000000
(1663373330.041894) can0 4B0#0000000000000000
(1663373330.042139) can0 12D#8100000000000004
(1663373330.042377) can0 097#01680028016D0025
(1663373330.042625) can0 120#016D000000000000
(1663373330.042862) can0 210#21E0F8C91021E000
(1663373330.043111) can0 085#0000000000000000
(1663373330.043353) can0 230#00BE760668000000
(1663373330.051294) can0 760#0322290600000000
(1663373330.058073) can0 12D#8100000000000004
(1663373330.058311) can0 097#01680028016D0025
(1663373330.058557) can0 120#016D000000000000
(1663373330.061648) can0 090#0000000000000000
(1663373330.061892) can0 4B0#0000000000000000
(1663373330.062128) can0 210#21E0F8C91021E000
(1663373330.062378) can0 085#0000000000000000
(1663373330.071157) can0 128#0080000000000000
(1663373330.071401) can0 350#0400000000000000
(1663373330.071636) can0 437#7979010000000081
(1663373330.071879) can0 453#0000000000073500
(1663373330.074097) can0 200#034502510340C000
(1663373330.074347) can0 207#0000000000000000
(1663373330.074593) can0 425#000000FFFF028000
(1663373330.074863) can0 12D#8100000000000004
(1663373330.075068) can0 427#5B232F78F6000500
(1663373330.075316) can0 44D#0040000038F051C7
(1663373330.075542) can0 097#01680028016D0025
(1663373330.075790) can0 120#016D000000000000
(1663373330.076026) can0 768#0562290608000000
(1663373330.078080) can0 353#3381000017B50000
(1663373330.081700) can0 090#0000000000000000
(1663373330.081944) can0 4B0#0000000000000000
(1663373330.082180) can0 210#21E0F8C91021E000
(1663373330.082451) can0 085#0000000000000000
(1663373330.090121) can0 12D#8100000000000004
(1663373330.090357) can0 097#01680028016D0025
(1663373330.090605) can0 120#016D000000000000
(1663373330.101615) can0 090#0000000000000000
(1663373330.101860) can0 4B0#0000000000000000
(1663373330.102097) can0 210#21E0F8C91021E000
(1663373330.102365) can0 085#0000000000000000
(1663373330.105918) can0 230#00BE760668000000
(1663373330.106165) can0 12D#8100000000000004
(1663373330.106422) can0 097#01680028016D0025
(1663373330.106662) can0 120#016D000000000000
(1663373330.106922) can0 340#001A000000000000
(1663373330.120028) can0 760#0322290600000000
(1663373330.121627) can0 090#0000000000000000
(1663373330.121869) can0 4B0#0000000000000000
(1663373330.122128) can0 12D#8100000000000004
(1663373330.122368) can0 097#01680028016D0025
(1663373330.122625) can0 120#016D000000000000
(1663373330.122836) can0 200#034502510340C000
(1663373330.123091) can0 207#0000000000000000
(1663373330.123326) can0 210#21E0F8C91021E000
(1663373330.123591) can0 085#0000000000000000
(1663373330.123820) can0 6F6#15FE37D400BAB65A
(1663373330.128064) can0 353#3381000017B50000
(1663373330.138006) can0 12D#8100000000000004
(1663373330.138245) can0 097#01680028016D0025
(1663373330.138503) can0 120#016D000000000000
(1663373330.141635) can0 0FC#0300000000000000
(1663373330.141877) can0 4B0#0000000000000000
(1663373330.142132) can0 210#21E0F8C91021E000
(1663373330.142368) can0 085#0000000000000000
(1663373330.142635) can0 090#0000000000000000
(1663373330.145038) can0 768#0562290608000000
(1663373330.153986) can0 12D#8100000000000004
(1663373330.154223) can0 097#01680028016D0025
(1663373330.154485) can0 120#016D000000000000
(1663373330.161598) can0 090#0000000000000000
(1663373330.161840) can0 4B0#0000000000000000
(1663373330.162093) can0 210#21E0F8C91021E000
(1663373330.162327) can0 085#0000000000000000
(1663373330.169978) can0 200#034502510340C000
(1663373330.170234) can0 207#0000000000000000
(1663373330.170485) can0 230#00BE760668000000
(1663373330.170722) can0 425#000000FFFF028000
(1663373330.170979) can0 12D#8100000000000004
(1663373330.171254) can0 128#0080000000000000
(1663373330.171453) can0 350#0400000000000000
(1663373330.171710) can0 427#5B232F78F6000500
(1663373330.171925) can0 437#7979010000000081
(1663373330.172173) can0 44D#0040000038F051C7
(1663373330.172402) can0 097#01680028016D0025
(1663373330.172653) can0 120#016D000000000000
(1663373330.172904) can0 453#0000000000073500
(1663373330.178074) can0 353#3381000017B50000
(1663373330.178755) can0 760#0322290600000000
(1663373330.181688) can0 090#0000000000000000
(1663373330.181928) can0 4B0#0000000000000000
(1663373330.182181) can0 210#21E0F8C91021E000
(1663373330.182415) can0 085#0000000000000000
(1663373330.186058) can0 12D#8100000000000004
(1663373330.186296) can0 097#01680028016D0025
(1663373330.186552) can0 120#016D000000000000
(1663373330.201154) can0 307#0000000000000000
(1663373330.201667) can0 090#0000000000000000
(1663373330.201922) can0 4B0#0000000000000000
(1663373330.202173) can0 12D#8100000000000004
(1663373330.202448) can0 097#01680028016D0025
(1663373330.202665) can0 120#016D000000000000
(1663373330.202875) can0 210#21E0F8C91021E000
(1663373330.203148) can0 768#0562290608000000
(1663373330.203374) can0 085#0000000000000000
(1663373330.206069) can0 340#001A000000000000
(1663373330.218043) can0 200#034502510340C000
(1663373330.218285) can0 12D#8100000000000004
(1663373330.218522) can0 097#01680028016D0025
(1663373330.218770) can0 120#016D000000000000
(1663373330.219021) can0 207#0000000000000000
(1663373330.221644) can0 090#0000000000000000
(1663373330.221893) can0 4B0#0000000000000000
(1663373330.222126) can0 210#21E0F8C91021E000
(1663373330.222397) can0 085#0000000000000000
(1663373330.228078) can0 353#3381000017B50000
(1663373330.234150) can0 230#00BE760668000000
(1663373330.234393) can0 12D#8100000000000004
(1663373330.234631) can0 097#01680028016D0025
(1663373330.234901) can0 120#016D000000000000
(1663373330.241631) can0 090#0000000000000000
(1663373330.241879) can0 4B0#0000000000000000
(1663373330.242115) can0 210#21E0F8C91021E000
(1663373330.242385) can0 085#0000000000000000
(1663373330.246255) can0 760#0322290600000000
(1663373330.250079) can0 12D#8100000000000004
(1663373330.250316) can0 097#01680028016D0025
(1663373330.250565) can0 120#016D000000000000
(1663373330.261589) can0 090#0000000000000000
(1663373330.261837) can0 4B0#0000000000000000
(1663373330.262074) can0 210#21E0F8C91021E000
(1663373330.262344) can0 085#0000000000000000
(1663373330.266065) can0 200#034502510340C000
(1663373330.266316) can0 207#0000000000000000
(1663373330.266562) can0 425#000000FFFF028000
(1663373330.266827) can0 12D#8100000000000004
(1663373330.267035) can0 427#5B232F78F6000500
(1663373330.267272) can0 44D#0040000038F051C7
(1663373330.267505) can0 097#01680028016D0025
(1663373330.267757) can0 120#016D000000000000
(1663373330.271029) can0 768#0562290608000000
(1663373330.271298) can0 128#0080000000000000
(1663373330.271543) can0 350#0400000000000000
(1663373330.271765) can0 437#7979010000000081
(1663373330.272010) can0 453#0000000000073500
(1663373330.278080) can0 353#3381000017B50000
(1663373330.281596) can0 090#0000000000000000
(1663373330.281839) can0 4B0#0000000000000000
(1663373330.282075) can0 210#21E0F8C91021E000
(1663373330.282345) can0 085#0000000000000000
(1663373330.282571) can0 12D#8100000000000004
(1663373330.282809) can0 097#01680028016E0025
(1663373330.283057) can0 120#016E000000000000
(1663373330.298101) can0 230#00BE760668000000
(1663373330.298342) can0 12D#8100000000000004
(1663373330.298579) can0 097#01680028016E0025
(1663373330.298848) can0 120#016E000000000000
(1663373330.301624) can0 090#0000000000000000
(1663373330.301870) can0 4B0#0000000000000000
(1663373330.302106) can0 210#21E0F8C91021E000
(1663373330.302375) can0 085#0000000000000000
(1663373330.306829) can0 340#001A000000000000
(1663373330.312614) can0 760#062F290607008000
(1663373330.314161) can0 200#034502510340C000
(1663373330.314363) can0 12D#8100000000000004
(1663373330.314631) can0 097#01680028016E0025
(1663373330.314855) can0 120#016E000000000000
(1663373330.315102) can0 207#0000000000000000
(1663373330.321649) can0 090#0000000000000000
(1663373330.321895) can0 4B0#0000000000000000
(1663373330.322130) can0 210#21E0F8C91021E000
(1663373330.322398) can0 085#0000000000000000
(1663373330.328091) can0 353#3381000017B50000
(1663373330.330158) can0 12D#8100000000000004
(1663373330.330396) can0 097#01680028016E0025
(1663373330.330644) can0 120#016E000000000000
(1663373330.337032) can0 768#066F290607008000
(1663373330.341587) can0 0FC#0300000000000000
(1663373330.341835) can0 4B0#0000000000000000
(1663373330.342069) can0 210#21E0F8C91021E000
(1663373330.342337) can0 085#0000000000000000
(1663373330.342569) can0 090#0000000000000000
(1663373330.346170) can0 12D#8100000000000004
(1663373330.346407) can0 097#01680028016E0025
(1663373330.346655) can0 120#016E000000000000
(1663373330.361600) can0 090#0000000000000000
(1663373330.361835) can0 4B0#0000000000000000
(1663373330.362069) can0 210#21E0F8C91021E000
(1663373330.362358) can0 085#0000000000000000
(1663373330.362563) can0 200#034502510340C000
(1663373330.362805) can0 207#0000000000000000
(1663373330.363095) can0 230#00BE760668000000
(1663373330.363289) can0 425#000000FFFF028000
(1663373330.363546) can0 12D#8100000000000004
(1663373330.363791) can0 427#5B232F78F6000500
(1663373330.364034) can0 44D#0040000038F051C7
(1663373330.364270) can0 097#01680028016E0025
(1663373330.364537) can0 120#016E000000000000
(1663373330.364708) can0 6F6#1560C427E3A7B7B8
(1663373330.371157) can0 128#0080000000000000
(1663373330.371394) can0 350#0400000000000000
(1663373330.371638) can0 403#8202902424000000
(1663373330.371901) can0 437#7979010000000081
(1663373330.372149) can0 453#0000000000073500
(1663373330.378097) can0 353#3381000017B50000
(1663373330.378344) can0 12D#8100000000000004
(1663373330.378622) can0 097#01680028016E0025
(1663373330.378869) can0 120#016E000000000000
(1663373330.381610) can0 090#0000000000000000
(1663373330.381854) can0 4B0#0000000000000000
(1663373330.382115) can0 210#21E0F8C91021E000
(1663373330.382361) can0 085#0000000000000000
(1663373330.394236) can0 12D#8100000000000004
(1663373330.394471) can0 097#01680028016E0025
(1663373330.394738) can0 120#016E000000000000
(1663373330.401591) can0 090#0000000000000000
(1663373330.401835) can0 4B0#0000000000000000
(1663373330.402100) can0 210#21E0F8C91021E000
(1663373330.402344) can0 085#0000000000000000
(1663373330.406050) can0 340#001A000000000000
(1663373330.410214) can0 200#034502510340C000
(1663373330.410459) can0 12D#8100000000000004
(1663373330.410720) can0 097#01680028016E0025
(1663373330.410966) can0 120#016E000000000000
(1663373330.411237) can0 207#0000000000000000
(1663373330.413789) can0 760#0322290600000000
(1663373330.421612) can0 090#0000000000000000
(1663373330.421860) can0 4B0#0000000000000000
(1663373330.422114) can0 210#21E0F8C91021E000
(1663373330.422341) can0 085#0000000000000000
(1663373330.426442) can0 230#00BE760668000000
(1663373330.426687) can0 12D#8100000000000004
(1663373330.426940) can0 097#01680028016E0025
(1663373330.427176) can0 120#016E000000000000
(1663373330.428101) can0 353#3381000017B50000
(1663373330.438031) can0 768#0562290608000000
(1663373330.441613) can0 090#0000000000000000
(1663373330.441859) can0 4B0#0000000000000000
(1663373330.442159) can0 210#21E0F8C91021E000
(1663373330.442336) can0 085#0000000000000000
(1663373330.442600) can0 12D#8100000000000004
(1663373330.442869) can0 097#01680028016E0025
(1663373330.443100) can0 120#016E000000000000
(1663373330.458470) can0 200#034502510340C000
(1663373330.458712) can0 207#0000000000000000
(1663373330.458969) can0 425#000000FFFF028000
(1663373330.459206) can0 12D#8100000000000004
(1663373330.459462) can0 427#5B232F78F6000500
(1663373330.459663) can0 44D#0040000038F051C7
(1663373330.459920) can0 097#01680028016D0025
(1663373330.460166) can0 120#016D000000000000
(1663373330.461721) can0 090#0000000000000000
(1663373330.461939) can0 4B0#0000000000000000
(1663373330.462189) can0 210#21E0F8C91021E000
(1663373330.462454) can0 085#0000000000000000
(1663373330.471143) can0 128#0080000000000000
(1663373330.471390) can0 350#0400000000000000
(1663373330.471622) can0 437#7979010000000081
(1663373330.471865) can0 453#0000000000073500
