(1663575342.579592) can0 728#05500000
(1663575342.589687) can0 728#05500000
(1663575342.599792) can0 728#05500000
(1663575342.609887) can0 728#05500000
(1663575342.620011) can0 728#05500000
(1663575342.630088) can0 728#05500000
(1663575342.640190) can0 728#05500000
(1663575342.650388) can0 728#05500000
(1663575342.660387) can0 728#05500000
(1663575342.670490) can0 728#05500000
(1663575342.680683) can0 728#05500000
(1663575342.690682) can0 728#05500000
(1663575342.700881) can0 728#05500000
(1663575342.710985) can0 728#05500000
(1663575342.721083) can0 728#05500000
(1663575342.731186) can0 728#05500000
(1663575342.741281) can0 728#05500000
(1663575342.751384) can0 728#05500000
(1663575342.761480) can0 728#05500000
(1663575342.771584) can0 728#05500000
(1663575342.781679) can0 728#05500000
(1663575342.791783) can0 728#05500000
(1663575342.801879) can0 728#05500000
(1663575342.811983) can0 728#05500000
(1663575342.822078) can0 728#05500000
(1663575342.832278) can0 728#05500000
(1663575342.842383) can0 728#05500000
(1663575342.852477) can0 728#05500000
(1663575342.862582) can0 728#05500000
(1663575342.872677) can0 728#05500000
(1663575342.882781) can0 728#05500000
(1663575342.892877) can0 728#05500000
(1663575342.902982) can0 728#05500000
(1663575342.913077) can0 728#05500000
(1663575342.923180) can0 728#05500000
(1663575342.933275) can0 728#05500000
(1663575342.943380) can0 728#05500000
(1663575342.953476) can0 728#05500000
(1663575342.963581) can0 728#05500000
(1663575342.973676) can0 728#05500000
(1663575342.983779) can0 728#05500000
(1663575342.993875) can0 728#05500000
(1663575343.004076) can0 728#05500000
(1663575343.014179) can0 728#05500000
(1663575343.024275) can0 728#05500000
(1663575343.034378) can0 728#05500000
(1663575343.044474) can0 728#05500000
(1663575343.054581) can0 728#05500000
(1663575343.064674) can0 728#05500000
(1663575343.074777) can0 728#05500000
(1663575343.084873) can0 728#05500000
(1663575343.094977) can0 728#05500000
(1663575343.105072) can0 728#05500000
(1663575343.115176) can0 728#05500000
(1663575343.125284) can0 728#05500000
(1663575343.135475) can0 728#05500000
(1663575343.145578) can0 728#05500000
(1663575343.155674) can0 728#05500000
(1663575343.165777) can0 728#05500000
(1663575343.175872) can0 728#05500000
(1663575343.185976) can0 728#05500000
(1663575343.196072) can0 728#05500000
(1663575343.206198) can0 728#05500000
(1663575343.216273) can0 728#05500000
(1663575343.226375) can0 728#05500000
(1663575343.236471) can0 728#05500000
(1663575343.246574) can0 728#05500000
(1663575343.256670) can0 728#05500000
(1663575343.266774) can0 728#05500000
(1663575343.276869) can0 728#05500000
(1663575343.286974) can0 728#05500000
(1663575343.297182) can0 728#05500000
(1663575343.307182) can0 728#05500000
(1663575343.317284) can0 728#05500000
(1663575343.327472) can0 728#05500000
(1663575343.337472) can0 728#05500000
(1663575343.347671) can0 728#05500000
(1663575343.357775) can0 728#05500000
(1663575343.367871) can0 728#05500000
(1663575343.377976) can0 728#05500000
(1663575343.388071) can0 728#05500000
(1663575343.398175) can0 728#05500000
(1663575343.408270) can0 728#05500000
(1663575343.418374) can0 728#05500000
(1663575343.428469) can0 728#05500000
(1663575343.438566) can0 728#05500000
(1663575343.448665) can0 728#05500000
(1663575343.458767) can0 728#05500000
(1663575343.468866) can0 728#05500000
(1663575343.478969) can0 728#05500000
(1663575343.489062) can0 728#05500000
(1663575343.499166) can0 728#05500000
(1663575343.509262) can0 728#05500000
(1663575343.519362) can0 728#05500000
(1663575343.529462) can0 728#05500000
(1663575343.539564) can0 728#05500000
(1663575343.549660) can0 728#05500000
(1663575343.559764) can0 728#05500000
(1663575343.569860) can0 728#05500000
(1663575343.580059) can0 728#05500000
(1663575343.590164) can0 728#05500000
(1663575343.600261) can0 728#05500000
(1663575343.610363) can0 728#05500000
(1663575343.620472) can0 728#05500000
(1663575343.630567) can0 728#05500000
(1663575343.640661) can0 728#05500000
(1663575343.650763) can0 728#05500000
(1663575343.660856) can0 728#05500000
(1663575343.670962) can0 728#05500000
(1663575343.681161) can0 728#05500000
(1663575343.691162) can0 728#05500000
(1663575343.701362) can0 728#05500000
(1663575343.711459) can0 728#05500000
(1663575343.721562) can0 728#05500000
(1663575343.731657) can0 728#05500000
(1663575343.741761) can0 728#05500000
(1663575343.751857) can0 728#05500000
(1663575343.761961) can0 728#05500000
(1663575343.772055) can0 728#05500000
(1663575343.782161) can0 728#05500000
(1663575343.792255) can0 728#05500000
(1663575343.802355) can0 728#05500000
(1663575343.812559) can0 728#05500000
(1663575343.822655) can0 728#05500000
(1663575343.832758) can0 728#05500000
(1663575343.842854) can0 728#05500000
(1663575343.852958) can0 728#05500000
(1663575343.863054) can0 728#05500000
(1663575343.873156) can0 728#05500000
(1663575343.883253) can0 728#05500000
(1663575343.893356) can0 728#05500000
(1663575343.903451) can0 728#05500000
(1663575343.913555) can0 728#05500000
(1663575343.923758) can0 728#05500000
(1663575343.933759) can0 728#05500000
(1663575343.943958) can0 728#05500000
(1663575343.954054) can0 728#05500000
(1663575343.964157) can0 728#05500000
(1663575343.974252) can0 728#05500000
(1663575343.984361) can0 728#05500000
(1663575343.994452) can0 728#05500000
(1663575344.004556) can0 728#05500000
(1663575344.014653) can0 728#05500000
(1663575344.024755) can0 728#05500000
(1663575344.034851) can0 728#05500000
(1663575344.044955) can0 728#05500000
(1663575344.055050) can0 728#05500000
(1663575344.065155) can0 728#05500000
(1663575344.075249) can0 728#05500000
(1663575344.085354) can0 728#05500000
(1663575344.095450) can0 728#05500000
(1663575344.105556) can0 728#05500000
(1663575344.115649) can0 728#05500000
(1663575344.125852) can0 728#05500000
(1663575344.135956) can0 728#05500000
(1663575344.146049) can0 728#05500000
(1663575344.156152) can0 728#05500000
(1663575344.166249) can0 728#05500000
(1663575344.176351) can0 728#05500000
(1663575344.186448) can0 728#05500000
(1663575344.196552) can0 728#05500000
(1663575344.206647) can0 728#05500000
(1663575344.216750) can0 728#05500000
(1663575344.226846) can0 728#05500000
(1663575344.236950) can0 728#05500000
(1663575344.247045) can0 728#05500000
(1663575344.257172) can0 728#05500000
(1663575344.267269) can0 728#05500000
(1663575344.277354) can0 728#05500000
(1663575344.287449) can0 728#05500000
(1663575344.297579) can0 728#05500000
(1663575344.307650) can0 728#05500000
(1663575344.317751) can0 728#05500000
(1663575344.327843) can0 728#05500000
(1663575344.337951) can0 728#05500000
(1663575344.348048) can0 728#05500000
(1663575344.358246) can0 728#05500000
(1663575344.368350) can0 728#05500000
(1663575344.378445) can0 728#05500000
(1663575344.388543) can0 728#05500000
(1663575344.398641) can0 728#05500000
(1663575344.408744) can0 728#05500000
(1663575344.418845) can0 728#05500000
(1663575344.428944) can0 728#05500000
(1663575344.439039) can0 728#05500000
(1663575344.449143) can0 728#05500000
(1663575344.459238) can0 728#05500000
(1663575344.469342) can0 728#05500000
(1663575344.479438) can0 728#05500000
(1663575344.489542) can0 728#05500000
(1663575344.499639) can0 728#05500000
(1663575344.509742) can0 728#05500000
(1663575344.519943) can0 728#05500000
(1663575344.530045) can0 728#05500000
(1663575344.540141) can0 728#05500000
(1663575344.550245) can0 728#05500000
(1663575344.560343) can0 728#05500000
(1663575344.570433) can0 728#05500000
(1663575344.580540) can0 728#05500000
(1663575344.590632) can0 728#05500000
(1663575344.600739) can0 728#05500000
(1663575344.610837) can0 728#05500000
(1663575344.620939) can0 728#05500000
(1663575344.631143) can0 728#05500000
(1663575344.641243) can0 728#05500000
(1663575344.651338) can0 728#05500000
(1663575344.661442) can0 728#05500000
(1663575344.671538) can0 728#05500000
(1663575344.681635) can0 728#05500000
(1663575344.691737) can0 728#05500000
(1663575344.701837) can0 728#05500000
(1663575344.711937) can0 728#05500000
(1663575344.722033) can0 728#05500000
(1663575344.732136) can0 728#05500000
(1663575344.742232) can0 728#05500000
(1663575344.752336) can0 728#05500000
(1663575344.762438) can0 728#05500000
(1663575344.772537) can0 728#05500000
(1663575344.782735) can0 728#05500000
(1663575344.792736) can0 728#05500000
(1663575344.802934) can0 728#05500000
(1663575344.813030) can0 728#05500000
(1663575344.823134) can0 728#05500000
(1663575344.833231) can0 728#05500000
(1663575344.843343) can0 728#05500000
(1663575344.853430) can0 728#05500000
(1663575344.863532) can0 728#05500000
(1663575344.873627) can0 728#05500000
(1663575344.883733) can0 728#05500000
(1663575344.906285) can0 728#05500000
(1663575344.907991) can0 728#05500000
(1663575344.914097) can0 728#05500000
(1663575344.924190) can0 728#05500000
(1663575344.934292) can0 728#05500000
(1663575344.944388) can0 728#05500000
(1663575344.954491) can0 728#05500000
(1663575344.964588) can0 728#05500000
(1663575344.974690) can0 728#05500000
(1663575344.984886) can0 728#05500000
(1663575344.994988) can0 728#05500000
(1663575345.005082) can0 728#05500000
(1663575345.015185) can0 728#05500000
(1663575345.025281) can0 728#05500000
(1663575345.035385) can0 728#05500000
(1663575345.045489) can0 728#05500000
(1663575345.055587) can0 728#05500000
(1663575345.065688) can0 728#05500000
(1663575345.075784) can0 728#05500000
(1663575345.085882) can0 728#05500000
(1663575345.095983) can0 728#05500000
(1663575345.106079) can0 728#05500000
(1663575345.116183) can0 728#05500000
(1663575345.126396) can0 728#05500000
(1663575345.136386) can0 728#05500000
(1663575345.146487) can0 728#05500000
(1663575345.156677) can0 728#05500000
(1663575345.166782) can0 728#05500000
(1663575345.176883) can0 728#05500000
(1663575345.186980) can0 728#05500000
(1663575345.197075) can0 728#05500000
(1663575345.207202) can0 728#05500000
(1663575345.217300) can0 728#05500000
(1663575345.227381) can0 728#05500000
(1663575345.237479) can0 728#05500000
(1663575345.247581) can0 728#05500000
(1663575345.257688) can0 728#05500000
(1663575345.267781) can0 728#05500000
(1663575345.277880) can0 728#05500000
(1663575345.287980) can0 728#05500000
(1663575345.298079) can0 728#05500000
(1663575345.308183) can0 728#05500000
(1663575345.318286) can0 728#05500000
(1663575345.328379) can0 728#05500000
(1663575345.338480) can0 728#05500000
(1663575345.348578) can0 728#05500000
(1663575345.358681) can0 728#05500000
(1663575345.368775) can0 728#05500000
(1663575345.378984) can0 728#05500000
(1663575345.389080) can0 728#05500000
(1663575345.399175) can0 728#05500000
(1663575345.409281) can0 728#05500000
(1663575345.419376) can0 728#05500000
(1663575345.429471) can0 728#05500000
(1663575345.439575) can0 728#05500000
(1663575345.449672) can0 728#05500000
(1663575345.459774) can0 728#05500000
(1663575345.469878) can0 728#05500000
(1663575345.480073) can0 728#05500000
(1663575345.490174) can0 728#05500000
(1663575345.500278) can0 728#05500000
(1663575345.510374) can0 728#05500000
(1663575345.520477) can0 728#05500000
(1663575345.530574) can0 728#05500000
(1663575345.540672) can0 728#05500000
(1663575345.550774) can0 728#05500000
(1663575345.560869) can0 728#05500000
(1663575345.570972) can0 728#05500000
(1663575345.581077) can0 728#05500000
(1663575345.591172) can0 728#05500000
(1663575345.601276) can0 728#05500000
(1663575345.611370) can0 728#05500000
(1663575345.621573) can0 728#05500000
(1663575345.631671) can0 728#05500000
(1663575345.641767) can0 728#05500000
(1663575345.651875) can0 728#05500000
(1663575345.661966) can0 728#05500000
(1663575345.672065) can0 728#05500000
(1663575345.682165) can0 728#05500000
(1663575345.692266) can0 728#05500000
(1663575345.702369) can0 728#05500000
(1663575345.712472) can0 728#05500000
(1663575345.722570) can0 728#05500000
(1663575345.732767) can0 728#05500000
(1663575345.743064) can0 728#05500000
(1663575345.753263) can0 728#05500000
(1663575345.763569) can0 728#05500000
(1663575345.773765) can0 728#05500000
(1663575345.783967) can0 728#05500000
(1663575345.794262) can0 728#05500000
(1663575345.804463) can0 728#05500000
(1663575345.814767) can0 728#05500000
(1663575345.824966) can0 728#05500000
(1663575345.835263) can0 728#05500000
(1663575345.845462) can0 728#05500000
(1663575345.855766) can0 728#05500000
(1663575345.865964) can0 728#05500000
(1663575345.876165) can0 728#05500000
(1663575345.886468) can0 728#05500000
(1663575345.896660) can0 728#05500000
(1663575345.906967) can0 728#05500000
(1663575345.917200) can0 728#05500000
(1663575345.927364) can0 728#05500000
(1663575345.937671) can0 728#05500000
(1663575345.947863) can0 728#05500000
(1663575345.958166) can0 728#05500000
(1663575345.968366) can0 728#05500000
(1663575345.978660) can0 728#05500000
(1663575345.988854) can0 728#05500000
(1663575345.999060) can0 728#05500000
(1663575346.009361) can0 728#05500000
(1663575346.019561) can0 728#05500000
(1663575346.029856) can0 728#05500000
(1663575346.040056) can0 728#05500000
(1663575346.050361) can0 728#05500000
(1663575346.060560) can0 728#05500000
(1663575346.070759) can0 728#05500000
(1663575346.081055) can0 728#05500000
(1663575346.091359) can0 728#05500000
(1663575346.101558) can0 728#05500000
(1663575346.111758) can0 728#05500000
(1663575346.122056) can0 728#05500000
(1663575346.132366) can0 728#05500000
(1663575346.142556) can0 728#05500000
(1663575346.152860) can0 728#05500000
(1663575346.163051) can0 728#05500000
(1663575346.173255) can0 728#05500000
(1663575346.183558) can0 728#05500000
(1663575346.193757) can0 728#05500000
(1663575346.204061) can0 728#05500000
(1663575346.214251) can0 728#05500000
(1663575346.224451) can0 728#05500000
(1663575346.234754) can0 728#05500000
(1663575346.244956) can0 728#05500000
(1663575346.255251) can0 728#05500000
(1663575346.265450) can0 728#05500000
(1663575346.275658) can0 728#05500000
(1663575346.285953) can0 728#05500000
(1663575346.296153) can0 728#05500000
(1663575346.306458) can0 728#05500000
(1663575346.316651) can0 728#05500000
(1663575346.326952) can0 728#05500000
(1663575346.337178) can0 728#05500000
(1663575346.347454) can0 728#05500000
(1663575346.357653) can0 728#05500000
(1663575346.367956) can0 728#05500000
(1663575346.378155) can0 728#05500000
(1663575346.388357) can0 728#05500000
(1663575346.398655) can0 728#05500000
(1663575346.408845) can0 728#05500000
(1663575346.419150) can0 728#05500000
(1663575346.429347) can0 728#05500000
(1663575346.439646) can0 728#05500000
(1663575346.449846) can0 728#05500000
(1663575346.460154) can0 728#05500000
(1663575346.470350) can0 728#05500000
(1663575346.480647) can0 728#05500000
(1663575346.490848) can0 728#05500000
(1663575346.501046) can0 728#05500000
(1663575346.511351) can0 728#05500000
(1663575346.521550) can0 728#05500000
(1663575346.531751) can0 728#05500000
(1663575346.542048) can0 728#05500000
(1663575346.552245) can0 728#05500000
(1663575346.562445) can0 728#05500000
(1663575346.572749) can0 728#05500000
(1663575346.582949) can0 728#05500000
(1663575346.593149) can0 728#05500000
(1663575346.603445) can0 728#05500000
(1663575346.613644) can0 728#05500000
(1663575346.623844) can0 728#05500000
(1663575346.634159) can0 728#05500000
(1663575346.644345) can0 728#05500000
(1663575346.654644) can0 728#05500000
(1663575346.664839) can0 728#05500000
(1663575346.675042) can0 728#05500000
(1663575346.685341) can0 728#05500000
(1663575346.695544) can0 728#05500000
(1663575346.705744) can0 728#05500000
(1663575346.716048) can0 728#05500000
(1663575346.726241) can0 728#05500000
(1663575346.736440) can0 728#05500000
(1663575346.746743) can0 728#05500000
(1663575346.756942) can0 728#05500000
(1663575346.767169) can0 728#05500000
(1663575346.777346) can0 728#05500000
(1663575346.787643) can0 728#05500000
(1663575346.797841) can0 728#05500000
(1663575346.808040) can0 728#05500000
(1663575346.818345) can0 728#05500000
(1663575346.828538) can0 728#05500000
(1663575346.838741) can0 728#05500000
(1663575346.849044) can0 728#05500000
(1663575346.859236) can0 728#05500000
(1663575346.869436) can0 728#05500000
(1663575346.879633) can0 728#05500000
(1663575346.889942) can0 728#05500000
(1663575346.900236) can0 728#05500000
(1663575346.910436) can0 728#05500000
(1663575346.920635) can0 728#05500000
(1663575346.930941) can0 728#05500000
(1663575346.941141) can0 728#05500000
(1663575346.951435) can0 728#05500000
(1663575346.961636) can0 728#05500000
(1663575346.971940) can0 728#05500000
(1663575346.982139) can0 728#05500000
(1663575346.992435) can0 728#05500000
(1663575347.002635) can0 728#05500000
(1663575347.012834) can0 728#05500000
(1663575347.023143) can0 728#05500000
(1663575347.033337) can0 728#05500000
(1663575347.043537) can0 728#05500000
(1663575347.053833) can0 728#05500000
(1663575347.064034) can0 728#05500000
(1663575347.074232) can0 728#05500000
(1663575347.084433) can0 728#05500000
(1663575347.094737) can0 728#05500000
(1663575347.104932) can0 728#05500000
(1663575347.115136) can0 728#05500000
(1663575347.125432) can0 728#05500000
(1663575347.135747) can0 728#05500000
(1663575347.145936) can0 728#05500000
(1663575347.156227) can0 728#05500000
(1663575347.166431) can0 728#05500000
(1663575347.176631) can0 728#05500000
(1663575347.186931) can0 728#05500000
(1663575347.197134) can0 728#05500000
(1663575347.207339) can0 728#05500000
(1663575347.217633) can0 728#05500000
(1663575347.227833) can0 728#05500000
(1663575347.238030) can0 728#05500000
(1663575347.248243) can0 728#05500000
(1663575347.258528) can0 728#05500000
(1663575347.268731) can0 728#05500000
(1663575347.278930) can0 728#05500000
(1663575347.289225) can0 728#05500000
(1663575347.299426) can0 728#05500000
(1663575347.309728) can0 728#05500000
(1663575347.319929) can0 728#05500000
(1663575347.330129) can0 728#05500000
(1663575347.340423) can0 728#05500000
(1663575347.350626) can0 728#05500000
(1663575347.360928) can0 728#05500000
(1663575347.371127) can0 728#05500000
(1663575347.381323) can0 728#05500000
(1663575347.391624) can0 728#05500000
(1663575347.401819) can0 728#05500000
(1663575347.412023) can0 728#05500000
(1663575347.422327) can0 728#05500000
(1663575347.432527) can0 728#05500000
(1663575347.442726) can0 728#05500000
(1663575347.452925) can0 728#05500000
(1663575347.463022) can0 728#05500000
(1663575347.473125) can0 728#05500000
(1663575347.483220) can0 728#05500000
(1663575347.493324) can0 728#05500000
(1663575347.503429) can0 728#05500000
(1663575347.513524) can0 728#05500000
(1663575347.523626) can0 728#05500000
(1663575347.533724) can0 728#05500000
(1663575347.543819) can0 728#05500000
(1663575347.553922) can0 728#05500000
(1663575347.564122) can0 728#05500000
(1663575347.574218) can0 728#05500000
(1663575347.584321) can0 728#05500000
(1663575347.594418) can0 728#05500000
(1663575347.604521) can0 728#05500000
(1663575347.614625) can0 728#05500000
(1663575347.624720) can0 728#05500000
(1663575347.634852) can0 728#05500000
(1663575347.644924) can0 728#05500000
(1663575347.655013) can0 728#05500000
(1663575347.665123) can0 728#05500000
(1663575347.675226) can0 728#05500000
(1663575347.685318) can0 728#05500000
(1663575347.695425) can0 728#05500000
(1663575347.705519) can0 728#05500000
(1663575347.715622) can0 728#05500000
(1663575347.725814) can0 728#05500000
(1663575347.735919) can0 728#05500000
(1663575347.746014) can0 728#05500000
(1663575347.756117) can0 728#05500000
(1663575347.766213) can0 728#05500000
(1663575347.776316) can0 728#05500000
(1663575347.786421) can0 728#05500000
(1663575347.796516) can0 728#05500000
(1663575347.806620) can0 728#05500000
(1663575347.816716) can0 728#05500000
(1663575347.826820) can0 728#05500000
(1663575347.836917) can0 728#05500000
(1663575347.847012) can0 728#05500000
(1663575347.857116) can0 728#05500000
(1663575347.867231) can0 728#05500000
(1663575347.877319) can0 728#05500000
(1663575347.887423) can0 728#05500000
(1663575347.897616) can0 728#05500000
(1663575347.907719) can0 728#05500000
(1663575347.917822) can0 728#05500000
(1663575347.927913) can0 728#05500000
(1663575347.938013) can0 728#05500000
(1663575347.948118) can0 728#05500000
(1663575347.958213) can0 728#05500000
(1663575347.968315) can0 728#05500000
(1663575347.978417) can0 728#05500000
(1663575347.988511) can0 728#05500000
(1663575347.998616) can0 728#05500000
(1663575348.008712) can0 728#05500000
(1663575348.018816) can0 728#05500000
(1663575348.028913) can0 728#05500000
(1663575348.039009) can0 728#05500000
(1663575348.049119) can0 728#05500000
(1663575348.059203) can0 728#05500000
(1663575348.069407) can0 728#05500000
(1663575348.079510) can0 728#05500000
(1663575348.089615) can0 728#05500000
(1663575348.099714) can0 728#05500000
(1663575348.109812) can0 728#05500000
(1663575348.119910) can0 728#05500000
(1663575348.130029) can0 728#05500000
(1663575348.140110) can0 728#05500000
(1663575348.150201) can0 728#05500000
(1663575348.160308) can0 728#05500000
(1663575348.170401) can0 728#05500000
(1663575348.180505) can0 728#05500000
(1663575348.190613) can0 728#05500000
(1663575348.200708) can0 728#05500000
(1663575348.210812) can0 728#05500000
(1663575348.220908) can0 728#05500000
(1663575348.231011) can0 728#05500000
(1663575348.241103) can0 728#05500000
(1663575348.251207) can0 728#05500000
(1663575348.261306) can0 728#05500000
(1663575348.271403) can0 728#05500000
(1663575348.281504) can0 728#05500000
(1663575348.291601) can0 728#05500000
(1663575348.301703) can0 728#05500000
(1663575348.311904) can0 728#05500000
(1663575348.322008) can0 728#05500000
(1663575348.332106) can0 728#05500000
(1663575348.342207) can0 728#05500000
(1663575348.352303) can0 728#05500000
(1663575348.362408) can0 728#05500000
(1663575348.372503) can0 728#05500000
(1663575348.382603) can0 728#05500000
(1663575348.392706) can0 728#05500000
(1663575348.402799) can0 728#05500000
(1663575348.412905) can0 728#05500000
(1663575348.423102) can0 728#05500000
(1663575348.433199) can0 728#05500000
(1663575348.443301) can0 728#05500000
(1663575348.453397) can0 728#05500000
(1663575348.463501) can0 728#05500000
(1663575348.473605) can0 728#05500000
(1663575348.483700) can0 728#05500000
(1663575348.493796) can0 728#05500000
(1663575348.503900) can0 728#05500000
(1663575348.513995) can0 728#05500000
(1663575348.524099) can0 728#05500000
(1663575348.534195) can0 728#05500000
(1663575348.544299) can0 728#05500000
(1663575348.554394) can0 728#05500000
(1663575348.564523) can0 728#05500000
(1663575348.574593) can0 728#05500000
(1663575348.584697) can0 728#05500000
(1663575348.594800) can0 728#05500000
(1663575348.604896) can0 728#05500000
(1663575348.615000) can0 728#05500000
(1663575348.625096) can0 728#05500000
(1663575348.635305) can0 728#05500000
(1663575348.645401) can0 728#05500000
(1663575348.655493) can0 728#05500000
(1663575348.665600) can0 728#05500000
(1663575348.675696) can0 728#05500000
(1663575348.685801) can0 728#05500000
(1663575348.695893) can0 728#05500000
(1663575348.705999) can0 728#05500000
(1663575348.716094) can0 728#05500000
(1663575348.726189) can0 728#05500000
(1663575348.736293) can0 728#05500000
(1663575348.746389) can0 728#05500000
(1663575348.756492) can0 728#05500000
(1663575348.766597) can0 728#05500000
(1663575348.776692) can0 728#05500000
(1663575348.786891) can0 728#05500000
(1663575348.796891) can0 728#05500000
(1663575348.807092) can0 728#05500000
(1663575348.817219) can0 728#05500000
(1663575348.827295) can0 728#05500000
(1663575348.837400) can0 728#05500000
(1663575348.847495) can0 728#05500000
(1663575348.857599) can0 728#05500000
(1663575348.867694) can0 728#05500000
(1663575348.877790) can0 728#05500000
(1663575348.887889) can0 728#05500000
(1663575348.897991) can0 728#05500000
(1663575348.908094) can0 728#05500000
(1663575348.918190) can0 728#05500000
(1663575348.928294) can0 728#05500000
(1663575348.938389) can0 728#05500000
(1663575348.948485) can0 728#05500000
(1663575348.958584) can0 728#05500000
(1663575348.968688) can0 728#05500000
(1663575348.978792) can0 728#05500000
(1663575348.988983) can0 728#05500000
(1663575348.999084) can0 728#05500000
(1663575349.009190) can0 728#05500000
(1663575349.019286) can0 728#05500000
(1663575349.029396) can0 728#05500000
(1663575349.039486) can0 728#05500000
(1663575349.049581) can0 728#05500000
(1663575349.059682) can0 728#05500000
(1663575349.069782) can0 728#05500000
(1663575349.079886) can0 728#05500000
(1663575349.089990) can0 728#05500000
(1663575349.100086) can0 728#05500000
(1663575349.110188) can0 728#05500000
(1663575349.120284) can0 728#05500000
(1663575349.130398) can0 728#05500000
(1663575349.140582) can0 728#05500000
(1663575349.150680) can0 728#05500000
(1663575349.160777) can0 728#05500000
(1663575349.170884) can0 728#05500000
(1663575349.180976) can0 728#05500000
(1663575349.207400) can0 728#05500000
(1663575349.209020) can0 728#05500000
(1663575349.211618) can0 728#05500000
(1663575349.221417) can0 728#05500000
(1663575349.231521) can0 728#05500000
