(1663861226.719928) can0 720#052FD12807FF0000
(1663861226.724019) can0 728#037F2F2200000000
(1663861233.624296) can0 720#0210870000000000
(1663861233.633798) can0 728#0250870000000000
(1663861235.623010) can0 720#052FD12807FF0000
(1663861235.633820) can0 728#056FD12807FF0000
(1663861246.222511) can0 720#052FD12807FF0000
(1663861246.233494) can0 728#037F2F2200000000
(1663861249.768346) can0 720#0210870000000000
(1663861249.773535) can0 728#0250870000000000
(1663861255.370280) can0 720#0210810000000000
(1663861255.373535) can0 728#0250810000000000
(1663861257.435901) can0 720#052FD12807FF0000
(1663861257.443484) can0 728#037F2F2200000000
(1663861265.202496) can0 720#0210870000000000
(1663861265.213197) can0 728#0250870000000000
(1663861266.378557) can0 720#052FD12807FF0000
(1663861266.383208) can0 728#056FD12807FF0000
(1663861276.650180) can0 720#072FD12807FFFFFF
(1663861276.653002) can0 728#037F2F2200000000
(1663861279.398659) can0 720#0210870000000000
(1663861279.402925) can0 728#0250870000000000
(1663861280.483623) can0 720#072FD12807FFFFFF
(1663861280.492885) can0 728#037F2F1200000000
(1663861286.356088) can0 720#062FD12807FFFF00
(1663861286.363250) can0 728#037F2F2200000000
(1663861288.880309) can0 720#0210870000000000
(1663861288.882755) can0 728#0250870000000000
(1663861289.726220) can0 720#062FD12807FFFF00
(1663861289.732694) can0 728#037F2F1200000000
(1663861303.484713) can0 720#052FD12807000000
(1663861303.492431) can0 728#037F2F2200000000
(1663861305.593294) can0 720#0210870000000000
(1663861305.602632) can0 728#0250870000000000
(1663861306.359103) can0 720#052FD12807000000
(1663861306.362701) can0 728#037F2F3100000000
(1663861313.328989) can0 720#052FD12807088000
(1663861313.334655) can0 728#037F2F2200000000
(1663861315.826103) can0 720#0210870000000000
(1663861315.832217) can0 728#0250870000000000
(1663861316.608968) can0 720#052FD12807088000
(1663861316.612940) can0 728#037F2F3100000000
(1663861395.757867) can0 720#052FD12807000000
(1663861395.760593) can0 728#037F2F2200000000
(1663861398.458078) can0 720#0210870000000000
(1663861398.460549) can0 728#0250870000000000
(1663861399.204920) can0 720#052FD12807000000
(1663861399.210532) can0 728#037F2F3100000000
(1663861414.878950) can0 720#052FD12807000000
(1663861414.880205) can0 728#037F2F2200000000
(1663861421.640110) can0 720#052FD128070AA000
(1663861421.650112) can0 728#037F2F2200000000
(1663861423.422563) can0 720#052FD12807000000
(1663861423.430028) can0 728#037F2F2200000000
(1663861424.658327) can0 720#052FD128070AA000
(1663861424.659985) can0 728#037F2F2200000000
(1663861427.318022) can0 720#0210870000000000
(1663861427.319963) can0 728#0250870000000000
(1663861428.222683) can0 720#052FD128070AA000
(1663861428.229900) can0 728#037F2F3100000000
(1663861439.475561) can0 720#052FD128070AA000
(1663861439.479679) can0 728#037F2F2200000000
(1663861441.890826) can0 720#0210870000000000
(1663861441.899604) can0 728#0250870000000000
(1663861442.775950) can0 720#052FD128070AA000
(1663861442.779638) can0 728#037F2F3100000000
(1663861450.805324) can0 720#052FD12807AA0000
(1663861450.809488) can0 728#037F2F2200000000
(1663861452.551995) can0 720#0210870000000000
(1663861452.559470) can0 728#0250870000000000
(1663861453.167330) can0 720#052FD12807AA0000
(1663861453.169422) can0 728#056FD12807AA0000
(1663861460.160937) can0 720#052FD12807110000
(1663861460.169279) can0 728#037F2F2200000000
(1663861461.852943) can0 720#0210870000000000
(1663861461.859252) can0 728#0250870000000000
(1663861462.689319) can0 720#052FD12807110000
(1663861462.699197) can0 728#056FD12807110000
(1663861493.557401) can0 720#0210870000000000
(1663861493.558628) can0 728#0250870000000000
(1663861493.570049) can0 720#062F713007800000
(1663861493.578851) can0 728#066F713007800000
(1663861493.579776) can0 720#062F713007800000
(1663861493.588790) can0 728#066F713007800000
(1663861493.994433) can0 720#062F713007000000
(1663861493.998587) can0 728#066F713007000000
(1663861494.408910) can0 720#062F713007800000
(1663861494.418769) can0 728#066F713007800000
(1663861494.829207) can0 720#062F713007000000
(1663861494.838777) can0 728#066F713007000000
(1663861495.251106) can0 720#062F713007800000
(1663861495.258746) can0 728#066F713007800000
(1663861495.671703) can0 720#062F713007000000
(1663861495.678698) can0 728#066F713007000000
(1663861496.091403) can0 720#062F713007800000
(1663861496.098744) can0 728#066F713007800000
(1663861496.510973) can0 720#062F713007800000
(1663861496.518714) can0 728#066F713007800000
(1663861496.930230) can0 720#062F713007000000
(1663861496.938781) can0 728#066F713007000000
(1663861497.350192) can0 720#062F713007800000
(1663861497.358675) can0 728#066F713007800000
(1663861497.770031) can0 720#062F713007000000
(1663861497.778628) can0 728#066F713007000000
(1663861498.188988) can0 720#062F713007800000
(1663861498.198659) can0 728#066F713007800000
(1663861498.608418) can0 720#062F713007000000
(1663861498.618621) can0 728#066F713007000000
(1663861499.028686) can0 720#062F713007800000
(1663861499.038791) can0 728#066F713007800000
(1663861499.447722) can0 720#062F713007800000
(1663861499.458654) can0 728#066F713007800000
(1663861499.867285) can0 720#062F713007000000
(1663861499.869232) can0 728#066F713007000000
(1663861500.286802) can0 720#062F713007800000
(1663861500.288645) can0 728#066F713007800000
(1663861500.706315) can0 720#062F713007000000
(1663861500.708523) can0 728#066F713007000000
(1663861501.124324) can0 720#062F713007800000
(1663861501.128608) can0 728#066F713007800000
(1663861501.544308) can0 720#062F713007000000
(1663861501.549498) can0 728#066F713007000000
(1663861501.965277) can0 720#062F713007800000
(1663861501.968649) can0 728#066F713007800000
(1663861502.386644) can0 720#062F713007800000
(1663861502.388592) can0 728#066F713007800000
(1663861502.806823) can0 720#062F713007000000
(1663861502.808530) can0 728#066F713007000000
(1663861503.223012) can0 720#062F713007800000
(1663861503.228508) can0 728#066F713007800000
(1663861503.638826) can0 720#062F713007000000
(1663861503.648518) can0 728#066F713007000000
(1663861504.057876) can0 720#062F713007800000
(1663861504.068535) can0 728#066F713007800000
(1663861504.477757) can0 720#062F713007000000
(1663861504.488467) can0 728#066F713007000000
(1663861504.897007) can0 720#062F713007800000
(1663861504.898552) can0 728#066F713007800000
(1663861509.574650) can0 720#062F713007800000
(1663861509.578422) can0 728#066F713007800000
(1663861519.866087) can0 720#0210870000000000
(1663861519.869055) can0 728#0250870000000000
(1663861521.292689) can0 720#062F713007000000
(1663861521.298831) can0 728#066F713007000000
(1663861526.236586) can0 720#062F713007FF0000
(1663861526.238276) can0 728#066F713007FF0000
(1663861533.575155) can0 720#062F713007FF0000
(1663861533.577847) can0 728#037F2F2200000000
(1663861547.554877) can0 720#062F713007800000
(1663861547.557541) can0 728#037F2F2200000000
(1663861550.118494) can0 720#062F713007FF0000
(1663861550.127507) can0 728#037F2F2200000000
(1663861552.010801) can0 720#062F713007000000
(1663861552.017480) can0 728#037F2F2200000000
(1663861554.021279) can0 720#062F713007800000
(1663861554.027387) can0 728#037F2F2200000000
(1663861567.597880) can0 720#0210870000000000
(1663861567.607186) can0 728#0250870000000000
(1663861567.609126) can0 720#052F714007FF0000
(1663861567.617208) can0 728#056F714007FF0000
(1663861567.620119) can0 720#052F714007EE0000
(1663861567.627145) can0 728#056F714007EE0000
(1663861567.631007) can0 720#052F714007DD0000
(1663861567.637364) can0 728#056F714007DD0000
(1663861567.643303) can0 720#052F714007CC0000
(1663861567.647123) can0 728#056F714007CC0000
(1663861567.651598) can0 720#052F714007BB0000
(1663861567.657098) can0 728#056F714007BB0000
(1663861567.658278) can0 720#052F714007AA0000
(1663861567.665532) can0 720#052F714007990000
(1663861567.667077) can0 728#056F714007AA0000
(1663861567.672607) can0 720#052F714007880000
(1663861567.677160) can0 728#056F714007880000
(1663861567.679408) can0 720#052F714007770000
(1663861567.686075) can0 720#052F714007660000
(1663861567.687101) can0 728#056F714007770000
(1663861567.693850) can0 720#052F714007550000
(1663861567.697508) can0 728#056F714007550000
(1663861567.700384) can0 720#052F714007440000
(1663861567.707072) can0 728#056F714007440000
(1663861567.708993) can0 720#052F714007330000
(1663861567.715378) can0 720#052F714007220000
(1663861567.717107) can0 728#056F714007330000
(1663861567.723922) can0 720#052F714007110000
(1663861567.727121) can0 728#056F714007110000
(1663861567.730315) can0 720#052F714007000000
(1663861567.737207) can0 728#056F714007000000
(1663861568.708319) can0 720#0210870000000000
(1663861568.717144) can0 728#0250870000000000
(1663861568.724082) can0 720#052F714007FF0000
(1663861568.727112) can0 728#056F714007FF0000
(1663861568.738755) can0 720#052F714007EE0000
(1663861568.747141) can0 728#056F714007EE0000
(1663861568.749176) can0 720#052F714007DD0000
(1663861568.757176) can0 728#056F714007DD0000
(1663861568.759234) can0 720#052F714007CC0000
(1663861568.767174) can0 728#056F714007CC0000
(1663861568.768633) can0 720#052F714007BB0000
(1663861568.777199) can0 728#056F714007BB0000
(1663861568.778163) can0 720#052F714007AA0000
(1663861568.787110) can0 728#056F714007AA0000
(1663861568.788033) can0 720#052F714007990000
(1663861568.796854) can0 720#052F714007880000
(1663861568.797814) can0 728#056F714007990000
(1663861568.800971) can0 720#052F714007770000
(1663861568.805315) can0 720#052F714007660000
(1663861568.807019) can0 728#056F714007770000
(1663861568.809421) can0 720#052F714007550000
(1663861568.813850) can0 720#052F714007440000
(1663861568.817037) can0 728#056F714007550000
(1663861568.817982) can0 720#052F714007330000
(1663861568.821853) can0 720#052F714007220000
(1663861568.826083) can0 720#052F714007110000
(1663861568.827109) can0 728#056F714007330000
(1663861568.830312) can0 720#052F714007000000
(1663861568.837132) can0 728#056F714007000000
(1663861569.535139) can0 720#0210870000000000
(1663861569.537231) can0 728#0250870000000000
(1663861569.548091) can0 720#052F714007FF0000
(1663861569.557117) can0 728#056F714007FF0000
(1663861569.559014) can0 720#052F714007EE0000
(1663861569.567129) can0 728#056F714007EE0000
(1663861569.568918) can0 720#052F714007DD0000
(1663861569.577141) can0 728#056F714007DD0000
(1663861569.579056) can0 720#052F714007CC0000
(1663861569.587160) can0 728#056F714007CC0000
(1663861569.588452) can0 720#052F714007BB0000
(1663861569.597122) can0 728#056F714007BB0000
(1663861569.599067) can0 720#052F714007AA0000
(1663861569.607030) can0 728#056F714007AA0000
(1663861569.608956) can0 720#052F714007990000
(1663861569.613912) can0 720#052F714007880000
(1663861569.617114) can0 728#056F714007990000
(1663861569.620392) can0 720#052F714007770000
(1663861569.627113) can0 720#052F714007660000
(1663861569.628083) can0 728#056F714007770000
(1663861569.632668) can0 720#052F714007550000
(1663861569.637209) can0 728#056F714007550000
(1663861569.639014) can0 720#052F714007440000
(1663861569.644966) can0 720#052F714007330000
(1663861569.647050) can0 728#056F714007440000
(1663861569.651212) can0 720#052F714007220000
(1663861569.657041) can0 728#056F714007220000
(1663861569.658984) can0 720#052F714007110000
(1663861569.663743) can0 720#052F714007000000
(1663861569.667036) can0 728#056F714007110000
(1663861570.872036) can0 720#0210870000000000
(1663861570.877638) can0 728#0250870000000000
(1663861570.883836) can0 720#052F714007FF0000
(1663861570.887088) can0 728#056F714007FF0000
(1663861570.894839) can0 720#052F714007EE0000
(1663861570.897106) can0 728#056F714007EE0000
(1663861570.905850) can0 720#052F714007DD0000
(1663861570.909709) can0 728#056F714007DD0000
(1663861570.914694) can0 720#052F714007CC0000
(1663861570.917624) can0 728#056F714007CC0000
(1663861570.922589) can0 720#052F714007BB0000
(1663861570.927001) can0 728#056F714007BB0000
(1663861570.927935) can0 720#052F714007AA0000
(1663861570.933735) can0 720#052F714007990000
(1663861570.937120) can0 728#056F714007AA0000
(1663861570.939797) can0 720#052F714007880000
(1663861570.945855) can0 720#052F714007770000
(1663861570.947036) can0 728#056F714007880000
(1663861570.951898) can0 720#052F714007660000
(1663861570.957020) can0 728#056F714007660000
(1663861570.958174) can0 720#052F714007550000
(1663861570.964323) can0 720#052F714007440000
(1663861570.967008) can0 728#056F714007550000
(1663861570.970701) can0 720#052F714007330000
(1663861570.976664) can0 720#052F714007220000
(1663861570.977599) can0 728#056F714007330000
(1663861570.982519) can0 720#052F714007110000
(1663861570.987021) can0 728#056F714007110000
(1663861570.988842) can0 720#052F714007000000
(1663861570.996994) can0 728#056F714007000000
(1663861571.494769) can0 720#0210870000000000
(1663861571.497061) can0 728#0250870000000000
(1663861571.506902) can0 720#052F714007FF0000
(1663861571.517094) can0 728#056F714007FF0000
(1663861571.518671) can0 720#052F714007EE0000
(1663861571.527073) can0 728#056F714007EE0000
(1663861571.528431) can0 720#052F714007DD0000
(1663861571.537344) can0 728#056F714007DD0000
(1663861571.538294) can0 720#052F714007CC0000
(1663861571.546012) can0 720#052F714007BB0000
(1663861571.547044) can0 728#056F714007CC0000
(1663861571.551987) can0 720#052F714007AA0000
(1663861571.556997) can0 728#056F714007AA0000
(1663861571.557925) can0 720#052F714007990000
(1663861571.563940) can0 720#052F714007880000
(1663861571.567024) can0 728#056F714007990000
(1663861571.569866) can0 720#052F714007770000
(1663861571.576168) can0 720#052F714007660000
(1663861571.577142) can0 728#056F714007770000
(1663861571.582775) can0 720#052F714007550000
(1663861571.587003) can0 728#056F714007550000
(1663861571.588962) can0 720#052F714007440000
(1663861571.595324) can0 720#052F714007330000
(1663861571.596990) can0 728#056F714007440000
(1663861571.601854) can0 720#052F714007220000
(1663861571.607046) can0 728#056F714007220000
(1663861571.608942) can0 720#052F714007110000
(1663861571.614930) can0 720#052F714007000000
(1663861571.617017) can0 728#056F714007110000
(1663861571.840325) can0 720#0210870000000000
(1663861571.847067) can0 728#0250870000000000
(1663861571.850410) can0 720#052F714007FF0000
(1663861571.857051) can0 728#056F714007FF0000
(1663861571.861011) can0 720#052F714007EE0000
(1663861571.867060) can0 728#056F714007EE0000
(1663861571.869985) can0 720#052F714007DD0000
(1663861571.877715) can0 720#052F714007CC0000
(1663861571.878699) can0 728#056F714007DD0000
(1663861571.885777) can0 720#052F714007BB0000
(1663861571.887017) can0 728#056F714007BB0000
(1663861571.894013) can0 720#052F714007AA0000
(1663861571.897065) can0 728#056F714007AA0000
(1663861571.902870) can0 720#052F714007990000
(1663861571.909855) can0 728#056F714007990000
(1663861571.911765) can0 720#052F714007880000
(1663861571.917741) can0 728#056F714007880000
(1663861571.920618) can0 720#052F714007770000
(1663861571.927054) can0 728#056F714007770000
(1663861571.928355) can0 720#052F714007660000
(1663861571.936780) can0 720#052F714007550000
(1663861571.937747) can0 728#056F714007660000
(1663861571.945064) can0 720#052F714007440000
(1663861571.946968) can0 728#056F714007440000
(1663861571.949690) can0 720#052F714007330000
(1663861571.954187) can0 720#052F714007220000
(1663861571.956955) can0 728#056F714007330000
(1663861571.958800) can0 720#052F714007110000
(1663861571.963166) can0 720#052F714007000000
(1663861571.966957) can0 728#056F714007110000
(1663861572.097917) can0 720#0210870000000000
(1663861572.104803) can0 720#052F714007FF0000
(1663861572.116495) can0 720#052F714007EE0000
(1663861572.117480) can0 728#0250870000000000
(1663861572.119422) can0 720#052F714007DD0000
(1663861572.121365) can0 720#052F714007CC0000
(1663861572.125867) can0 720#052F714007BB0000
(1663861572.129917) can0 728#056F714007DD0000
(1663861572.130858) can0 720#052F714007AA0000
(1663861572.134676) can0 720#052F714007990000
(1663861572.137125) can0 728#056F714007AA0000
(1663861572.139152) can0 720#052F714007880000
(1663861572.143359) can0 720#052F714007770000
(1663861572.146988) can0 728#056F714007880000
(1663861572.147928) can0 720#052F714007660000
(1663861572.151553) can0 720#052F714007550000
(1663861572.155843) can0 720#052F714007440000
(1663861572.156989) can0 728#056F714007660000
(1663861572.160042) can0 720#052F714007330000
(1663861572.164346) can0 720#052F714007220000
(1663861572.166968) can0 728#056F714007330000
(1663861572.168573) can0 720#052F714007110000
(1663861572.172672) can0 720#052F714007000000
(1663861572.176945) can0 728#056F714007110000
(1663861572.682698) can0 720#0210870000000000
(1663861572.687042) can0 728#0250870000000000
(1663861572.693792) can0 720#052F714007FF0000
(1663861572.697031) can0 728#056F714007FF0000
(1663861572.703857) can0 720#052F714007EE0000
(1663861572.709755) can0 728#056F714007EE0000
(1663861572.713662) can0 720#052F714007DD0000
(1663861572.717040) can0 728#056F714007DD0000
(1663861572.721495) can0 720#052F714007CC0000
(1663861572.727041) can0 728#056F714007CC0000
(1663861572.729876) can0 720#052F714007BB0000
(1663861572.737157) can0 728#056F714007BB0000
(1663861572.738054) can0 720#052F714007AA0000
(1663861572.746482) can0 720#052F714007990000
(1663861572.747467) can0 728#056F714007AA0000
(1663861572.755515) can0 720#052F714007880000
(1663861572.756955) can0 728#056F714007880000
(1663861572.760382) can0 720#052F714007770000
(1663861572.764870) can0 720#052F714007660000
(1663861572.766938) can0 728#056F714007770000
(1663861572.769115) can0 720#052F714007550000
(1663861572.773569) can0 720#052F714007440000
(1663861572.776959) can0 728#056F714007550000
(1663861572.777895) can0 720#052F714007330000
(1663861572.782749) can0 720#052F714007220000
(1663861572.786550) can0 720#052F714007110000
(1663861572.787517) can0 728#056F714007330000
(1663861572.791223) can0 720#052F714007000000
(1663861572.796925) can0 728#056F714007000000
(1663861573.840006) can0 720#0210870000000000
(1663861573.847032) can0 728#0250870000000000
(1663861573.848991) can0 720#052F714007FF0000
(1663861573.857008) can0 728#056F714007FF0000
(1663861573.858919) can0 720#052F714007EE0000
(1663861573.867011) can0 728#056F714007EE0000
(1663861573.867936) can0 720#052F714007DD0000
(1663861573.876512) can0 720#052F714007CC0000
(1663861573.877505) can0 728#056F714007DD0000
(1663861573.884205) can0 720#052F714007BB0000
(1663861573.887054) can0 728#056F714007BB0000
(1663861573.892790) can0 720#052F714007AA0000
(1663861573.896955) can0 728#056F714007AA0000
(1663861573.899441) can0 720#052F714007990000
(1663861573.905477) can0 720#052F714007880000
(1663861573.906948) can0 728#056F714007990000
(1663861573.913753) can0 720#052F714007770000
(1663861573.917796) can0 720#052F714007660000
(1663861573.919721) can0 728#056F714007770000
(1663861573.924659) can0 720#052F714007550000
(1663861573.926935) can0 728#056F714007550000
(1663861573.930038) can0 720#052F714007440000
(1663861573.935929) can0 720#052F714007330000
(1663861573.937107) can0 728#056F714007440000
(1663861573.942792) can0 720#052F714007220000
(1663861573.946981) can0 728#056F714007220000
(1663861573.947911) can0 720#052F714007110000
(1663861573.953856) can0 720#052F714007000000
(1663861573.956942) can0 728#056F714007110000
(1663861574.743821) can0 720#0210870000000000
(1663861574.747029) can0 728#0250870000000000
(1663861574.753622) can0 720#052F714007FF0000
(1663861574.757065) can0 728#056F714007FF0000
(1663861574.770454) can0 720#052F714007EE0000
(1663861574.777002) can0 728#056F714007EE0000
(1663861574.781177) can0 720#052F714007DD0000
(1663861574.787033) can0 728#056F714007DD0000
(1663861574.790970) can0 720#052F714007CC0000
(1663861574.797046) can0 728#056F714007CC0000
(1663861574.801392) can0 720#052F714007BB0000
(1663861574.806933) can0 728#056F714007BB0000
(1663861574.810269) can0 720#052F714007AA0000
(1663861574.816600) can0 720#052F714007990000
(1663861574.817487) can0 728#056F714007AA0000
(1663861574.823171) can0 720#052F714007880000
(1663861574.826963) can0 728#056F714007880000
(1663861574.829603) can0 720#052F714007770000
(1663861574.835926) can0 720#052F714007660000
(1663861574.837092) can0 728#056F714007770000
(1663861574.843113) can0 720#052F714007550000
(1663861574.846946) can0 728#056F714007550000
(1663861574.849615) can0 720#052F714007440000
(1663861574.856050) can0 720#052F714007330000
(1663861574.856987) can0 728#056F714007440000
(1663861574.862775) can0 720#052F714007220000
(1663861574.866963) can0 728#056F714007220000
(1663861574.870989) can0 720#052F714007110000
(1663861574.875674) can0 720#052F714007000000
(1663861574.876941) can0 728#056F714007110000
(1663861578.236555) can0 720#0210870000000000
(1663861578.247014) can0 728#0250870000000000
(1663861578.252658) can0 720#052F714007FF0000
(1663861578.256954) can0 728#056F714007FF0000
(1663861578.262786) can0 720#052F714007EE0000
(1663861578.266968) can0 728#056F714007EE0000
(1663861578.273634) can0 720#052F714007DD0000
(1663861578.276966) can0 728#056F714007DD0000
(1663861578.284650) can0 720#052F714007CC0000
(1663861578.286941) can0 728#056F714007CC0000
(1663861578.296271) can0 720#052F714007BB0000
(1663861578.304625) can0 720#052F714007AA0000
(1663861578.306854) can0 728#056F714007BB0000
(1663861578.310113) can0 720#052F714007990000
(1663861578.317576) can0 720#052F714007880000
(1663861578.319457) can0 728#056F714007990000
(1663861578.323489) can0 720#052F714007770000
(1663861578.326852) can0 728#056F714007770000
(1663861578.329870) can0 720#052F714007660000
(1663861578.335845) can0 720#052F714007550000
(1663861578.337030) can0 728#056F714007660000
(1663861578.343709) can0 720#052F714007440000
(1663861578.346878) can0 728#056F714007440000
(1663861578.348030) can0 720#052F714007330000
(1663861578.354024) can0 720#052F714007220000
(1663861578.356855) can0 728#056F714007330000
(1663861578.360806) can0 720#052F714007110000
(1663861578.366382) can0 720#052F714007000000
(1663861578.367339) can0 728#056F714007110000
(1663861579.481670) can0 720#0210870000000000
(1663861579.486938) can0 728#0250870000000000
(1663861579.492714) can0 720#052F714007FF0000
(1663861579.496973) can0 728#056F714007FF0000
(1663861579.503795) can0 720#052F714007EE0000
(1663861579.506909) can0 728#056F714007EE0000
(1663861579.512641) can0 720#052F714007DD0000
(1663861579.517525) can0 728#056F714007DD0000
(1663861579.519438) can0 720#052F714007CC0000
(1663861579.526017) can0 720#052F714007BB0000
(1663861579.526969) can0 728#056F714007CC0000
(1663861579.532500) can0 720#052F714007AA0000
(1663861579.536974) can0 728#056F714007AA0000
(1663861579.539335) can0 720#052F714007990000
(1663861579.546093) can0 720#052F714007880000
(1663861579.547040) can0 728#056F714007990000
(1663861579.552462) can0 720#052F714007770000
(1663861579.556846) can0 728#056F714007770000
(1663861579.559003) can0 720#052F714007660000
(1663861579.565485) can0 720#052F714007550000
(1663861579.566848) can0 728#056F714007660000
(1663861579.572405) can0 720#052F714007440000
(1663861579.576849) can0 728#056F714007440000
(1663861579.579133) can0 720#052F714007330000
(1663861579.585900) can0 720#052F714007220000
(1663861579.586861) can0 728#056F714007330000
(1663861579.592655) can0 720#052F714007110000
(1663861579.596885) can0 728#056F714007110000
(1663861579.599593) can0 720#052F714007000000
(1663861579.606849) can0 728#056F714007000000
(1663861580.199595) can0 720#0210870000000000
(1663861580.206926) can0 728#0250870000000000
(1663861580.212467) can0 720#052F714007FF0000
(1663861580.216916) can0 728#056F714007FF0000
(1663861580.222512) can0 720#052F714007EE0000
(1663861580.226850) can0 728#056F714007EE0000
(1663861580.230635) can0 720#052F714007DD0000
(1663861580.236965) can0 728#056F714007DD0000
(1663861580.237910) can0 720#052F714007CC0000
(1663861580.244526) can0 720#052F714007BB0000
(1663861580.246871) can0 728#056F714007CC0000
(1663861580.251154) can0 720#052F714007AA0000
(1663861580.256842) can0 728#056F714007AA0000
(1663861580.258778) can0 720#052F714007990000
(1663861580.264881) can0 720#052F714007880000
(1663861580.266868) can0 728#056F714007990000
(1663861580.271407) can0 720#052F714007770000
(1663861580.276834) can0 728#056F714007770000
(1663861580.278006) can0 720#052F714007660000
(1663861580.284650) can0 720#052F714007550000
(1663861580.286845) can0 728#056F714007660000
(1663861580.291184) can0 720#052F714007440000
(1663861580.296840) can0 728#056F714007440000
(1663861580.298187) can0 720#052F714007330000
(1663861580.304901) can0 720#052F714007220000
(1663861580.306843) can0 728#056F714007330000
(1663861580.312304) can0 720#052F714007110000
(1663861580.316840) can0 728#056F714007110000
(1663861580.319777) can0 720#052F714007000000
(1663861580.326808) can0 728#056F714007000000
(1663861581.493187) can0 720#0210870000000000
(1663861581.496894) can0 728#0250870000000000
(1663861581.504072) can0 720#052F714007FF0000
(1663861581.506874) can0 728#056F714007FF0000
(1663861581.521602) can0 720#052F714007EE0000
(1663861581.526850) can0 728#056F714007EE0000
(1663861581.531464) can0 720#052F714007DD0000
(1663861581.537008) can0 728#056F714007DD0000
(1663861581.541468) can0 720#052F714007CC0000
(1663861581.546897) can0 728#056F714007CC0000
(1663861581.551466) can0 720#052F714007BB0000
(1663861581.556876) can0 728#056F714007BB0000
(1663861581.561524) can0 720#052F714007AA0000
(1663861581.566804) can0 728#056F714007AA0000
(1663861581.569459) can0 720#052F714007990000
(1663861581.575703) can0 720#052F714007880000
(1663861581.576840) can0 728#056F714007990000
(1663861581.582642) can0 720#052F714007770000
(1663861581.586826) can0 728#056F714007770000
(1663861581.588207) can0 720#052F714007660000
(1663861581.594347) can0 720#052F714007550000
(1663861581.596809) can0 728#056F714007660000
(1663861581.600878) can0 720#052F714007440000
(1663861581.606785) can0 728#056F714007440000
(1663861581.608707) can0 720#052F714007330000
(1663861581.613740) can0 720#052F714007220000
(1663861581.616819) can0 728#056F714007330000
(1663861581.620799) can0 720#052F714007110000
(1663861581.626801) can0 728#056F714007110000
(1663861581.627757) can0 720#052F714007000000
(1663861581.636964) can0 728#056F714007000000
(1663861584.344329) can0 720#0210870000000000
(1663861584.346827) can0 728#0250870000000000
(1663861584.355653) can0 720#052F714007FF0000
(1663861584.356849) can0 728#056F714007FF0000
(1663861584.369295) can0 720#052F714007EE0000
(1663861584.376805) can0 728#056F714007EE0000
(1663861584.378774) can0 720#052F714007DD0000
(1663861584.386858) can0 728#056F714007DD0000
(1663861584.388680) can0 720#052F714007CC0000
(1663861584.396817) can0 728#056F714007CC0000
(1663861584.399586) can0 720#052F714007BB0000
(1663861584.406801) can0 728#056F714007BB0000
(1663861584.410852) can0 720#052F714007AA0000
(1663861584.416765) can0 728#056F714007AA0000
(1663861584.418010) can0 720#052F714007990000
(1663861584.424884) can0 720#052F714007880000
(1663861584.426785) can0 728#056F714007990000
(1663861584.431755) can0 720#052F714007770000
(1663861584.436957) can0 728#056F714007770000
(1663861584.438354) can0 720#052F714007660000
(1663861584.444880) can0 720#052F714007550000
(1663861584.446787) can0 728#056F714007660000
(1663861584.451774) can0 720#052F714007440000
(1663861584.456748) can0 728#056F714007440000
(1663861584.458543) can0 720#052F714007330000
(1663861584.465179) can0 720#052F714007220000
(1663861584.466726) can0 728#056F714007330000
(1663861584.472179) can0 720#052F714007110000
(1663861584.476751) can0 728#056F714007110000
(1663861584.478467) can0 720#052F714007000000
(1663861584.486731) can0 728#056F714007000000
(1663861585.764232) can0 720#0210870000000000
(1663861585.766827) can0 728#0250870000000000
(1663861585.775077) can0 720#052F714007FF0000
(1663861585.776809) can0 728#056F714007FF0000
(1663861585.784467) can0 720#052F714007EE0000
(1663861585.786775) can0 728#056F714007EE0000
(1663861585.793811) can0 720#052F714007DD0000
(1663861585.796817) can0 728#056F714007DD0000
(1663861585.803636) can0 720#052F714007CC0000
(1663861585.806815) can0 728#056F714007CC0000
(1663861585.813370) can0 720#052F714007BB0000
(1663861585.816829) can0 728#056F714007BB0000
(1663861585.823083) can0 720#052F714007AA0000
(1663861585.826792) can0 728#056F714007AA0000
(1663861585.832983) can0 720#052F714007990000
(1663861585.836904) can0 728#056F714007990000
(1663861585.843567) can0 720#052F714007880000
(1663861585.846840) can0 728#056F714007880000
(1663861585.851691) can0 720#052F714007770000
(1663861585.855939) can0 720#052F714007660000
(1663861585.856847) can0 728#056F714007770000
(1663861585.860846) can0 720#052F714007550000
(1663861585.864308) can0 720#052F714007440000
(1663861585.866712) can0 728#056F714007550000
(1663861585.869260) can0 720#052F714007330000
(1663861585.872786) can0 720#052F714007220000
(1663861585.876707) can0 728#056F714007330000
(1663861585.877627) can0 720#052F714007110000
(1663861585.881310) can0 720#052F714007000000
(1663861585.886669) can0 728#056F714007110000
(1663861587.097778) can0 720#0210870000000000
(1663861587.106763) can0 728#0250870000000000
(1663861587.108908) can0 720#052F714007FF0000
(1663861587.116796) can0 728#056F714007FF0000
(1663861587.119361) can0 720#052F714007EE0000
(1663861587.127351) can0 728#056F714007EE0000
(1663861587.129219) can0 720#052F714007DD0000
(1663861587.136940) can0 728#056F714007DD0000
(1663861587.139010) can0 720#052F714007CC0000
(1663861587.147126) can0 728#056F714007CC0000
(1663861587.149399) can0 720#052F714007BB0000
(1663861587.156762) can0 728#056F714007BB0000
(1663861587.159508) can0 720#052F714007AA0000
(1663861587.166759) can0 728#056F714007AA0000
(1663861587.170986) can0 720#052F714007990000
(1663861587.176756) can0 728#056F714007990000
(1663861587.181833) can0 720#052F714007880000
(1663861587.186724) can0 728#056F714007880000
(1663861587.189097) can0 720#052F714007770000
(1663861587.194466) can0 720#052F714007660000
(1663861587.196715) can0 728#056F714007770000
(1663861587.198079) can0 720#052F714007550000
(1663861587.203454) can0 720#052F714007440000
(1663861587.206641) can0 728#056F714007550000
(1663861587.207578) can0 720#052F714007330000
(1663861587.211556) can0 720#052F714007220000
(1663861587.215631) can0 720#052F714007110000
(1663861587.216678) can0 728#056F714007330000
(1663861587.220211) can0 720#052F714007000000
(1663861587.226640) can0 728#056F714007000000
(1663861587.982667) can0 720#0210870000000000
(1663861587.986764) can0 728#0250870000000000
(1663861587.993542) can0 720#052F714007FF0000
(1663861587.996695) can0 728#056F714007FF0000
(1663861588.004039) can0 720#052F714007EE0000
(1663861588.006704) can0 728#056F714007EE0000
(1663861588.012321) can0 720#052F714007DD0000
(1663861588.016725) can0 728#056F714007DD0000
(1663861588.019563) can0 720#052F714007CC0000
(1663861588.026694) can0 728#056F714007CC0000
(1663861588.027615) can0 720#052F714007BB0000
(1663861588.034584) can0 720#052F714007AA0000
(1663861588.036799) can0 728#056F714007BB0000
(1663861588.042493) can0 720#052F714007990000
(1663861588.046714) can0 728#056F714007990000
(1663861588.050509) can0 720#052F714007880000
(1663861588.056725) can0 728#056F714007880000
(1663861588.058105) can0 720#052F714007770000
(1663861588.066410) can0 720#052F714007660000
(1663861588.067354) can0 728#056F714007770000
(1663861588.073981) can0 720#052F714007550000
(1663861588.076703) can0 728#056F714007550000
(1663861588.082386) can0 720#052F714007440000
(1663861588.086687) can0 728#056F714007440000
(1663861588.090516) can0 720#052F714007330000
(1663861588.096620) can0 728#056F714007330000
(1663861588.097572) can0 720#052F714007220000
(1663861588.100583) can0 720#052F714007110000
(1663861588.105079) can0 720#052F714007000000
(1663861588.106615) can0 728#056F714007220000
(1663861588.755791) can0 720#0210870000000000
(1663861588.762167) can0 720#052F714007FF0000
(1663861588.766647) can0 728#0250870000000000
(1663861588.771660) can0 720#052F714007EE0000
(1663861588.776635) can0 728#056F714007EE0000
(1663861588.788590) can0 720#052F714007DD0000
(1663861588.793601) can0 720#052F714007CC0000
(1663861588.797164) can0 728#056F714007DD0000
(1663861588.798186) can0 720#052F714007BB0000
(1663861588.806714) can0 728#056F714007BB0000
(1663861588.807614) can0 720#052F714007AA0000
(1663861588.816515) can0 720#052F714007990000
(1663861588.817436) can0 728#056F714007AA0000
(1663861588.825277) can0 720#052F714007880000
(1663861588.826700) can0 728#056F714007880000
(1663861588.834615) can0 720#052F714007770000
(1663861588.836851) can0 728#056F714007770000
(1663861588.845494) can0 720#052F714007660000
(1663861588.846755) can0 728#056F714007660000
(1663861588.856752) can0 720#052F714007550000
(1663861588.865444) can0 720#052F714007440000
(1663861588.866673) can0 728#056F714007550000
(1663861588.874644) can0 720#052F714007330000
(1663861588.876688) can0 728#056F714007330000
(1663861588.883362) can0 720#052F714007220000
(1663861588.886685) can0 728#056F714007220000
(1663861588.894472) can0 720#052F714007110000
(1663861588.897237) can0 728#056F714007110000
(1663861588.900683) can0 720#052F714007000000
(1663861588.906608) can0 728#056F714007000000
(1663861589.310979) can0 720#0210870000000000
(1663861589.316626) can0 728#0250870000000000
(1663861589.317578) can0 720#052F714007FF0000
(1663861589.324024) can0 720#052F714007EE0000
(1663861589.326637) can0 728#056F714007FF0000
(1663861589.329739) can0 720#052F714007DD0000
(1663861589.336567) can0 720#052F714007CC0000
(1663861589.338478) can0 728#056F714007DD0000
(1663861589.343477) can0 720#052F714007BB0000
(1663861589.346641) can0 728#056F714007BB0000
(1663861589.348033) can0 720#052F714007AA0000
(1663861589.352239) can0 720#052F714007990000
(1663861589.356605) can0 728#056F714007AA0000
(1663861589.357549) can0 720#052F714007880000
(1663861589.362421) can0 720#052F714007770000
(1663861589.366632) can0 728#056F714007880000
(1663861589.367569) can0 720#052F714007660000
(1663861589.371279) can0 720#052F714007550000
(1663861589.375497) can0 720#052F714007440000
(1663861589.376639) can0 728#056F714007660000
(1663861589.379643) can0 720#052F714007330000
(1663861589.383835) can0 720#052F714007220000
(1663861589.386636) can0 728#056F714007330000
(1663861589.388437) can0 720#052F714007110000
(1663861589.393434) can0 720#052F714007000000
(1663861589.396617) can0 728#056F714007110000
(1663861589.635571) can0 720#0210870000000000
(1663861589.636870) can0 728#0250870000000000
(1663861589.646141) can0 720#052F714007FF0000
(1663861589.654874) can0 720#052F714007EE0000
(1663861589.656669) can0 728#056F714007FF0000
(1663861589.663155) can0 720#052F714007DD0000
(1663861589.666706) can0 728#056F714007DD0000
(1663861589.671968) can0 720#052F714007CC0000
(1663861589.676750) can0 728#056F714007CC0000
(1663861589.680589) can0 720#052F714007BB0000
(1663861589.686685) can0 728#056F714007BB0000
(1663861589.689248) can0 720#052F714007AA0000
(1663861589.696673) can0 728#056F714007AA0000
(1663861589.698074) can0 720#052F714007990000
(1663861589.706062) can0 720#052F714007880000
(1663861589.707056) can0 728#056F714007990000
(1663861589.710161) can0 720#052F714007770000
(1663861589.714316) can0 720#052F714007660000
(1663861589.716629) can0 728#056F714007770000
(1663861589.718457) can0 720#052F714007550000
(1663861589.722538) can0 720#052F714007440000
(1663861589.726628) can0 728#056F714007550000
(1663861589.727560) can0 720#052F714007330000
(1663861589.730894) can0 720#052F714007220000
(1663861589.735087) can0 720#052F714007110000
(1663861589.737001) can0 728#056F714007330000
(1663861589.739892) can0 720#052F714007000000
(1663861589.746606) can0 728#056F714007000000
(1663861589.846055) can0 720#0210870000000000
(1663861589.851436) can0 720#052F714007FF0000
(1663861589.855762) can0 720#052F714007EE0000
(1663861589.856746) can0 728#0250870000000000
(1663861589.860938) can0 720#052F714007DD0000
(1663861589.864723) can0 720#052F714007CC0000
(1663861589.866637) can0 728#056F714007DD0000
(1663861589.870350) can0 720#052F714007BB0000
(1663861589.876366) can0 720#052F714007AA0000
(1663861589.877322) can0 728#056F714007BB0000
(1663861589.881061) can0 720#052F714007990000
(1663861589.885983) can0 720#052F714007880000
(1663861589.886965) can0 728#056F714007990000
(1663861589.890229) can0 720#052F714007770000
(1663861589.894423) can0 720#052F714007660000
(1663861589.896595) can0 728#056F714007770000
(1663861589.898507) can0 720#052F714007550000
(1663861589.902610) can0 720#052F714007440000
(1663861589.906599) can0 728#056F714007550000
(1663861589.907531) can0 720#052F714007330000
(1663861589.911098) can0 720#052F714007220000
(1663861589.915307) can0 720#052F714007110000
(1663861589.916608) can0 728#056F714007330000
(1663861589.919577) can0 720#052F714007000000
(1663861589.926584) can0 728#056F714007000000
(1663861590.010034) can0 720#0210870000000000
(1663861590.016280) can0 720#052F714007FF0000
(1663861590.017291) can0 728#0250870000000000
(1663861590.020823) can0 720#052F714007EE0000
(1663861590.025317) can0 720#052F714007DD0000
(1663861590.026605) can0 728#056F714007EE0000
(1663861590.029862) can0 720#052F714007CC0000
(1663861590.034271) can0 720#052F714007BB0000
(1663861590.036768) can0 728#056F714007CC0000
(1663861590.038814) can0 720#052F714007AA0000
(1663861590.043434) can0 720#052F714007990000
(1663861590.046631) can0 728#056F714007AA0000
(1663861590.047587) can0 720#052F714007880000
(1663861590.051454) can0 720#052F714007770000
(1663861590.056817) can0 720#052F714007660000
(1663861590.058768) can0 728#056F714007880000
(1663861590.060336) can0 720#052F714007550000
(1663861590.064690) can0 720#052F714007440000
(1663861590.066594) can0 728#056F714007550000
(1663861590.069348) can0 720#052F714007330000
(1663861590.073240) can0 720#052F714007220000
(1663861590.076589) can0 728#056F714007330000
(1663861590.077676) can0 720#052F714007110000
(1663861590.082411) can0 720#052F714007000000
(1663861590.086585) can0 728#056F714007110000
(1663861590.168838) can0 720#0210870000000000
(1663861590.174794) can0 720#052F714007FF0000
(1663861590.176597) can0 728#0250870000000000
(1663861590.179366) can0 720#052F714007EE0000
(1663861590.184018) can0 720#052F714007DD0000
(1663861590.186602) can0 728#056F714007EE0000
(1663861590.188792) can0 720#052F714007CC0000
(1663861590.195206) can0 720#052F714007BB0000
(1663861590.196602) can0 728#056F714007CC0000
(1663861590.200117) can0 720#052F714007AA0000
(1663861590.204289) can0 720#052F714007990000
(1663861590.206588) can0 728#056F714007AA0000
(1663861590.208939) can0 720#052F714007880000
(1663861590.213018) can0 720#052F714007770000
(1663861590.216676) can0 728#056F714007880000
(1663861590.217604) can0 720#052F714007660000
(1663861590.221203) can0 720#052F714007550000
(1663861590.225406) can0 720#052F714007440000
(1663861590.226596) can0 728#056F714007660000
(1663861590.229668) can0 720#052F714007330000
(1663861590.233863) can0 720#052F714007220000
(1663861590.236719) can0 728#056F714007330000
(1663861590.238322) can0 720#052F714007110000
(1663861590.242565) can0 720#052F714007000000
(1663861590.246595) can0 728#056F714007110000
(1663861590.322419) can0 720#0210870000000000
(1663861590.326598) can0 728#0250870000000000
(1663861590.327556) can0 720#052F714007FF0000
(1663861590.331287) can0 720#052F714007EE0000
(1663861590.336578) can0 720#052F714007DD0000
(1663861590.340445) can0 728#056F714007FF0000
(1663861590.346154) can0 720#052F714007CC0000
(1663861590.347280) can0 720#052F714007BB0000
(1663861590.352702) can0 720#052F714007AA0000
(1663861590.356580) can0 728#056F714007CC0000
(1663861590.357521) can0 720#052F714007990000
(1663861590.361641) can0 720#052F714007880000
(1663861590.365749) can0 720#052F714007770000
(1663861590.366694) can0 728#056F714007990000
(1663861590.370365) can0 720#052F714007660000
(1663861590.374568) can0 720#052F714007550000
(1663861590.376609) can0 728#056F714007660000
(1663861590.379719) can0 720#052F714007440000
(1663861590.384377) can0 720#052F714007330000
(1663861590.386643) can0 728#056F714007440000
(1663861590.389102) can0 720#052F714007220000
(1663861590.393738) can0 720#052F714007110000
(1663861590.396585) can0 728#056F714007220000
(1663861590.398859) can0 720#052F714007000000
(1663861590.406585) can0 728#056F714007000000
(1663861590.467911) can0 720#0210870000000000
(1663861590.475989) can0 720#052F714007FF0000
(1663861590.476970) can0 728#0250870000000000
(1663861590.483410) can0 720#052F714007EE0000
(1663861590.486694) can0 728#056F714007EE0000
(1663861590.491469) can0 720#052F714007DD0000
(1663861590.496682) can0 728#056F714007DD0000
(1663861590.499295) can0 720#052F714007CC0000
(1663861590.506654) can0 728#056F714007CC0000
(1663861590.507564) can0 720#052F714007BB0000
(1663861590.513738) can0 720#052F714007AA0000
(1663861590.516627) can0 728#056F714007BB0000
(1663861590.520678) can0 720#052F714007990000
(1663861590.526613) can0 728#056F714007990000
(1663861590.527561) can0 720#052F714007880000
(1663861590.533978) can0 720#052F714007770000
(1663861590.537434) can0 728#056F714007880000
(1663861590.544164) can0 720#052F714007660000
(1663861590.546647) can0 728#056F714007660000
(1663861590.548550) can0 720#052F714007550000
(1663861590.555168) can0 720#052F714007440000
(1663861590.556610) can0 728#056F714007550000
(1663861590.562399) can0 720#052F714007330000
(1663861590.566649) can0 728#056F714007330000
(1663861590.569570) can0 720#052F714007220000
(1663861590.575769) can0 720#052F714007110000
(1663861590.576711) can0 728#056F714007220000
(1663861590.582757) can0 720#052F714007000000
(1663861590.586619) can0 728#056F714007000000
(1663861591.160626) can0 720#0210870000000000
(1663861591.165067) can0 720#052F714007FF0000
(1663861591.166586) can0 728#0250870000000000
(1663861591.169581) can0 720#052F714007EE0000
(1663861591.173909) can0 720#052F714007DD0000
(1663861591.176597) can0 728#056F714007EE0000
(1663861591.178326) can0 720#052F714007CC0000
(1663861591.182675) can0 720#052F714007BB0000
(1663861591.186586) can0 728#056F714007CC0000
(1663861591.187509) can0 720#052F714007AA0000
(1663861591.193388) can0 720#052F714007990000
(1663861591.195983) can0 720#052F714007880000
(1663861591.196938) can0 728#056F714007AA0000
(1663861591.200181) can0 720#052F714007770000
(1663861591.204428) can0 720#052F714007660000
(1663861591.206579) can0 728#056F714007770000
(1663861591.208966) can0 720#052F714007550000
(1663861591.213152) can0 720#052F714007440000
(1663861591.216559) can0 728#056F714007550000
(1663861591.218483) can0 720#052F714007330000
(1663861591.221719) can0 720#052F714007220000
(1663861591.226248) can0 720#052F714007110000
(1663861591.227189) can0 728#056F714007330000
(1663861591.230966) can0 720#052F714007000000
(1663861591.236676) can0 728#056F714007000000
(1663861592.034070) can0 720#0210870000000000
(1663861592.036858) can0 728#0250870000000000
(1663861592.050532) can0 720#052F714007FF0000
(1663861592.056649) can0 728#056F714007FF0000
(1663861592.065553) can0 720#052F714007EE0000
(1663861592.066647) can0 728#056F714007EE0000
(1663861592.074429) can0 720#052F714007DD0000
(1663861592.076619) can0 728#056F714007DD0000
(1663861592.082673) can0 720#052F714007CC0000
(1663861592.086602) can0 728#056F714007CC0000
(1663861592.090254) can0 720#052F714007BB0000
(1663861592.096602) can0 728#056F714007BB0000
(1663861592.098186) can0 720#052F714007AA0000
(1663861592.106580) can0 728#056F714007AA0000
(1663861592.107509) can0 720#052F714007990000
(1663861592.116524) can0 720#052F714007880000
(1663861592.117468) can0 728#056F714007990000
(1663861592.124445) can0 720#052F714007770000
(1663861592.126592) can0 728#056F714007770000
(1663861592.132077) can0 720#052F714007660000
(1663861592.136799) can0 728#056F714007660000
(1663861592.140195) can0 720#052F714007550000
(1663861592.146936) can0 728#056F714007550000
(1663861592.147894) can0 720#052F714007440000
(1663861592.154966) can0 720#052F714007330000
(1663861592.156575) can0 728#056F714007440000
(1663861592.162686) can0 720#052F714007220000
(1663861592.166557) can0 728#056F714007220000
(1663861592.168664) can0 720#052F714007110000
(1663861592.173286) can0 720#052F714007000000
(1663861592.176544) can0 728#056F714007110000
(1663861593.084269) can0 720#0210870000000000
(1663861593.086617) can0 728#0250870000000000
(1663861593.095524) can0 720#052F714007FF0000
(1663861593.096652) can0 728#056F714007FF0000
(1663861593.105103) can0 720#052F714007EE0000
(1663861593.106601) can0 728#056F714007EE0000
(1663861593.114061) can0 720#052F714007DD0000
(1663861593.116659) can0 728#056F714007DD0000
(1663861593.123216) can0 720#052F714007CC0000
(1663861593.126636) can0 728#056F714007CC0000
(1663861593.132690) can0 720#052F714007BB0000
(1663861593.136822) can0 728#056F714007BB0000
(1663861593.142231) can0 720#052F714007AA0000
(1663861593.147176) can0 728#056F714007AA0000
(1663861593.155967) can0 720#052F714007990000
(1663861593.162472) can0 720#052F714007880000
(1663861593.166626) can0 728#056F714007990000
(1663861593.171967) can0 720#052F714007770000
(1663861593.176601) can0 728#056F714007770000
(1663861593.180784) can0 720#052F714007660000
(1663861593.186530) can0 728#056F714007660000
(1663861593.187475) can0 720#052F714007550000
(1663861593.192418) can0 720#052F714007440000
(1663861593.196113) can0 720#052F714007330000
(1663861593.197066) can0 728#056F714007550000
(1663861593.200412) can0 720#052F714007220000
(1663861593.204974) can0 720#052F714007110000
(1663861593.206530) can0 728#056F714007220000
(1663861593.209349) can0 720#052F714007000000
(1663861593.216522) can0 728#056F714007000000
(1663861593.863118) can0 720#0210870000000000
(1663861593.866539) can0 728#0250870000000000
(1663861593.868300) can0 720#052F714007FF0000
(1663861593.874113) can0 720#052F714007EE0000
(1663861593.876532) can0 728#056F714007FF0000
(1663861593.882393) can0 720#052F714007DD0000
(1663861593.886548) can0 728#056F714007DD0000
(1663861593.887740) can0 720#052F714007CC0000
(1663861593.896637) can0 728#056F714007CC0000
(1663861593.904347) can0 720#052F714007BB0000
(1663861593.906675) can0 728#056F714007BB0000
(1663861593.913767) can0 720#052F714007AA0000
(1663861593.916622) can0 728#056F714007AA0000
(1663861593.923651) can0 720#052F714007990000
(1663861593.926605) can0 728#056F714007990000
(1663861593.933951) can0 720#052F714007880000
(1663861593.936738) can0 728#056F714007880000
(1663861593.944452) can0 720#052F714007770000
(1663861593.947437) can0 728#056F714007770000
(1663861593.954407) can0 720#052F714007660000
(1663861593.957325) can0 728#056F714007660000
(1663861593.964741) can0 720#052F714007550000
(1663861593.966615) can0 728#056F714007550000
(1663861593.974528) can0 720#052F714007440000
(1663861593.976596) can0 728#056F714007440000
(1663861593.983961) can0 720#052F714007330000
(1663861593.986598) can0 728#056F714007330000
(1663861593.992394) can0 720#052F714007220000
(1663861593.996317) can0 720#052F714007110000
(1663861593.997270) can0 728#056F714007220000
(1663861594.000491) can0 720#052F714007000000
(1663861594.006533) can0 728#056F714007000000
(1663861595.169352) can0 720#0210870000000000
(1663861595.176603) can0 728#0250870000000000
(1663861595.180630) can0 720#052F714007FF0000
(1663861595.186623) can0 728#056F714007FF0000
(1663861595.192440) can0 720#052F714007EE0000
(1663861595.196604) can0 728#056F714007EE0000
(1663861595.204396) can0 720#052F714007DD0000
(1663861595.206545) can0 728#056F714007DD0000
(1663861595.209490) can0 720#052F714007CC0000
(1663861595.215363) can0 720#052F714007BB0000
(1663861595.216561) can0 728#056F714007CC0000
(1663861595.221325) can0 720#052F714007AA0000
(1663861595.226527) can0 728#056F714007AA0000
(1663861595.227466) can0 720#052F714007990000
(1663861595.233883) can0 720#052F714007880000
(1663861595.236630) can0 728#056F714007990000
(1663861595.239988) can0 720#052F714007770000
(1663861595.245917) can0 720#052F714007660000
(1663861595.246862) can0 728#056F714007770000
(1663861595.252316) can0 720#052F714007550000
(1663861595.256531) can0 728#056F714007550000
(1663861595.258326) can0 720#052F714007440000
(1663861595.263741) can0 720#052F714007330000
(1663861595.266521) can0 728#056F714007440000
(1663861595.270068) can0 720#052F714007220000
(1663861595.276345) can0 720#052F714007110000
(1663861595.277293) can0 728#056F714007220000
(1663861595.282236) can0 720#052F714007000000
(1663861595.286532) can0 728#056F714007000000
(1663861596.169751) can0 720#0210870000000000
(1663861596.176667) can0 728#0250870000000000
(1663861596.180541) can0 720#052F714007FF0000
(1663861596.186570) can0 728#056F714007FF0000
(1663861596.191583) can0 720#052F714007EE0000
(1663861596.196579) can0 728#056F714007EE0000
(1663861596.203361) can0 720#052F714007DD0000
(1663861596.207512) can0 728#056F714007DD0000
(1663861596.212016) can0 720#052F714007CC0000
(1663861596.216546) can0 728#056F714007CC0000
(1663861596.218248) can0 720#052F714007BB0000
(1663861596.225090) can0 720#052F714007AA0000
(1663861596.226491) can0 728#056F714007BB0000
(1663861596.231879) can0 720#052F714007990000
(1663861596.236620) can0 728#056F714007990000
(1663861596.238693) can0 720#052F714007880000
(1663861596.245293) can0 720#052F714007770000
(1663861596.246539) can0 728#056F714007880000
(1663861596.252308) can0 720#052F714007660000
(1663861596.256510) can0 728#056F714007660000
(1663861596.259124) can0 720#052F714007550000
(1663861596.265748) can0 720#052F714007440000
(1663861596.266687) can0 728#056F714007550000
(1663861596.272433) can0 720#052F714007330000
(1663861596.276508) can0 728#056F714007330000
(1663861596.279525) can0 720#052F714007220000
(1663861596.285813) can0 720#052F714007110000
(1663861596.286731) can0 728#056F714007220000
(1663861596.292558) can0 720#052F714007000000
(1663861596.296490) can0 728#056F714007000000
(1663861597.231239) can0 720#0210870000000000
(1663861597.236671) can0 728#0250870000000000
(1663861597.243628) can0 720#052F714007FF0000
(1663861597.246602) can0 728#056F714007FF0000
(1663861597.253843) can0 720#052F714007EE0000
(1663861597.256544) can0 728#056F714007EE0000
(1663861597.265017) can0 720#052F714007DD0000
(1663861597.266582) can0 728#056F714007DD0000
(1663861597.274400) can0 720#052F714007CC0000
(1663861597.276550) can0 728#056F714007CC0000
(1663861597.286793) can0 720#052F714007BB0000
(1663861597.293233) can0 720#052F714007AA0000
(1663861597.296474) can0 728#056F714007BB0000
(1663861597.300496) can0 720#052F714007990000
(1663861597.306515) can0 728#056F714007990000
(1663861597.307994) can0 720#052F714007880000
(1663861597.315365) can0 720#052F714007770000
(1663861597.316542) can0 728#056F714007880000
(1663861597.322296) can0 720#052F714007660000
(1663861597.327070) can0 728#056F714007660000
(1663861597.329526) can0 720#052F714007550000
(1663861597.336585) can0 728#056F714007550000
(1663861597.337521) can0 720#052F714007440000
(1663861597.343444) can0 720#052F714007330000
(1663861597.347062) can0 728#056F714007440000
(1663861597.349996) can0 720#052F714007220000
(1663861597.356462) can0 728#056F714007220000
(1663861597.357397) can0 720#052F714007110000
(1663861597.363018) can0 720#052F714007000000
(1663861597.366478) can0 728#056F714007110000
(1663861597.494962) can0 720#0210870000000000
(1663861597.496547) can0 728#0250870000000000
(1663861597.505632) can0 720#052F714007FF0000
(1663861597.515805) can0 720#052F714007EE0000
(1663861597.516774) can0 728#056F714007FF0000
(1663861597.525582) can0 720#052F714007DD0000
(1663861597.535029) can0 720#052F714007CC0000
(1663861597.536698) can0 728#056F714007DD0000
(1663861597.544739) can0 720#052F714007BB0000
(1663861597.546748) can0 728#056F714007BB0000
(1663861597.554400) can0 720#052F714007AA0000
(1663861597.556564) can0 728#056F714007AA0000
(1663861597.564431) can0 720#052F714007990000
(1663861597.566545) can0 728#056F714007990000
(1663861597.574452) can0 720#052F714007880000
(1663861597.576557) can0 728#056F714007880000
(1663861597.584412) can0 720#052F714007770000
(1663861597.586444) can0 728#056F714007770000
(1663861597.589263) can0 720#052F714007660000
(1663861597.593509) can0 720#052F714007550000
(1663861597.596457) can0 728#056F714007660000
(1663861597.597701) can0 720#052F714007440000
(1663861597.604239) can0 720#052F714007330000
(1663861597.606432) can0 728#056F714007440000
(1663861597.607381) can0 720#052F714007220000
(1663861597.611359) can0 720#052F714007110000
(1663861597.615827) can0 720#052F714007000000
(1663861597.616764) can0 728#056F714007220000
(1663861598.207257) can0 720#0210870000000000
(1663861598.211702) can0 720#052F714007FF0000
(1663861598.216195) can0 720#052F714007EE0000
(1663861598.217206) can0 728#0250870000000000
(1663861598.220692) can0 720#052F714007DD0000
(1663861598.225409) can0 720#052F714007CC0000
(1663861598.226475) can0 728#056F714007DD0000
(1663861598.229959) can0 720#052F714007BB0000
(1663861598.234182) can0 720#052F714007AA0000
(1663861598.236542) can0 728#056F714007BB0000
(1663861598.238347) can0 720#052F714007990000
(1663861598.242555) can0 720#052F714007880000
(1663861598.246447) can0 728#056F714007990000
(1663861598.247372) can0 720#052F714007770000
(1663861598.251048) can0 720#052F714007660000
(1663861598.255515) can0 720#052F714007550000
(1663861598.256472) can0 728#056F714007770000
(1663861598.259699) can0 720#052F714007440000
(1663861598.264343) can0 720#052F714007330000
(1663861598.266433) can0 728#056F714007440000
(1663861598.268484) can0 720#052F714007220000
(1663861598.273158) can0 720#052F714007110000
(1663861598.276425) can0 728#056F714007220000
(1663861598.277881) can0 720#052F714007000000
(1663861598.286424) can0 728#056F714007000000
(1663861638.067116) can0 720#0210870000000000
(1663861638.075754) can0 728#0250870000000000
(1663861638.077670) can0 720#052F714007FF0000
(1663861638.085802) can0 728#056F714007FF0000
(1663861638.086716) can0 720#052F714007EE0000
(1663861638.095745) can0 728#056F714007EE0000
(1663861638.097189) can0 720#052F714007DD0000
(1663861638.105748) can0 728#056F714007DD0000
(1663861638.106681) can0 720#052F714007CC0000
(1663861638.115778) can0 728#056F714007CC0000
(1663861638.117196) can0 720#052F714007BB0000
(1663861638.125031) can0 720#052F714007AA0000
(1663861638.125975) can0 728#056F714007BB0000
(1663861638.132869) can0 720#052F714007990000
(1663861638.135839) can0 728#056F714007990000
(1663861638.142524) can0 720#052F714007880000
(1663861638.145717) can0 728#056F714007880000
(1663861638.148604) can0 720#052F714007770000
(1663861638.155667) can0 728#056F714007770000
(1663861638.156595) can0 720#052F714007660000
(1663861638.163722) can0 720#052F714007550000
(1663861638.165691) can0 728#056F714007660000
(1663861638.171428) can0 720#052F714007440000
(1663861638.175712) can0 728#056F714007440000
(1663861638.179096) can0 720#052F714007330000
(1663861638.185681) can0 728#056F714007330000
(1663861638.187186) can0 720#052F714007220000
(1663861638.194880) can0 720#052F714007110000
(1663861638.195834) can0 728#056F714007220000
(1663861638.205444) can0 720#052F714007000000
(1663861638.210621) can0 720#0210870000000000
(1663861638.215679) can0 728#056F714007000000
(1663861638.217296) can0 720#052F714007FF0000
(1663861638.222128) can0 720#052F714007EE0000
(1663861638.225673) can0 728#056F714007FF0000
(1663861638.226789) can0 720#052F714007DD0000
(1663861638.231296) can0 720#052F714007CC0000
(1663861638.236275) can0 720#052F714007BB0000
(1663861638.238213) can0 728#056F714007DD0000
(1663861638.243033) can0 720#052F714007AA0000
(1663861638.245690) can0 728#056F714007AA0000
(1663861638.246631) can0 720#052F714007990000
(1663861638.252495) can0 720#052F714007880000
(1663861638.255632) can0 728#056F714007990000
(1663861638.257654) can0 720#052F714007770000
(1663861638.262228) can0 720#052F714007660000
(1663861638.265629) can0 728#056F714007770000
(1663861638.266568) can0 720#052F714007550000
(1663861638.270508) can0 720#052F714007440000
(1663861638.274613) can0 720#052F714007330000
(1663861638.275665) can0 728#056F714007550000
(1663861638.278735) can0 720#052F714007220000
(1663861638.283222) can0 720#052F714007110000
(1663861638.285628) can0 728#056F714007220000
(1663861638.287248) can0 720#052F714007000000
(1663861638.291740) can0 720#0210870000000000
(1663861638.295601) can0 720#052F714007FF0000
(1663861638.296566) can0 728#056F714007000000
(1663861638.299829) can0 720#052F714007EE0000
(1663861638.304434) can0 720#052F714007DD0000
(1663861638.305627) can0 728#056F714007EE0000
(1663861638.308603) can0 720#052F714007CC0000
(1663861638.313094) can0 720#052F714007BB0000
(1663861638.315637) can0 728#056F714007CC0000
(1663861638.317278) can0 720#052F714007AA0000
(1663861638.321733) can0 720#052F714007990000
(1663861638.325620) can0 728#056F714007AA0000
(1663861638.326566) can0 720#052F714007880000
(1663861638.330487) can0 720#052F714007770000
(1663861638.334956) can0 720#052F714007660000
(1663861638.335937) can0 728#056F714007880000
(1663861638.339152) can0 720#052F714007550000
(1663861638.343722) can0 720#052F714007440000
(1663861638.345656) can0 728#056F714007550000
(1663861638.348053) can0 720#052F714007330000
(1663861638.352325) can0 720#052F714007220000
(1663861638.355625) can0 728#056F714007330000
(1663861638.356825) can0 720#052F714007110000
(1663861638.362499) can0 720#052F714007000000
(1663861638.365621) can0 728#056F714007110000
(1663861638.366597) can0 720#0210870000000000
(1663861638.370506) can0 720#052F714007FF0000
(1663861638.374822) can0 720#052F714007EE0000
(1663861638.375819) can0 728#0250870000000000
(1663861638.378989) can0 720#052F714007DD0000
(1663861638.383037) can0 720#052F714007CC0000
(1663861638.385650) can0 728#056F714007DD0000
(1663861638.387307) can0 720#052F714007BB0000
(1663861638.391508) can0 720#052F714007AA0000
(1663861638.395616) can0 728#056F714007BB0000
(1663861638.396556) can0 720#052F714007990000
(1663861638.400011) can0 720#052F714007880000
(1663861638.404540) can0 720#052F714007770000
(1663861638.405701) can0 728#056F714007990000
(1663861638.409117) can0 720#052F714007660000
(1663861638.413630) can0 720#052F714007550000
(1663861638.415622) can0 728#056F714007660000
(1663861638.418259) can0 720#052F714007440000
(1663861638.422770) can0 720#052F714007330000
(1663861638.425622) can0 728#056F714007440000
(1663861638.427552) can0 720#052F714007220000
(1663861638.431937) can0 720#052F714007110000
(1663861638.436695) can0 720#052F714007000000
(1663861638.438583) can0 728#056F714007220000
(1663861638.442490) can0 720#0210870000000000
(1663861638.445680) can0 728#0250870000000000
(1663861638.446628) can0 720#052F714007FF0000
(1663861638.451437) can0 720#052F714007EE0000
(1663861638.455268) can0 720#052F714007DD0000
(1663861638.456225) can0 728#056F714007FF0000
(1663861638.460058) can0 720#052F714007CC0000
(1663861638.465024) can0 720#052F714007BB0000
(1663861638.465976) can0 728#056F714007CC0000
(1663861638.470514) can0 720#052F714007AA0000
(1663861638.474307) can0 720#052F714007990000
(1663861638.475627) can0 728#056F714007AA0000
(1663861638.478887) can0 720#052F714007880000
(1663861638.483349) can0 720#052F714007770000
(1663861638.485643) can0 728#056F714007880000
(1663861638.488028) can0 720#052F714007660000
(1663861638.492500) can0 720#052F714007550000
(1663861638.495630) can0 728#056F714007660000
(1663861638.497249) can0 720#052F714007440000
(1663861638.502438) can0 720#052F714007330000
(1663861638.505608) can0 728#056F714007440000
(1663861638.506552) can0 720#052F714007220000
(1663861638.510573) can0 720#052F714007110000
(1663861638.514980) can0 720#052F714007000000
(1663861638.515929) can0 728#056F714007220000
(1663861638.519347) can0 720#0210870000000000
(1663861638.523556) can0 720#052F714007FF0000
(1663861638.525643) can0 728#0250870000000000
(1663861638.527887) can0 720#052F714007EE0000
(1663861638.532006) can0 720#052F714007DD0000
(1663861638.535988) can0 728#056F714007EE0000
(1663861638.537951) can0 720#052F714007CC0000
(1663861638.542876) can0 720#052F714007BB0000
(1663861638.545167) can0 720#052F714007AA0000
(1663861638.546120) can0 728#056F714007CC0000
(1663861638.549511) can0 720#052F714007990000
(1663861638.553742) can0 720#052F714007880000
(1663861638.555640) can0 728#056F714007990000
(1663861638.558051) can0 720#052F714007770000
(1663861638.562242) can0 720#052F714007660000
(1663861638.565634) can0 728#056F714007770000
(1663861638.566574) can0 720#052F714007550000
(1663861638.570603) can0 720#052F714007440000
(1663861638.574986) can0 720#052F714007330000
(1663861638.575954) can0 728#056F714007550000
(1663861638.579313) can0 720#052F714007220000
(1663861638.583661) can0 720#052F714007110000
(1663861638.585628) can0 728#056F714007220000
(1663861638.587981) can0 720#052F714007000000
(1663861638.592053) can0 720#0210870000000000
(1663861638.595626) can0 728#056F714007000000
(1663861638.597553) can0 720#052F714007FF0000
(1663861638.602440) can0 720#052F714007EE0000
(1663861638.605627) can0 728#056F714007FF0000
(1663861638.606568) can0 720#052F714007DD0000
(1663861638.612504) can0 720#052F714007CC0000
(1663861638.615438) can0 720#052F714007BB0000
(1663861638.617400) can0 728#056F714007DD0000
(1663861638.620495) can0 720#052F714007AA0000
(1663861638.624423) can0 720#052F714007990000
(1663861638.625632) can0 728#056F714007AA0000
(1663861638.629047) can0 720#052F714007880000
(1663861638.633485) can0 720#052F714007770000
(1663861638.635831) can0 728#056F714007880000
(1663861638.638758) can0 720#052F714007660000
(1663861638.644522) can0 720#052F714007550000
(1663861638.645675) can0 728#056F714007660000
(1663861638.647762) can0 720#052F714007440000
(1663861638.652602) can0 720#052F714007330000
(1663861638.655614) can0 728#056F714007440000
(1663861638.657086) can0 720#052F714007220000
(1663861638.661620) can0 720#052F714007110000
(1663861638.665643) can0 728#056F714007220000
(1663861638.666593) can0 720#052F714007000000
(1663861638.675628) can0 728#056F714007000000
(1663861640.413509) can0 720#0210870000000000
(1663861640.415689) can0 728#0250870000000000
(1663861640.424283) can0 720#052F714007FF0000
(1663861640.425708) can0 728#056F714007FF0000
(1663861640.435809) can0 720#052F714007EE0000
(1663861640.446638) can0 728#056F714007EE0000
(1663861640.448536) can0 720#052F714007DD0000
(1663861640.456121) can0 728#056F714007DD0000
(1663861640.459513) can0 720#052F714007CC0000
(1663861640.465710) can0 728#056F714007CC0000
(1663861640.471955) can0 720#052F714007BB0000
(1663861640.475717) can0 728#056F714007BB0000
(1663861640.484857) can0 720#052F714007AA0000
(1663861640.495655) can0 728#056F714007AA0000
(1663861640.496567) can0 720#052F714007990000
(1663861640.503395) can0 720#052F714007880000
(1663861640.505568) can0 728#056F714007990000
(1663861640.506514) can0 720#052F714007770000
(1663861640.510937) can0 720#052F714007660000
(1663861640.515583) can0 728#056F714007770000
(1663861640.517854) can0 720#052F714007550000
(1663861640.524378) can0 720#052F714007440000
(1663861640.525575) can0 728#056F714007550000
(1663861640.532360) can0 720#052F714007330000
(1663861640.535495) can0 720#052F714007220000
(1663861640.536432) can0 728#056F714007330000
(1663861640.540628) can0 720#052F714007110000
(1663861640.545720) can0 728#056F714007110000
(1663861640.547664) can0 720#052F714007000000
(1663861640.551409) can0 720#0210870000000000
(1663861640.555433) can0 720#052F714007FF0000
(1663861640.556387) can0 728#056F714007000000
(1663861640.562175) can0 720#052F714007EE0000
(1663861640.565588) can0 728#056F714007EE0000
(1663861640.568663) can0 720#052F714007DD0000
(1663861640.573456) can0 720#052F714007CC0000
(1663861640.575593) can0 728#056F714007DD0000
(1663861640.580388) can0 720#052F714007BB0000
(1663861640.584380) can0 720#052F714007AA0000
(1663861640.585573) can0 728#056F714007BB0000
(1663861640.588473) can0 720#052F714007990000
(1663861640.592839) can0 720#052F714007880000
(1663861640.595581) can0 728#056F714007990000
(1663861640.597531) can0 720#052F714007770000
(1663861640.602406) can0 720#052F714007660000
(1663861640.605585) can0 728#056F714007770000
(1663861640.607897) can0 720#052F714007550000
(1663861640.615213) can0 720#052F714007440000
(1663861640.616157) can0 728#056F714007550000
(1663861640.622535) can0 720#052F714007330000
(1663861640.625581) can0 728#056F714007330000
(1663861640.628574) can0 720#052F714007220000
(1663861640.633970) can0 720#052F714007110000
(1663861640.635772) can0 728#056F714007220000
(1663861640.638216) can0 720#052F714007000000
(1663861640.643718) can0 720#0210870000000000
(1663861640.645617) can0 728#056F714007000000
(1663861640.648528) can0 720#052F714007FF0000
(1663861640.652467) can0 720#052F714007EE0000
(1663861640.655616) can0 728#056F714007FF0000
(1663861640.656999) can0 720#052F714007DD0000
(1663861640.661798) can0 720#052F714007CC0000
(1663861640.665601) can0 728#056F714007DD0000
(1663861640.666541) can0 720#052F714007BB0000
(1663861640.670827) can0 720#052F714007AA0000
(1663861640.675198) can0 720#052F714007990000
(1663861640.676199) can0 728#056F714007BB0000
(1663861640.679542) can0 720#052F714007880000
(1663861640.683674) can0 720#052F714007770000
(1663861640.685592) can0 728#056F714007880000
(1663861640.688328) can0 720#052F714007660000
(1663861640.692394) can0 720#052F714007550000
(1663861640.695574) can0 728#056F714007660000
(1663861640.697536) can0 720#052F714007440000
(1663861640.702381) can0 720#052F714007330000
(1663861640.708202) can0 720#052F714007220000
(1663861640.709145) can0 728#056F714007440000
(1663861640.711086) can0 720#052F714007110000
(1663861640.714318) can0 720#052F714007000000
(1663861640.715575) can0 728#056F714007110000
(1663861640.718558) can0 720#0210870000000000
(1663861640.722924) can0 720#052F714007FF0000
(1663861640.725601) can0 728#0250870000000000
(1663861640.727412) can0 720#052F714007EE0000
(1663861640.731459) can0 720#052F714007DD0000
(1663861640.735696) can0 728#056F714007EE0000
(1663861640.736652) can0 720#052F714007CC0000
(1663861640.740017) can0 720#052F714007BB0000
(1663861640.744685) can0 720#052F714007AA0000
(1663861640.745613) can0 728#056F714007CC0000
(1663861640.748849) can0 720#052F714007990000
(1663861640.753485) can0 720#052F714007880000
(1663861640.756361) can0 728#056F714007990000
(1663861640.758201) can0 720#052F714007770000
(1663861640.762555) can0 720#052F714007660000
(1663861640.765605) can0 728#056F714007770000
(1663861640.767415) can0 720#052F714007550000
(1663861640.771984) can0 720#052F714007440000
(1663861640.775580) can0 728#056F714007550000
(1663861640.776692) can0 720#052F714007330000
(1663861640.781271) can0 720#052F714007220000
(1663861640.785584) can0 728#056F714007330000
(1663861640.786502) can0 720#052F714007110000
(1663861640.790278) can0 720#052F714007000000
(1663861640.794759) can0 720#0210870000000000
(1663861640.795710) can0 728#056F714007110000
(1663861640.799347) can0 720#052F714007FF0000
(1663861640.804227) can0 720#052F714007EE0000
(1663861640.805589) can0 728#056F714007FF0000
(1663861640.808737) can0 720#052F714007DD0000
(1663861640.813244) can0 720#052F714007CC0000
(1663861640.815599) can0 728#056F714007DD0000
(1663861640.817799) can0 720#052F714007BB0000
(1663861640.822203) can0 720#052F714007AA0000
(1663861640.825583) can0 728#056F714007BB0000
(1663861640.826722) can0 720#052F714007990000
(1663861640.831289) can0 720#052F714007880000
(1663861640.835691) can0 720#052F714007770000
(1663861640.836625) can0 728#056F714007990000
(1663861640.841446) can0 720#052F714007660000
(1663861640.845375) can0 720#052F714007550000
(1663861640.847263) can0 728#056F714007660000
(1663861640.850221) can0 720#052F714007440000
(1663861640.855041) can0 720#052F714007330000
(1663861640.855972) can0 728#056F714007440000
(1663861640.859559) can0 720#052F714007220000
(1663861640.864496) can0 720#052F714007110000
(1663861640.865629) can0 728#056F714007220000
(1663861640.869266) can0 720#052F714007000000
(1663861640.873909) can0 720#0210870000000000
(1663861640.875603) can0 728#056F714007000000
(1663861640.878534) can0 720#052F714007FF0000
(1663861640.883239) can0 720#052F714007EE0000
(1663861640.885588) can0 728#056F714007FF0000
(1663861640.887934) can0 720#052F714007DD0000
(1663861640.892541) can0 720#052F714007CC0000
(1663861640.895592) can0 728#056F714007DD0000
(1663861640.897541) can0 720#052F714007BB0000
(1663861640.902387) can0 720#052F714007AA0000
(1663861640.905626) can0 728#056F714007BB0000
(1663861640.906703) can0 720#052F714007990000
(1663861640.911398) can0 720#052F714007880000
(1663861640.915579) can0 728#056F714007990000
(1663861640.916505) can0 720#052F714007770000
(1663861640.921421) can0 720#052F714007660000
(1663861640.925207) can0 720#052F714007550000
(1663861640.926146) can0 728#056F714007770000
(1663861640.929946) can0 720#052F714007440000
(1663861640.934363) can0 720#052F714007330000
(1663861640.935679) can0 728#056F714007440000
(1663861640.938971) can0 720#052F714007220000
(1663861640.943400) can0 720#052F714007110000
(1663861640.945595) can0 728#056F714007220000
(1663861640.948048) can0 720#052F714007000000
(1663861640.952734) can0 720#0210870000000000
(1663861640.955580) can0 728#056F714007000000
(1663861640.957471) can0 720#052F714007FF0000
(1663861640.961907) can0 720#052F714007EE0000
(1663861640.965605) can0 728#056F714007FF0000
(1663861640.966801) can0 720#052F714007DD0000
(1663861640.971259) can0 720#052F714007CC0000
(1663861640.975613) can0 728#056F714007DD0000
(1663861640.976550) can0 720#052F714007BB0000
(1663861640.981417) can0 720#052F714007AA0000
(1663861640.985432) can0 720#052F714007990000
(1663861640.986375) can0 728#056F714007BB0000
(1663861640.989895) can0 720#052F714007880000
(1663861640.994512) can0 720#052F714007770000
(1663861640.995635) can0 728#056F714007880000
(1663861640.999160) can0 720#052F714007660000
(1663861641.003842) can0 720#052F714007550000
(1663861641.005575) can0 728#056F714007660000
(1663861641.008416) can0 720#052F714007440000
(1663861641.013247) can0 720#052F714007330000
(1663861641.015575) can0 728#056F714007440000
(1663861641.017621) can0 720#052F714007220000
(1663861641.022038) can0 720#052F714007110000
(1663861641.025570) can0 728#056F714007220000
(1663861641.026922) can0 720#052F714007000000
(1663861641.035672) can0 728#056F714007000000
(1663861642.312575) can0 720#0210870000000000
(1663861642.315657) can0 728#0250870000000000
(1663861642.322870) can0 720#052F714007FF0000
(1663861642.325646) can0 728#056F714007FF0000
(1663861642.334881) can0 720#052F714007EE0000
(1663861642.345658) can0 728#056F714007EE0000
(1663861642.346572) can0 720#052F714007DD0000
(1663861642.355667) can0 728#056F714007DD0000
(1663861642.358450) can0 720#052F714007CC0000
(1663861642.365662) can0 728#056F714007CC0000
(1663861642.373459) can0 720#052F714007BB0000
(1663861642.375623) can0 728#056F714007BB0000
(1663861642.387236) can0 720#052F714007AA0000
(1663861642.395646) can0 728#056F714007AA0000
(1663861642.402432) can0 720#052F714007990000
(1663861642.405560) can0 728#056F714007990000
(1663861642.414170) can0 720#052F714007880000
(1663861642.415581) can0 728#056F714007880000
(1663861642.421395) can0 720#052F714007770000
(1663861642.425544) can0 728#056F714007770000
(1663861642.426713) can0 720#052F714007660000
(1663861642.432470) can0 720#052F714007550000
(1663861642.435670) can0 728#056F714007660000
(1663861642.437212) can0 720#052F714007440000
(1663861642.442024) can0 720#052F714007330000
(1663861642.446199) can0 728#056F714007440000
(1663861642.448072) can0 720#052F714007220000
(1663861642.454178) can0 720#052F714007110000
(1663861642.455525) can0 728#056F714007220000
(1663861642.460440) can0 720#052F714007000000
(1663861642.465184) can0 720#0210870000000000
(1663861642.466130) can0 728#056F714007000000
(1663861642.470612) can0 720#052F714007FF0000
(1663861642.475551) can0 728#056F714007FF0000
(1663861642.476495) can0 720#052F714007EE0000
(1663861642.480033) can0 720#052F714007DD0000
(1663861642.485542) can0 728#056F714007EE0000
(1663861642.486489) can0 720#052F714007CC0000
(1663861642.491654) can0 720#052F714007BB0000
(1663861642.495551) can0 728#056F714007CC0000
(1663861642.497097) can0 720#052F714007AA0000
(1663861642.504678) can0 720#052F714007990000
(1663861642.505624) can0 728#056F714007AA0000
(1663861642.510717) can0 720#052F714007880000
(1663861642.515586) can0 728#056F714007880000
(1663861642.516528) can0 720#052F714007770000
(1663861642.520040) can0 720#052F714007660000
(1663861642.524631) can0 720#052F714007550000
(1663861642.525591) can0 728#056F714007770000
(1663861642.528877) can0 720#052F714007440000
(1663861642.533361) can0 720#052F714007330000
(1663861642.535695) can0 728#056F714007440000
(1663861642.537997) can0 720#052F714007220000
(1663861642.542311) can0 720#052F714007110000
(1663861642.546026) can0 728#056F714007220000
(1663861642.547949) can0 720#052F714007000000
(1663861642.552853) can0 720#0210870000000000
(1663861642.555561) can0 728#056F714007000000
(1663861642.556502) can0 720#052F714007FF0000
(1663861642.559863) can0 720#052F714007EE0000
(1663861642.564162) can0 720#052F714007DD0000
(1663861642.565560) can0 728#056F714007FF0000
(1663861642.568823) can0 720#052F714007CC0000
(1663861642.573247) can0 720#052F714007BB0000
(1663861642.575544) can0 728#056F714007CC0000
(1663861642.577876) can0 720#052F714007AA0000
(1663861642.582020) can0 720#052F714007990000
(1663861642.585532) can0 728#056F714007AA0000
(1663861642.586481) can0 720#052F714007880000
(1663861642.590536) can0 720#052F714007770000
(1663861642.594983) can0 720#052F714007660000
(1663861642.595965) can0 728#056F714007880000
(1663861642.599145) can0 720#052F714007550000
(1663861642.603553) can0 720#052F714007440000
(1663861642.605535) can0 728#056F714007550000
(1663861642.607788) can0 720#052F714007330000
(1663861642.612791) can0 720#052F714007220000
(1663861642.615735) can0 728#056F714007330000
(1663861642.616812) can0 720#052F714007110000
(1663861642.621635) can0 720#052F714007000000
(1663861642.625583) can0 720#0210870000000000
(1663861642.626545) can0 728#056F714007110000
(1663861642.629778) can0 720#052F714007FF0000
(1663861642.633944) can0 720#052F714007EE0000
(1663861642.635759) can0 728#056F714007FF0000
(1663861642.638206) can0 720#052F714007DD0000
(1663861642.642432) can0 720#052F714007CC0000
(1663861642.646385) can0 728#056F714007DD0000
(1663861642.648267) can0 720#052F714007BB0000
(1663861642.653151) can0 720#052F714007AA0000
(1663861642.655532) can0 728#056F714007BB0000
(1663861642.656467) can0 720#052F714007990000
(1663861642.661400) can0 720#052F714007880000
(1663861642.665543) can0 728#056F714007990000
(1663861642.666490) can0 720#052F714007770000
(1663861642.670611) can0 720#052F714007660000
(1663861642.674238) can0 720#052F714007550000
(1663861642.675539) can0 728#056F714007770000
(1663861642.678618) can0 720#052F714007440000
(1663861642.682630) can0 720#052F714007330000
(1663861642.685551) can0 728#056F714007440000
(1663861642.686742) can0 720#052F714007220000
(1663861642.691340) can0 720#052F714007110000
(1663861642.695565) can0 728#056F714007220000
(1663861642.696496) can0 720#052F714007000000
(1663861642.700062) can0 720#0210870000000000
(1663861642.704547) can0 720#052F714007FF0000
(1663861642.705576) can0 728#056F714007000000
(1663861642.711479) can0 720#052F714007EE0000
(1663861642.713092) can0 720#052F714007DD0000
