(1662865315.785736) can0 7A6#0285020000000000
(1662865315.788401) can0 781#0285020000000000
(1662865315.790817) can0 726#0285020000000000
(1662865315.793226) can0 767#0285020000000000
(1662865315.794535) can0 7AE#02C5020000000000
(1662865315.795695) can0 727#0285020000000000
(1662865315.800680) can0 72E#02C5020000000000
(1662865315.803288) can0 72F#02C5020000000000
(1662865315.808735) can0 789#02C5020000000000
(1662865315.811629) can0 76F#037F852200000000
(1662865315.851848) can0 720#0322E6F300000000
(1662865315.853815) can0 728#0462E6F30A000000
(1662865315.856859) can0 720#0322020000000000
(1662865315.864036) can0 728#0462020003000000
(1662865315.895773) can0 720#0331020000000000
(1662865315.904033) can0 728#0271020000000000
(1662865316.928953) can0 720#0233020000000000
(1662865316.973773) can0 728#037F337800000000
(1662865317.849646) can0 7A6#0285020000000000
(1662865317.852164) can0 727#0285020000000000
(1662865317.854352) can0 72F#02C5020000000000
(1662865317.855316) can0 767#0285020000000000
(1662865317.856277) can0 7AE#02C5020000000000
(1662865317.857996) can0 726#0285020000000000
(1662865317.860936) can0 781#0285020000000000
(1662865317.862768) can0 72E#02C5020000000000
(1662865317.871697) can0 76F#037F852200000000
(1662865317.878790) can0 789#02C5020000000000
(1662865319.949962) can0 7A6#0285020000000000
(1662865319.952655) can0 727#0285020000000000
(1662865319.954629) can0 7AE#02C5020000000000
(1662865319.955609) can0 781#0285020000000000
(1662865319.957993) can0 767#0285020000000000
(1662865319.960923) can0 726#0285020000000000
(1662865319.961891) can0 72F#02C5020000000000
(1662865319.965128) can0 72E#02C5020000000000
(1662865319.968798) can0 789#02C5020000000000
(1662865319.971687) can0 76F#037F852200000000
(1662865320.633761) can0 728#0373020000000000
(1662865320.966256) can0 720#041800FF00000000
(1662865320.973890) can0 728#100B5803950360C0
(1662865320.974996) can0 720#3000000000000000
(1662865320.978645) can0 728#211120C002200000
(1662865352.699874) can0 720#0322E6F300000000
(1662865352.703037) can0 728#0462E6F30A000000
(1662865352.706357) can0 720#0322020000000000
(1662865352.713075) can0 728#0462020003000000
(1662865352.746302) can0 720#0314FF0000000000
(1662865352.793031) can0 728#0354FF0000000000
(1662865355.127308) can0 720#041800FF00000000
(1662865355.133223) can0 728#0258000000000000
(1662865404.074314) can0 781#0285020000000000
(1662865404.076144) can0 7A6#0285020000000000
(1662865404.077940) can0 726#0285020000000000
(1662865404.078892) can0 7AE#02C5020000000000
(1662865404.079858) can0 767#0285020000000000
(1662865404.080833) can0 72E#02C5020000000000
(1662865404.081803) can0 727#0285020000000000
(1662865404.090261) can0 72F#02C5020000000000
(1662865404.091492) can0 789#02C5020000000000
(1662865404.094378) can0 76F#037F852200000000
(1662865404.149775) can0 720#0322E6F300000000
(1662865404.152874) can0 728#0462E6F30A000000
(1662865404.155504) can0 720#0322020000000000
(1662865404.162812) can0 728#0462020000000000
(1662865404.195898) can0 720#0331020000000000
(1662865404.202982) can0 728#0271020000000000
(1662865405.212771) can0 720#0233020000000000
(1662865405.262266) can0 728#037F337800000000
(1662865406.129696) can0 726#0285020000000000
(1662865406.131465) can0 72E#02C5020000000000
(1662865406.132430) can0 767#0285020000000000
(1662865406.134286) can0 727#0285020000000000
(1662865406.136211) can0 7A6#0285020000000000
(1662865406.138041) can0 781#0285020000000000
(1662865406.142152) can0 72F#02C5020000000000
(1662865406.143494) can0 76F#037F852200000000
(1662865406.149662) can0 7AE#02C5020000000000
(1662865406.150648) can0 789#02C5020000000000
(1662865408.226948) can0 726#0285020000000000
(1662865408.230023) can0 781#0285020000000000
(1662865408.232814) can0 767#0285020000000000
(1662865408.234758) can0 72E#02C5020000000000
(1662865408.235736) can0 7A6#0285020000000000
(1662865408.237776) can0 727#0285020000000000
(1662865408.244786) can0 72F#02C5020000000000
(1662865408.249814) can0 7AE#02C5020000000000
(1662865408.250783) can0 789#02C5020000000000
(1662865408.252764) can0 76F#037F852200000000
(1662865408.920690) can0 728#0373020000000000
(1662865409.259630) can0 720#041800FF00000000
(1662865409.270839) can0 728#0258000000000000
(1662865425.498204) can0 720#0322E6F300000000
(1662865425.503916) can0 728#0462E6F30A000000
(1662865425.507999) can0 720#0322020000000000
(1662865425.513973) can0 728#0462020000000000
(1662865425.544443) can0 720#0314FF0000000000
(1662865425.573878) can0 728#0354FF0000000000
(1662865427.917437) can0 720#041800FF00000000
(1662865427.923200) can0 728#0258000000000000
