(1662865836.601791) can0 7A6#0285020000000000
(1662865836.603111) can0 7AE#02C5020000000000

(1662865836.604811) can0 726#0285020000000000
(1662865836.615701) can0 72E#02C5020000000000

(1662865836.607777) can0 781#0285020000000000
(1662865836.623080) can0 789#02C5020000000000

(1662865836.610713) can0 767#0285020000000000
(1662865836.626629) can0 76F#037F852200000000

(1662865836.613671) can0 727#0285020000000000
(1662865836.621781) can0 72F#02C5020000000000

(1662865836.617333) can0 720#0285020000000000
(1662865836.625670) can0 728#02C5020000000000


(1662865896.969168) can0 7A6#0322D10000000000
(1662865896.972022) can0 7AE#0462D10081000000

(1662865897.013433) can0 7A6#0210870000000000
(1662865897.022043) can0 7AE#0250870000000000

(1662865897.025499) can0 7A6#0227010000000000
(1662865897.058429) can0 7AE#0567011575320000
(1662865897.061931) can0 7A6#05270232EAEB0000
(1662865897.082962) can0 7AE#0267020000000000

(1662865897.087345) can0 7A6#033B011600000000
(1662865897.112038) can0 7AE#027B010000000000

(1662865898.133800) can0 7A6#0221010000000000
(1662865898.142769) can0 7AE#0361011600000000

(1662865898.151074) can0 7A6#0210810000000000
(1662865898.172766) can0 7AE#0250810000000000

(1662865898.176392) can0 7A6#0314FF0000000000
(1662865898.202832) can0 7AE#0354FF0000000000

(1662865904.213937) can0 7A6#041800FF00000000
(1662865904.216808) can0 7AE#0258000000000000

(1662865998.766518) can0 727#0322D10000000000
(1662865998.774283) can0 72F#0462D10081000000

(1662865998.821326) can0 727#0227010000000000
(1662865998.824110) can0 72F#037F272200000000
(1662865999.833538) can0 727#0227010000000000
(1662865999.836119) can0 72F#037F272200000000
(1662866000.846175) can0 727#0227010000000000
(1662866000.848163) can0 72F#037F272200000000
(1662866001.858637) can0 727#0227010000000000
(1662866001.868257) can0 72F#037F272200000000

(1662866002.879541) can0 727#053B00D354F30000
(1662866002.882944) can0 72F#027B000000000000

(1662866003.894245) can0 727#0221000000000000
(1662866003.903998) can0 72F#056100D354F30000

(1662866003.913176) can0 727#0314FF0000000000
(1662866003.933650) can0 72F#0354FF0000000000

(1662866009.947265) can0 727#041800FF00000000
(1662866009.951341) can0 72F#0258000000000000

(1662866554.110468) can0 727#0322E6F300000000
(1662866554.121684) can0 72F#0462E6F30C000000

(1662866554.126957) can0 727#0314FF0000000000
(1662866554.151739) can0 72F#0354FF0000000000

(1662866556.446366) can0 767#0322E6F300000000
(1662866556.464423) can0 76F#0462E6F30C000000

(1662866556.469033) can0 767#0314FF0000000000
(1662866556.520438) can0 76F#0354FF0000000000

(1662866558.806171) can0 726#0322E6F300000000
(1662866558.812620) can0 72E#0462E6F30C000000

(1662866558.818070) can0 726#0314FF0000000000
(1662866558.822773) can0 72E#0354FF0000000000

(1662866561.641036) can0 781#0322E6F300000000
(1662866561.664233) can0 789#0462E6F30C000000

(1662866561.669288) can0 781#0314FF0000000000
(1662866561.703932) can0 789#0354FF0000000000
(1662866566.678608) can0 7A6#0322E6F300000000
(1662866566.689494) can0 7AE#0462E6F30C000000
(1662866566.694962) can0 7A6#0314FF0000000000
(1662866566.719440) can0 7AE#0354FF0000000000
(1662866569.008817) can0 720#0322E6F300000000
(1662866569.012604) can0 728#0462E6F30A000000
(1662866569.017258) can0 720#0314FF0000000000
(1662866569.042530) can0 728#0354FF0000000000
(1662866571.331406) can0 736#0322E6F300000000
(1662866571.337416) can0 73E#0462E6F30C000000
(1662866571.341889) can0 736#0314FF0000000000
(1662866571.379382) can0 73E#037F147800000000
(1662866572.032972) can0 73E#0354FF0000000000
(1662866646.414191) can0 767#0322D10000000000
(1662866646.431349) can0 76F#0462D10081000000
(1662866646.438421) can0 767#0322E61000000000
(1662866646.451324) can0 76F#101B62E610385232
(1662866646.452394) can0 767#3000000000000000
(1662866646.471297) can0 76F#21392D3134463032
(1662866646.491778) can0 76F#22372D4141000000
(1662866646.511363) can0 76F#2300000000000000
(1662866646.555886) can0 767#0210870000000000
(1662866646.571338) can0 76F#0250870000000000
(1662866646.575987) can0 767#0227010000000000
(1662866646.591371) can0 76F#056701C8C8DF0000
(1662866646.594899) can0 767#0527025F50220000
(1662866646.611338) can0 76F#0267020000000000
(1662866646.614732) can0 767#10133B0036465041
(1662866646.615771) can0 76F#3008280000000000
(1662866646.616802) can0 767#2141414A47535739
(1662866646.657785) can0 767#2245383631303100
(1662866646.684355) can0 76F#027B000000000000
(1662866647.699367) can0 767#0221000000000000
(1662866647.714372) can0 76F#1013610036465041
(1662866647.716341) can0 767#3000000000000000
(1662866647.734313) can0 76F#2141414A47535739
(1662866647.754310) can0 76F#2245383631303100
(1662866647.757833) can0 767#0314FF0000000000
(1662866647.810360) can0 76F#0354FF0000000000
(1662866653.816450) can0 767#041800FF00000000
(1662866653.830500) can0 76F#0258000000000000
(1662866717.877181) can0 781#0322D10000000000
(1662866717.896194) can0 789#0462D10081000000
(1662866717.899753) can0 781#0322E61000000000
(1662866717.916167) can0 789#101B62E610385232
(1662866717.918164) can0 781#3000000000000000
(1662866717.936125) can0 789#21392D3134443530
(1662866717.956187) can0 789#22392D4341000000
(1662866717.976217) can0 789#2300000000000000
(1662866718.016838) can0 781#0210870000000000
(1662866718.036198) can0 789#0250870000000000
(1662866718.039767) can0 781#0227010000000000
(1662866718.056171) can0 789#0567012A0B270000
(1662866718.059672) can0 781#052702E608460000
(1662866718.076195) can0 789#0267020000000000
(1662866718.081183) can0 781#10133B0036465041
(1662866718.082231) can0 789#3008280000000000
(1662866718.083294) can0 781#2141414A47535739
(1662866718.124275) can0 781#2245383631303100
(1662866718.151463) can0 789#027B000000000000
(1662866719.169708) can0 781#0221000000000000
(1662866719.189207) can0 789#1013610036465041
(1662866719.190320) can0 781#3000000000000000
(1662866719.209677) can0 789#2141414A47535739
(1662866719.229184) can0 789#2245383631303100
(1662866719.232703) can0 781#0314FF0000000000
(1662866719.271196) can0 789#0354FF0000000000
(1662866725.279260) can0 781#041800FF00000000
(1662866725.292346) can0 789#0258000000000000
(1662866798.048909) can0 727#0322D10000000000
(1662866798.054260) can0 72F#0462D10081000000
(1662866798.097547) can0 727#0210870000000000
(1662866798.103790) can0 72F#0250870000000000
(1662866798.107832) can0 727#0227010000000000
(1662866798.134598) can0 72F#056701B3CF820000
(1662866798.138067) can0 727#05270289D2F30000
(1662866798.163896) can0 72F#0267020000000000
(1662866798.175937) can0 727#053B00D354F30000
(1662866798.193663) can0 72F#027B000000000000
(1662866799.200905) can0 727#0221000000000000
(1662866799.206523) can0 72F#056100D354F30000
(1662866799.213531) can0 727#10133B0136465041
(1662866799.214693) can0 72F#3000000000000000
(1662866799.215730) can0 727#2141414A47535739
(1662866799.216691) can0 727#2245383631303100
(1662866799.235972) can0 72F#027B010000000000
(1662866800.243979) can0 727#0221010000000000
(1662866800.250011) can0 72F#1013610136465041
(1662866800.251117) can0 727#3000000000000000
(1662866800.279416) can0 72F#2141414A47535739
(1662866800.309526) can0 72F#2245383631303100
(1662866800.313011) can0 727#063B021450441900
(1662866800.344483) can0 72F#027B020000000000
(1662866801.352500) can0 727#0221020000000000
(1662866801.361512) can0 72F#0661021450441900
(1662866801.367223) can0 727#10103B0352660A0A
(1662866801.368388) can0 72F#3000000000000000
(1662866801.369441) can0 727#210A0A0A09090402
(1662866801.370434) can0 727#2231C40400000000
(1662866801.393010) can0 72F#027B030000000000
(1662866802.407775) can0 727#0221030000000000
(1662866802.417264) can0 72F#1010610352660A0A
(1662866802.419242) can0 727#3000000000000000
(1662866802.445972) can0 72F#210A0A0A09090402
(1662866802.476132) can0 72F#2231C40400000000
(1662866802.479511) can0 727#10083B0400081B34
(1662866802.480667) can0 72F#3000000000000000
(1662866802.481746) can0 727#21537A0000000000
(1662866802.506374) can0 72F#027B040000000000
(1662866803.526163) can0 727#0221040000000000
(1662866803.536446) can0 72F#1008610400081B34
(1662866803.538506) can0 727#3000000000000000
(1662866803.567469) can0 72F#21537A0000000000
(1662866803.571016) can0 727#100E3B0500420020
(1662866803.572175) can0 72F#3000000000000000
(1662866803.573242) can0 727#210069009000A000
(1662866803.574254) can0 727#22C8000000000000
(1662866803.597592) can0 72F#027B050000000000
(1662866804.619005) can0 727#0221050000000000
(1662866804.628996) can0 72F#100E610500420020
(1662866804.630106) can0 727#3000000000000000
(1662866804.659031) can0 72F#210069009000A000
(1662866804.689118) can0 72F#22C8000000000000
(1662866804.693997) can0 727#100E3B060036003E
(1662866804.695156) can0 72F#3000000000000000
(1662866804.696219) can0 727#210062004600A000
(1662866804.697243) can0 727#22C8000000000000
(1662866804.718778) can0 72F#027B060000000000
(1662866805.722717) can0 727#0221060000000000
(1662866805.732482) can0 72F#100E61060036003E
(1662866805.733592) can0 727#3000000000000000
(1662866805.761325) can0 72F#210062004600A000
(1662866805.791268) can0 72F#22C8000000000000
(1662866805.795051) can0 727#0210810000000000
(1662866805.821143) can0 72F#0250810000000000
(1662866805.824906) can0 727#0314FF0000000000
(1662866805.851245) can0 72F#0354FF0000000000
(1662866811.858511) can0 727#041800FF00000000
(1662866811.860736) can0 72F#0258000000000000
(1662866863.445844) can0 7A6#0322D10000000000
(1662866863.448932) can0 7AE#0462D10081000000
(1662866863.494987) can0 7A6#0210870000000000
(1662866863.498913) can0 7AE#0250870000000000
(1662866863.502923) can0 7A6#0227010000000000
(1662866863.528840) can0 7AE#0567019A7B380000
(1662866863.531927) can0 7A6#05270267D14F0000
(1662866863.558849) can0 7AE#0267020000000000
(1662866863.562517) can0 7A6#10133B0036465041
(1662866863.563542) can0 7AE#300A000000000000
(1662866863.564574) can0 7A6#2141414A47535739
(1662866863.565531) can0 7A6#2245383631303100
(1662866863.588855) can0 7AE#027B000000000000
(1662866864.603659) can0 7A6#0221000000000000
(1662866864.608956) can0 7AE#1013610036465041
(1662866864.610043) can0 7A6#3000000000000000
(1662866864.619002) can0 7AE#2141414A47535739
(1662866864.628887) can0 7AE#2245383631303100
(1662866864.632282) can0 7A6#033B011600000000
(1662866864.658892) can0 7AE#027B010000000000
(1662866865.663006) can0 7A6#0221010000000000
(1662866865.674858) can0 7AE#0361011600000000
(1662866865.678805) can0 7A6#0314FF0000000000
(1662866865.698952) can0 7AE#0354FF0000000000
(1662866871.719657) can0 7A6#041800FF00000000
(1662866871.729320) can0 7AE#0258000000000000
(1662866890.572949) can0 726#0210870000000000
(1662866890.580865) can0 72E#0250870000000000
(1662866890.584672) can0 726#10133B0136465041
(1662866890.591238) can0 72E#300A140000000000
(1662866890.592286) can0 726#2141414A47535739
(1662866890.613255) can0 726#2245383631303100
(1662866890.620976) can0 72E#027B010000000000
(1662866891.132702) can0 726#0221010000000000
(1662866891.141525) can0 72E#1013610136465041
(1662866891.142634) can0 726#3000000000000000
(1662866891.151421) can0 72E#2141414A47535739
(1662866891.161483) can0 72E#2245383631303100
(1662866891.201171) can0 726#043B023743000000
(1662866891.211587) can0 72E#027B020000000000
(1662866891.741618) can0 726#043B037004000000
(1662866891.752194) can0 72E#027B030000000000
(1662866892.271936) can0 726#100C3B040443FCFC
(1662866892.282744) can0 72E#300A140000000000
(1662866892.283820) can0 726#21FC040404400000
(1662866892.292914) can0 72E#027B040000000000
(1662866892.824879) can0 726#033B057700000000
(1662866892.833447) can0 72E#027B050000000000
(1662866893.386920) can0 726#033B060000000000
(1662866893.394038) can0 72E#027B060000000000
(1662866893.916134) can0 726#0210810000000000
(1662866893.925880) can0 72E#0250810000000000
(1662866893.959180) can0 726#103A3B0749AF4D51
(1662866893.964482) can0 72E#300A140000000000
(1662866893.965526) can0 726#21DBD00049AF55F6
(1662866893.986531) can0 726#2265B90000000000
(1662866894.007549) can0 726#2300000000000000
(1662866894.028556) can0 726#2400000000000000
(1662866894.049539) can0 726#2500000000000000
(1662866894.072174) can0 726#2600000000000000
(1662866894.093235) can0 726#2700000000000000
(1662866894.114228) can0 726#2800000000000000
(1662866894.125164) can0 72E#027B070000000000
(1662866958.656701) can0 736#0210870000000000
(1662866958.666499) can0 73E#0250870000000000
(1662866958.693674) can0 736#100F3B002D9801FF
(1662866958.694782) can0 73E#3000000000000000
(1662866958.695827) can0 736#21FF1E283C50648C
(1662866958.696850) can0 736#22B4000000000000
(1662866958.738032) can0 73E#037F3B7800000000
(1662866958.748269) can0 73E#027B000000000000
(1662866959.256170) can0 736#0221000000000000
(1662866959.260007) can0 73E#100F61002D9801FF
(1662866959.261115) can0 736#3000000000000000
(1662866959.280411) can0 73E#21FF1E283C50648C
(1662866959.301382) can0 73E#22B4000000000000
(1662866959.308184) can0 736#101D3B01262E0000
(1662866959.309272) can0 73E#3000000000000000
(1662866959.310343) can0 736#21002F0000040132
(1662866959.311303) can0 736#220305090A78C8C8
(1662866959.312254) can0 736#23C8466487A0C8C8
(1662866959.313269) can0 736#24C8C80000000000
(1662866959.352599) can0 73E#037F3B7800000000
(1662866959.392762) can0 73E#027B010000000000
(1662866959.908408) can0 736#0221010000000000
(1662866959.914780) can0 73E#101D6101262E0000
(1662866959.915881) can0 736#3000000000000000
(1662866959.935028) can0 73E#21002F0000040132
(1662866959.955457) can0 73E#220305090A78C8C8
(1662866959.975877) can0 73E#23C8466487A0C8C8
(1662866959.996418) can0 73E#24C8C80000000000
(1662866960.000346) can0 736#10163B026B631887
(1662866960.001450) can0 73E#3000000000000000
(1662866960.002506) can0 736#21310D95F060006B
(1662866960.003481) can0 736#225B18853171947F
(1662866960.004504) can0 736#2360000000000000
(1662866960.037281) can0 73E#037F3B7800000000
(1662866960.068021) can0 73E#027B020000000000
(1662866960.571858) can0 736#0221020000000000
(1662866960.580412) can0 73E#101661026B631887
(1662866960.581524) can0 736#3000000000000000
(1662866960.601040) can0 73E#21310D95F060006B
(1662866960.620392) can0 73E#225B18853171947F
(1662866960.640939) can0 73E#2360000000000000
(1662866960.645138) can0 736#10123B0300000000
(1662866960.647070) can0 73E#3000000000000000
(1662866960.648965) can0 736#210000232C002B33
(1662866960.652825) can0 736#22000000462D0000
(1662866960.692031) can0 73E#037F3B7800000000
(1662866960.712514) can0 73E#027B030000000000
(1662866961.222940) can0 736#0221030000000000
(1662866961.224333) can0 73E#1012610300000000
(1662866961.225434) can0 736#3000000000000000
(1662866961.244532) can0 73E#210000232C002B33
(1662866961.264986) can0 73E#22000000462D0000
(1662866961.269062) can0 736#100D3B0410FFFF1E
(1662866961.271053) can0 73E#3000000000000000
(1662866961.272118) can0 736#21283C50648C0000
(1662866961.305860) can0 73E#037F3B7800000000
(1662866961.316099) can0 73E#027B040000000000
(1662866961.827544) can0 736#0221040000000000
(1662866961.838047) can0 73E#100D610410FFFF1E
(1662866961.839149) can0 736#3000000000000000
(1662866961.858354) can0 73E#21283C50648C0000
(1662866961.861923) can0 736#101D3B0500000000
(1662866961.863017) can0 73E#3000000000000000
(1662866961.864129) can0 736#2100000000000000
(1662866961.865160) can0 736#2200000000FFFFFF
(1662866961.866209) can0 736#23FFFFFFFFFFFFFF
(1662866961.867232) can0 736#24FFFF0000000000
(1662866961.899231) can0 73E#037F3B7800000000
(1662866961.950387) can0 73E#027B050000000000
(1662866962.466380) can0 736#0221050000000000
(1662866962.472412) can0 73E#101D610500000000
(1662866962.474403) can0 736#3000000000000000
(1662866962.492676) can0 73E#2100000000000000
(1662866962.513123) can0 73E#2200000000FFFFFF
(1662866962.533592) can0 73E#23FFFFFFFFFFFFFF
(1662866962.554043) can0 73E#24FFFF0000000000
(1662866962.557588) can0 736#10163B0618E318A4
(1662866962.558684) can0 73E#3000000000000000
(1662866962.560535) can0 736#21B98D95F0600018
(1662866962.561495) can0 736#22E318A7290994DF
(1662866962.562526) can0 736#2360000000000000
(1662866962.594900) can0 73E#037F3B7800000000
(1662866962.625634) can0 73E#027B060000000000
(1662866963.133069) can0 736#0221060000000000
(1662866963.137300) can0 73E#1016610618E318A4
(1662866963.138402) can0 736#3000000000000000
(1662866963.157588) can0 73E#21B98D95F0600018
(1662866963.178150) can0 73E#22E318A7290994DF
(1662866963.198558) can0 73E#2360000000000000
(1662866963.201976) can0 736#10123B0700000000
(1662866963.203080) can0 73E#3000000000000000
(1662866963.204185) can0 736#2100000000000000
(1662866963.205207) can0 736#2200000000000000
(1662866963.239415) can0 73E#037F3B7800000000
(1662866963.259882) can0 73E#027B070000000000
(1662866963.769324) can0 736#0221070000000000
(1662866963.771597) can0 73E#1012610700000000
(1662866963.772693) can0 736#3000000000000000
(1662866963.791895) can0 73E#2100000000000000
(1662866963.812363) can0 73E#2200000000000000
(1662866973.533888) can0 736#0210810000000000
(1662866973.541619) can0 73E#0250810000000000
(1662867010.691885) can0 720#0322E21A00000000
(1662867010.694024) can0 728#0762E21A38523239
(1662867010.697265) can0 720#0322E21700000000
(1662867010.704036) can0 728#0762E21701000849
(1662867010.707511) can0 720#0322E21900000000
(1662867010.714153) can0 728#0562E2190C010000
(1662867031.920308) can0 720#0322E21A00000000
(1662867031.923861) can0 728#0762E21A38523239
(1662867031.927257) can0 720#0322E21700000000
(1662867031.938026) can0 728#0762E21701000849
(1662867031.941135) can0 720#0322E21900000000
(1662867031.943821) can0 728#0562E2190C010000
(1662867031.971154) can0 720#0322020000000000
(1662867031.973901) can0 728#0462020000000000
(1662867031.980541) can0 720#041800FF00000000
(1662867031.984043) can0 728#0258000000000000
(1662867032.254778) can0 720#0322E21A00000000
(1662867032.263799) can0 728#0762E21A38523239
(1662867032.267251) can0 720#0322E21900000000
(1662867032.273822) can0 728#0562E2190C010000
(1662867032.277485) can0 720#0322E21700000000
(1662867032.283816) can0 728#0762E21701000849
(1662867032.304013) can0 720#0210870000000000
(1662867032.313997) can0 728#0250870000000000
(1662867032.317552) can0 720#0221000000000000
(1662867032.323864) can0 728#0561000003730000
(1662867032.340581) can0 720#0221020000000000
(1662867032.343852) can0 728#0361028000000000
(1662867032.360826) can0 720#0221030000000000
(1662867032.363819) can0 728#046103DD0E000000
(1662867032.381429) can0 720#0221010000000000
(1662867032.383805) can0 728#1013610136465041
(1662867032.384919) can0 720#3000000000000000
(1662867032.388784) can0 728#2141414A47535739
(1662867032.399650) can0 728#2245383631303100
(1662867032.416814) can0 720#0210810000000000
(1662867032.423967) can0 728#0250810000000000
(1662867044.170440) can0 720#0210870000000000
(1662867044.173794) can0 728#0250870000000000
(1662867044.176782) can0 720#0227010000000000
(1662867044.185748) can0 728#05670103C58D0000
(1662867044.189631) can0 720#0527020FE2DC0000
(1662867044.194159) can0 728#0267020000000000
(1662867044.203157) can0 720#10133B0136465041
(1662867044.204198) can0 728#3000280000000000
(1662867044.205252) can0 720#2141414A47535739
(1662867044.246342) can0 720#2245383631303100
(1662867044.263712) can0 728#027B010000000000
(1662867044.779466) can0 720#0221010000000000
(1662867044.783722) can0 728#1013610136465041
(1662867044.784831) can0 720#3000000000000000
(1662867044.789618) can0 728#2141414A47535739
(1662867044.799571) can0 728#2245383631303100
(1662867046.478026) can0 720#0210810000000000
(1662867046.483872) can0 728#0250810000000000
(1662867046.487131) can0 720#0211010000000000
(1662867046.493788) can0 728#0251010000000000
(1662867113.873425) can0 7A6#0322D10000000000
(1662867113.881249) can0 7AE#0462D10081000000
(1662867113.884625) can0 7A6#0322E61000000000
(1662867113.910282) can0 7AE#101B62E610385232
(1662867113.911387) can0 7A6#3000000000000000
(1662867113.920275) can0 7AE#21392D3134443031
(1662867113.938134) can0 7AE#22352D4341000000
(1662867113.940361) can0 7AE#2300000000000000
(1662867113.944279) can0 7A6#0322E61100000000
(1662867113.970247) can0 7AE#101B62E611385232
(1662867113.971345) can0 7A6#3000000000000000
(1662867113.981172) can0 7AE#21392D3134443031
(1662867113.990302) can0 7AE#22372D4342000000
(1662867114.000347) can0 7AE#2300000000000000
(1662867146.390595) can0 781#0322D10000000000
(1662867146.406507) can0 789#0462D10081000000
(1662867146.410777) can0 781#0322E61000000000
(1662867146.425693) can0 789#101B62E610385232
(1662867146.426799) can0 781#3000000000000000
(1662867146.445697) can0 789#21392D3134443530
(1662867146.465736) can0 789#22392D4341000000
(1662867146.485747) can0 789#2300000000000000
(1662867176.042150) can0 767#0322D10000000000
(1662867176.056047) can0 76F#0462D10081000000
(1662867176.059838) can0 767#0322E61100000000
(1662867176.076013) can0 76F#101B62E611385232
(1662867176.077101) can0 767#3000000000000000
(1662867176.096011) can0 76F#21392D3134463032
(1662867176.116037) can0 76F#22392D4142000000
(1662867176.136068) can0 76F#2300000000000000
(1662867181.645091) can0 767#0210850000000000
(1662867181.789853) can0 76F#0250850000000000
(1662867181.795709) can0 767#0227010000000000
(1662867181.797731) can0 76F#05670187CB520000
(1662867181.804349) can0 767#0527029BB1FE0000
(1662867181.806169) can0 76F#0267020000000000
(1662867181.910755) can0 767#100934FFFFE30000
(1662867181.913669) can0 76F#3000010000000000
(1662867181.914741) can0 767#21000C3C00000000
(1662867181.916754) can0 76F#037400E100000000
(1662867181.920467) can0 767#10E1360100058518
(1662867181.921480) can0 76F#3000010000000000
(1662867181.922544) can0 767#21E3FFFF46E5FFFF
(1662867181.924537) can0 767#221EE4FFFFFAE4FF
(1662867181.926559) can0 767#23FF5EE5FFFF031E
(1662867181.928578) can0 767#24E4FF1E5003F00D
(1662867181.930568) can0 767#25FD0BD509DD07E5
(1662867181.932536) can0 767#2605ED06D87B0704
(1662867181.936547) can0 767#2700400E000061DF
(1662867181.942404) can0 767#2881E90AF03B5F31
(1662867181.944453) can0 767#2900400E0000EB5F
(1662867181.946428) can0 767#2A0100615FCCE940
(1662867181.948461) can0 767#2BE6000080FF080B
(1662867181.950456) can0 767#2C40460000284781
(1662867181.952475) can0 767#2DE93B3F21002847
(1662867181.954417) can0 767#2E2D00014AC846FF
(1662867181.956427) can0 767#2F0F0846F0FE8142
(1662867181.958450) can0 767#20C4420836800001
(1662867181.960448) can0 767#214280FF5A060132
(1662867181.962469) can0 767#2263370100630705
(1662867181.964491) can0 767#23000932023A0042
(1662867181.966451) can0 767#24004A80FFD407CA
(1662867181.968511) can0 767#254E1F005C4F84E9
(1662867181.970420) can0 767#26CA36FF003CE684
(1662867181.973295) can0 767#27E9E931BA05644A
(1662867181.975225) can0 767#28D90501327B3704
(1662867181.977206) can0 767#2900B52D00EAC515
(1662867181.979095) can0 767#2A1DD0C2D2DCD11D
(1662867181.981039) can0 767#2B3E050000420132
(1662867181.983032) can0 767#2C63370100630705
(1662867181.985074) can0 767#2D000932004A80FF
(1662867181.987051) can0 767#2E92077A57050041
(1662867181.989052) can0 767#2FEA9D009C4F0100
(1662867181.991059) can0 767#20E9E90000000000
(1662867181.993498) can0 76F#0176000000000000
(1662867182.000444) can0 767#10E136A1ED3B4729
(1662867182.002285) can0 76F#3000010000000000
(1662867182.003357) can0 767#21003C3E01005F42
(1662867182.005350) can0 767#22083080FF3C027B
(1662867182.007359) can0 767#23570400BC5F0100
(1662867182.009361) can0 767#24E059CA0501325C
(1662867182.011906) can0 767#253701007C074400
(1662867182.013853) can0 767#261E3003F00AD508
(1662867182.015837) can0 767#27DD06E504ED0CFD
(1662867182.017801) can0 767#28031E1C0006F07F
(1662867182.019801) can0 767#2900541A63FF0900
(1662867182.021787) can0 767#2A63EF0500405600
(1662867182.023783) can0 767#2B002A5781E9400E
(1662867182.025799) can0 767#2C00002A57310006
(1662867182.028005) can0 767#2DE8EA5701006157
(1662867182.030005) can0 767#2ECCE91E301DF004
(1662867182.032863) can0 767#2F4D06450F4D8204
(1662867182.034881) can0 767#20E04106F0E24D3D
(1662867182.036887) can0 767#213729003D3F0900
(1662867182.038871) can0 767#225F32E731D10501
(1662867182.040880) can0 767#23327D370400B545
(1662867182.042894) can0 767#240730233E020080
(1662867182.045024) can0 767#25FFBA017D570400
(1662867182.047849) can0 767#26CA00E0519A3D3D
(1662867182.050808) can0 767#275F09003D670D00
(1662867182.054653) can0 767#28233E0300CB610C
(1662867182.057585) can0 767#2936FFFF80FF9A01
(1662867182.060478) can0 767#2A7D570400CA00E0
(1662867182.064275) can0 767#2B519A2D834F0300
(1662867182.066280) can0 767#2C40460000A84785
(1662867182.068244) can0 767#2DE9E8499B1D3D47
(1662867182.070226) can0 767#2E29004036000026
(1662867182.072185) can0 767#2F378DE9083EFFFF
(1662867182.074208) can0 767#20E6390000000000
(1662867182.077455) can0 76F#0176000000000000
(1662867182.084497) can0 767#10E1369BD5083080
(1662867182.085512) can0 76F#3000010000000000
(1662867182.086550) can0 767#21FFDA01E051CACD
(1662867182.088479) can0 767#22023243370200A3
(1662867182.090469) can0 767#236703006262B905
(1662867182.092484) can0 767#24A50DB5C5833703
(1662867182.094514) can0 767#2500A33F030080FF
(1662867182.096500) can0 767#26C2007D57040023
(1662867182.101414) can0 767#27EF050023FF0900
(1662867182.103378) can0 767#284C1A7F00581A63
(1662867182.105417) can0 767#29FF050063EF0100
(1662867182.107408) can0 767#2A06E87D07040040
(1662867182.109393) can0 767#2B5600002A5781E9
(1662867182.111852) can0 767#2C2A573100400E00
(1662867182.114612) can0 767#2D00EA5701006157
(1662867182.116607) can0 767#2ECCE93D470D00E0
(1662867182.118615) can0 767#2F41920D3D3F0900
(1662867182.120619) can0 767#203D37110080FF24
(1662867182.122638) can0 767#21027D57040023EF
(1662867182.124620) can0 767#22010023FF050048
(1662867182.126611) can0 767#231A7F00013A663F
(1662867182.128630) can0 767#24040040660000EC
(1662867182.130603) can0 767#2567C9E9E061BA05
(1662867182.132654) can0 767#26660704007F0058
(1662867182.134623) can0 767#271A63FF050063EF
(1662867182.136622) can0 767#280100405600002A
(1662867182.138660) can0 767#295781E9400E0000
(1662867182.140606) can0 767#2A2A573100404E00
(1662867182.142605) can0 767#2B00EA5701006157
(1662867182.144604) can0 767#2CCCE906E8894F85
(1662867182.146603) can0 767#2DE90946FFFF0838
(1662867182.148630) can0 767#2E8700003280FF6A
(1662867182.150633) can0 767#2F037D57040023FF
(1662867182.153621) can0 767#2005000000000000
(1662867182.155469) can0 76F#0176000000000000
(1662867182.163119) can0 767#10E13623EF010048
(1662867182.164136) can0 76F#3000010000000000
(1662867182.165191) can0 767#211A7F00031EECFF
(1662867182.167216) can0 767#2263FF110063E70D
(1662867182.169217) can0 767#230063EF090007E0
(1662867182.171232) can0 767#249C00860006E885
(1662867182.173199) can0 767#252D1D38015AE75F
(1662867182.175214) can0 767#26C000260684E9FF
(1662867182.177205) can0 767#27FFE64F45000B49
(1662867182.179199) can0 767#28664F4400015263
(1662867182.181221) can0 767#2957010063570500
(1662867182.183228) can0 767#2A03320040004A80
(1662867182.186178) can0 767#2BFF7605E051B205
(1662867182.191030) can0 767#2C0162951562EAB2
(1662867182.193036) can0 767#2D0563EA8A0D1D48
(1662867182.195014) can0 767#2E0930013A80FF98
(1662867182.197012) can0 767#2F02E051CAF541EA
(1662867182.199032) can0 767#209D000062FCE9F3
(1662867182.201036) can0 767#21D523E70D0023FF
(1662867182.203010) can0 767#22110023EF09000C
(1662867182.205033) can0 767#2350031E14007F00
(1662867182.207008) can0 767#24031EECFF1E4003
(1662867182.209645) can0 767#25F007D509FD05DD
(1662867182.212856) can0 767#2601ED03E507D008
(1662867182.215523) can0 767#27F040E600009C57
(1662867182.217481) can0 767#2885E93CE684E9C2
(1662867182.219393) can0 767#2952DC512A470100
(1662867182.221407) can0 767#2A06D8E8D9B30501
(1662867182.223392) can0 767#2B52E51500EAF50D
(1662867182.225406) can0 767#2C80FFF4071D38C2
(1662867182.227398) can0 767#2D3ADC3927570500
(1662867182.229406) can0 767#2EEAD9CB055AEF00
(1662867182.231880) can0 767#2F00F50541EA9D00
(1662867182.233835) can0 767#209C470000000000
(1662867182.237472) can0 76F#0176000000000000
(1662867182.242923) can0 767#10E1360100E8E9F1
(1662867182.243911) can0 76F#3000010000000000
(1662867182.245835) can0 767#21ED00521E3003F0
(1662867182.248692) can0 767#2206D504DD02E500
(1662867182.253515) can0 767#23ED08FD031E1400
(1662867182.255542) can0 767#2406F07F00031EDC
(1662867182.257507) can0 767#25FF1E3803F011FD
(1662867182.259500) can0 767#260FCD0DD50BDD09
(1662867182.261873) can0 767#27E507ED40D60000
(1662867182.263801) can0 767#283A6789E905353A
(1662867182.265808) can0 767#29D688E907F04162
(1662867182.267792) can0 767#2AEC31D1053AEF01
(1662867182.269722) can0 767#2B0041EAB50523EF
(1662867182.271924) can0 767#2C09003AE7050000
(1662867182.273918) can0 767#2DCA41E202DA0132
(1662867182.275910) can0 767#2E63370100633705
(1662867182.277942) can0 767#2F001B3803320042
(1662867182.279933) can0 767#20004A80FF70048A
(1662867182.281910) can0 767#2100E051BA1DE0E9
(1662867182.284512) can0 767#22921519301C381D
(1662867182.286538) can0 767#234080FF1001E051
(1662867182.288511) can0 767#24AA153ACF01003A
(1662867182.290514) can0 767#25E7090041CA236F
(1662867182.292520) can0 767#26090041E28DE91B
(1662867182.294512) can0 767#274889000930003A
(1662867182.296519) can0 767#2880FF7601E051B2
(1662867182.298531) can0 767#29050152F50541DA
(1662867182.300530) can0 767#2A64DAC1D580FF7C
(1662867182.302554) can0 767#2B0500521E3003F0
(1662867182.304484) can0 767#2C0ECD0CD50ADD08
(1662867182.306420) can0 767#2DE506ED10FD031E
(1662867182.308446) can0 767#2E240006F07F0003
(1662867182.310426) can0 767#2F1EE0FF1E5003F0
(1662867182.312480) can0 767#2007ED0000000000
(1662867182.315478) can0 76F#0176000000000000
(1662867182.321464) can0 767#10E1360DD50BDD09
(1662867182.322478) can0 76F#3000010000000000
(1662867182.323534) can0 767#21E50FFD06D00AF0
(1662867182.325549) can0 767#2207D808E080FFE6
(1662867182.327531) can0 767#23061B30233E0A00
(1662867182.329524) can0 767#24BFFFB0FE1C60DB
(1662867182.332878) can0 767#25610C36FFFF233E
(1662867182.334855) can0 767#260B00BFFFA0FE83
(1662867182.336798) can0 767#27470B00E50D2606
(1662867182.338859) can0 767#2884E9FFFFE63F45
(1662867182.340837) can0 767#2900014AE84FC000
(1662867182.342819) can0 767#2A0939663F440041
(1662867182.344803) can0 767#2B42C800A3670B00
(1662867182.346818) can0 767#2CEC4183F51C06FF
(1662867182.349671) can0 767#2DFEC90520EE0001
(1662867182.351885) can0 767#2EB5051CE8DD001B
(1662867182.353821) can0 767#2F381A401D480132
(1662867182.355820) can0 767#2063370500633701
(1662867182.357822) can0 767#2100A24A043280FF
(1662867182.359828) can0 767#228603E051920D40
(1662867182.361856) can0 767#234E0000294F81E9
(1662867182.363834) can0 767#24015269DF1D00F5
(1662867182.365785) can0 767#2505BDE1DDD1DDD9
(1662867182.367705) can0 767#26E0E1EADD00521E
(1662867182.369711) can0 767#273003F00CD50ADD
(1662867182.371710) can0 767#2808E506ED0EFD03
(1662867182.373759) can0 767#291E200006F07F00
(1662867182.375708) can0 767#2A031EC8FF1E4803
(1662867182.377708) can0 767#2BF013E517D519CD
(1662867182.379722) can0 767#2C11ED15DD1BFD06
(1662867182.381738) can0 767#2DD009F007C808D8
(1662867182.384706) can0 767#2E1BE81D06DFFFC9
(1662867182.386633) can0 767#2F0520E62000A505
(1662867182.388705) can0 767#201DE00000000000
(1662867182.392946) can0 76F#0176000000000000
(1662867182.397796) can0 767#10E13680FF160600
(1662867182.398811) can0 76F#3000010000000000
(1662867182.399834) can0 767#215AF50D0B50C252
(1662867182.401794) can0 767#221B38DA39BD390B
(1662867182.403688) can0 767#2330C232C731264F
(1662867182.405624) can0 767#240100C3516A4F01
(1662867182.407647) can0 767#2500415A1C408242
(1662867182.409620) can0 767#26E859F1ED80FFEA
(1662867182.411852) can0 767#270503301B38D939
(1662867182.413808) can0 767#28BD391C40BFFFDC
(1662867182.415807) can0 767#29FEBCE99ADD1E30
(1662867182.417719) can0 767#2A03F018CD1AFD10
(1662867182.419704) can0 767#2BED12E514DD16D5
(1662867182.421717) can0 767#2C005206F0031E38
(1662867182.423748) can0 767#2D007F00031EECFF
(1662867182.425717) can0 767#2E1E4803F005ED07
(1662867182.427749) can0 767#2FE506E89D0007E0
(1662867182.429732) can0 767#209C000132013500
(1662867182.431873) can0 767#21420932030509FD
(1662867182.434555) can0 767#22033A09F0004A80
(1662867182.438476) can0 767#23FF9E02C1521C30
(1662867182.440427) can0 767#240A311D3880FF90
(1662867182.442433) can0 767#2503E051BA0D1D48
(1662867182.444464) can0 767#2609301D40083880
(1662867182.447347) can0 767#27FF2000E051BA05
(1662867182.450242) can0 767#280052A505015223
(1662867182.454110) can0 767#29E70D0023EF0900
(1662867182.456127) can0 767#2A23FF1100031E14
(1662867182.458145) can0 767#2B007F00031EE8FF
(1662867182.460153) can0 767#2C1E4003F007E509
(1662867182.462168) can0 767#2DDD05ED0BFD07D8
(1662867182.464152) can0 767#2E08F09B00860006
(1662867182.466124) can0 767#2FE8E52501E2403E
(1662867182.468182) can0 767#2000000000000000
(1662867182.471482) can0 76F#0176000000000000
(1662867182.477536) can0 767#10E136273FC8E9FD
(1662867182.478551) can0 76F#3000010000000000
(1662867182.479605) can0 767#21E7C0005C39C700
(1662867182.481777) can0 767#22E039921D013263
(1662867182.484544) can0 767#2337010063370500
(1662867182.486547) can0 767#241D380632004200
(1662867182.488561) can0 767#254A80FF1E02E051
(1662867182.490522) can0 767#26B2050152F50D3C
(1662867182.492545) can0 767#2758260684E9FFFF
(1662867182.494503) can0 767#28E65745004B5166
(1662867182.496432) can0 767#2957440041EA9D00
(1662867182.498408) can0 767#2AFBE9A3DD00521E
(1662867182.500445) can0 767#2B3003F008DD06E5
(1662867182.502434) can0 767#2C04ED0AFD031E18
(1662867182.504453) can0 767#2D0006F07F00FFFF
(1662867182.506475) can0 767#2EFFFFFFFFFFFFFF
(1662867182.508493) can0 767#2FFFFFFFFFFFFFFF
(1662867182.513908) can0 767#20FFFFFFFFFFFFFF
(1662867182.515987) can0 767#21FFFFFFFFFFFFFF
(1662867182.518013) can0 767#22FFFFFFFFFFFFFF
(1662867182.519976) can0 767#23FFFFFFFFFFFFFF
(1662867182.521984) can0 767#24FFFFFFFFFFFFFF
(1662867182.523974) can0 767#25FFFFFFFFFFFFFF
(1662867182.525965) can0 767#26FFFFFFFFFFFFFF
(1662867182.528012) can0 767#27FFFFFFFFFFFFFF
(1662867182.529973) can0 767#28FFFFFFFFFFFFFF
(1662867182.531936) can0 767#29FFFFFF541A63FF
(1662867182.533928) can0 767#2A090063EF010063
(1662867182.535944) can0 767#2BE7050040EE0000
(1662867182.537958) can0 767#2CDD0738EA3DEE38
(1662867182.539926) can0 767#2DEA06E00730203E
(1662867182.541925) can0 767#2E102780FF020340
(1662867182.544542) can0 767#2F0E0000615780EA
(1662867182.546598) can0 767#2000320000000000
(1662867182.549489) can0 76F#0176000000000000
(1662867182.554777) can0 767#10E1360658C15ADD
(1662867182.555792) can0 76F#3000010000000000
(1662867182.556837) can0 767#21596B0704000638
(1662867182.558809) can0 767#22C23ADD39670719
(1662867182.560735) can0 767#230041326A32C1F5
(1662867182.562749) can0 767#24290608EEFFFF7D
(1662867182.564730) can0 767#254F19007DE70400
(1662867182.566738) can0 767#2623FF090023EF01
(1662867182.568738) can0 767#270023E705004C1A
(1662867182.570800) can0 767#287F00FFFFFFFFFF
(1662867182.572910) can0 767#29FFFFFFFFFFFFFF
(1662867182.574972) can0 767#2AFFFFFFFFFFFFFF
(1662867182.576989) can0 767#2BFFFFFFFFFFFFFF
(1662867182.578981) can0 767#2CFFFFFFFFFFFFFF
(1662867182.580972) can0 767#2DFFFFFFFFFFFFFF
(1662867182.582970) can0 767#2EFFFFFFFFFFFFFF
(1662867182.584984) can0 767#2FFFFFFFFFFFFFFF
(1662867182.586975) can0 767#20FFFFFFFFFFFFFF
(1662867182.588984) can0 767#21FFFFFFFFFFFFFF
(1662867182.590974) can0 767#22FFFFFFFFFFFFFF
(1662867182.592942) can0 767#23FF541A63FF0900
(1662867182.594924) can0 767#2463EF050080FF90
(1662867182.596931) can0 767#25020AE88047D5F8
(1662867182.598923) can0 767#26884602002036D4
(1662867182.602798) can0 767#27F8203ED0F880FF
(1662867182.604728) can0 767#289A0280FFAE03E0
(1662867182.606734) can0 767#2951D2FD403E0000
(1662867182.608718) can0 767#2AE73F81EA2A0638
(1662867182.610741) can0 767#2BEAFFFF63570100
(1662867182.612769) can0 767#2C00320042004A80
(1662867182.614730) can0 767#2DFF1E031D3080FF
(1662867182.616736) can0 767#2E6A0280FF8403E0
(1662867182.618723) can0 767#2F51D2FD2C0638EA
(1662867182.620792) can0 767#20FFFF0000000000
(1662867182.623486) can0 76F#0176000000000000
(1662867182.629415) can0 767#10E136636701000E
(1662867182.630428) can0 76F#3000010000000000
(1662867182.633336) can0 767#2132003A0042004A
(1662867182.635352) can0 767#2280FFFA0223EF05
(1662867182.637375) can0 767#230023FF09004C1A
(1662867182.639402) can0 767#247F00541A63FF09
(1662867182.641350) can0 767#250063EF050080FF
(1662867182.643348) can0 767#2618020AE880FF4A
(1662867182.646265) can0 767#2703E051D2FD2C06
(1662867182.649135) can0 767#2838EAFFFF636701
(1662867182.652963) can0 767#29000032003A0042
(1662867182.655666) can0 767#2A004A80FFC00280
(1662867182.657642) can0 767#2B47D5F8C846FD00
(1662867182.659651) can0 767#2C2036D4F8203ED0
(1662867182.661893) can0 767#2DF880FF0402403E
(1662867182.663854) can0 767#2E0000E73F81EA20
(1662867182.665844) can0 767#2F36900180FFB601
(1662867182.667851) can0 767#201D3080FFE80123
(1662867182.669863) can0 767#21EF050023FF0900
(1662867182.671837) can0 767#224C1A7F00031EDC
(1662867182.673862) can0 767#23FF1E5003F007ED
(1662867182.675870) can0 767#2411FD0DD50FCD0B
(1662867182.677836) can0 767#25DD09E506D0054D
(1662867182.679851) can0 767#26034507C80AF0BF
(1662867182.681865) can0 767#27FF06FF0AE0E0E1
(1662867182.684551) can0 767#289A55405E00002B
(1662867182.692465) can0 767#295F81E92B5F2D00
(1662867182.694443) can0 767#2A04324B370000E0
(1662867182.696449) can0 767#2B87600180EFD5F8
(1662867182.698442) can0 767#2CDDEEF70080FF78
(1662867182.700442) can0 767#2D010AD81D402036
(1662867182.702456) can0 767#2ED4F8203ED0F880
(1662867182.704463) can0 767#2FFF88011B3080FF
(1662867182.706501) can0 767#207C010000000000
(1662867182.709488) can0 76F#0176000000000000
(1662867182.715709) can0 767#10E1361A302C0638
(1662867182.716721) can0 76F#3000010000000000
(1662867182.717779) can0 767#21EAFFFF63670100
(1662867182.719749) can0 767#2223470500234F09
(1662867182.721832) can0 767#2300193880FF1002
(1662867182.723744) can0 767#240AE0E0E1CA1523
(1662867182.725752) can0 767#2577290061728A15
(1662867182.727804) can0 767#262B0638EAFFFF63
(1662867182.729768) can0 767#275F01000B32003A
(1662867182.731909) can0 767#280042004A80FFEC
(1662867182.733879) can0 767#29010AE01C0601FF
(1662867182.735868) can0 767#2AA2F580EFD5F89D
(1662867182.738029) can0 767#2BEE080080FF1001
(1662867182.739970) can0 767#2C0AD81D402036D4
(1662867182.741986) can0 767#2DF8203ED0F880FF
(1662867182.743969) can0 767#2E20011B3080FF14
(1662867182.745993) can0 767#2F01E0076001BFFF
(1662867182.748008) can0 767#20D0FE4046000028
(1662867182.749944) can0 767#214781E928472D00
(1662867182.753866) can0 767#2220364700483700
(1662867182.755896) can0 767#23001C501E3003F0
(1662867182.757843) can0 767#240ECD0CD50ADD08
(1662867182.759746) can0 767#25E506ED10FD031E
(1662867182.761894) can0 767#26240006F07F0003
(1662867182.763862) can0 767#271EECFF1E4803F0
(1662867182.765855) can0 767#2805ED004206E803
(1662867182.767886) can0 767#290507E509FD07E0
(1662867182.769861) can0 767#2A013A013D093209
(1662867182.771883) can0 767#2BF0004ABFFFE2FE
(1662867182.773858) can0 767#2C8A528152B10505
(1662867182.775843) can0 767#2D52C50D1C380132
(1662867182.777761) can0 767#2E63370100633705
(1662867182.779776) can0 767#2F001D400A32004A
(1662867182.781881) can0 767#20BFFF0000000000
(1662867182.785506) can0 76F#0176000000000000
(1662867182.790850) can0 767#10E136C2FE23E70D
(1662867182.791862) can0 76F#3000010000000000
(1662867182.792934) can0 767#210023EF090023FF
(1662867182.794878) can0 767#221100031E14007F
(1662867182.796909) can0 767#2300541A63FF0900
(1662867182.798896) can0 767#24013A633F010000
(1662867182.800860) can0 767#2542630705000932
(1662867182.802874) can0 767#26004ABFFF96FE8C
(1662867182.804858) can0 767#27528152B1050552
(1662867182.806858) can0 767#28B50D003A630701
(1662867182.808869) can0 767#2900630705000C32
(1662867182.810890) can0 767#2A0042004ABFFF78
(1662867182.813791) can0 767#2BFE23FF09004C1A
(1662867182.815774) can0 767#2C7F00473006507F
(1662867182.817811) can0 767#2D00E73006507F00
(1662867182.819747) can0 767#2EEA3F4202E63F22
(1662867182.821776) can0 767#2F028D3A00000000
(1662867182.823798) can0 767#20073EFFFF000000
(1662867182.825806) can0 767#2100000000008FFD
(1662867182.827794) can0 767#227F005C1A63A701
(1662867182.829769) can0 767#2300E557400020A6
(1662867182.831870) can0 767#24A000F42F200023
(1662867182.833854) can0 767#25A70100441A7F00
(1662867182.835861) can0 767#26E62F20007F0058
(1662867182.837851) can0 767#271A63A7010063AF
(1662867182.839860) can0 767#28050028A020AEA5
(1662867182.841844) can0 767#290047AF00004647
(1662867182.844729) can0 767#2A000046A7000046
(1662867182.853353) can0 767#2B47000023A70100
(1662867182.855367) can0 767#2C23AF0500481A7F
(1662867182.857346) can0 767#2D00031ECCFF6317
(1662867182.859361) can0 767#2E0100632F050063
(1662867182.861839) can0 767#2F370900633F0D00
(1662867182.863878) can0 767#2063470000000000
(1662867182.867496) can0 76F#0176000000000000
(1662867182.873500) can0 767#10E1361100634F15
(1662867182.874516) can0 76F#3000010000000000
(1662867182.875570) can0 767#2100635F19006367
(1662867182.877538) can0 767#221D00636F210063
(1662867182.879590) can0 767#2377250063EF2900
(1662867182.881554) can0 767#2463F72D00E56740
(1662867182.883569) can0 767#2500636731007F00
(1662867182.885577) can0 767#2623673100EC2F20
(1662867182.887559) can0 767#270023170100232F
(1662867182.889567) can0 767#2805002337090023
(1662867182.891549) can0 767#293F0D0023471100
(1662867182.893540) can0 767#2A234F1500235F19
(1662867182.895563) can0 767#2B0023671D00236F
(1662867182.897547) can0 767#2C21002377250023
(1662867182.899547) can0 767#2DEF290023F72D00
(1662867182.901568) can0 767#2E031E34007F0003
(1662867182.903567) can0 767#2F1EFCFF63FF0100
(1662867182.905566) can0 767#20BFFF7CFF23F739
(1662867182.907582) can0 767#2100FF070001BFFF
(1662867182.909562) can0 767#22AEFF23FF010003
(1662867182.911854) can0 767#231E04007F00031E
(1662867182.913861) can0 767#24E4FF63FF010063
(1662867182.915852) can0 767#25CF050063D70900
(1662867182.917876) can0 767#2663DF0D0063E711
(1662867182.919829) can0 767#2700630F15006357
(1662867182.921787) can0 767#281900BFFF42FF80
(1662867182.923806) can0 767#29FF6400BFFF78FF
(1662867182.925796) can0 767#2A23FF010023CF05
(1662867182.927792) can0 767#2B0023D7090023DF
(1662867182.929784) can0 767#2C0D0023E7110023
(1662867182.932867) can0 767#2D0F150023571900
(1662867182.935810) can0 767#2E031E1C007F005C
(1662867182.940702) can0 767#2F1A63FF01004036
(1662867182.942773) can0 767#2000000000000000
(1662867182.945516) can0 76F#0176000000000000
(1662867182.952002) can0 767#10DD36263781E926
(1662867182.953018) can0 76F#3000010000000000
(1662867182.954081) can0 767#21372D00065F0000
(1662867182.956098) can0 767#22CB5680000A0680
(1662867182.958091) can0 767#23FF9A0DCB3E7F00
(1662867182.960088) can0 767#24463F000080FF12
(1662867182.962892) can0 767#25000152A5050052
(1662867182.964928) can0 767#2623FF0100441A7F
(1662867182.966901) can0 767#2700541A63FF0900
(1662867182.968905) can0 767#2863EF010063E705
(1662867182.970883) can0 767#290040EE00003D3F
(1662867182.972874) can0 767#2A81E9273731003D
(1662867182.974897) can0 767#2BEE80E9E6670100
(1662867182.976854) can0 767#2CE061921D5F6266
(1662867182.978887) can0 767#2D670000CC00E061
(1662867182.980871) can0 767#2EBA152747250020
(1662867182.982896) can0 767#2F36000168370000
(1662867182.984931) can0 767#2020360002683700
(1662867182.986898) can0 767#2100406600002737
(1662867182.988870) can0 767#223100EC67CDE966
(1662867182.990873) can0 767#2367000027373500
(1662867182.992896) can0 767#24E0318225865F01
(1662867182.994854) can0 767#2500E059C21D5F5A
(1662867182.996904) can0 767#26465F00003D3F01
(1662867182.998888) can0 767#2700273F3500873F
(1662867183.000877) can0 767#280100E0399A153D
(1662867183.002883) can0 767#2937010026E71500
(1662867183.004899) can0 767#2A3F061CEFFFFF7C
(1662867183.006897) can0 767#2B003D3F01002737
(1662867183.008859) can0 767#2C35008767390046
(1662867183.010880) can0 767#2D67000023E70500
(1662867183.012932) can0 767#2E23EF010023FF09
(1662867183.014910) can0 767#2F004C1A7F000000
(1662867183.017501) can0 76F#0176000000000000
(1662867183.022528) can0 767#0137000000000000
(1662867183.024751) can0 76F#037F377800000000
(1662867183.039361) can0 76F#037F377800000000
(1662867183.066185) can0 76F#0177000000000000
(1662867183.122203) can0 767#04B100B200000000
(1662867183.123761) can0 76F#037FB17800000000
(1662867183.124734) can0 76F#037FB17800000000
(1662867183.125709) can0 76F#037FB17800000000
(1662867187.667364) can0 76F#037FB17800000000
(1662867187.668398) can0 76F#037FB17800000000
(1662867190.106460) can0 76F#037FB17800000000
(1662867190.107426) can0 76F#037FB17800000000
(1662867190.613256) can0 76F#037FB17800000000
(1662867190.614226) can0 76F#037FB17800000000
(1662867192.607567) can0 76F#037FB17800000000
(1662867192.608515) can0 76F#037FB17800000000
(1662867194.559631) can0 76F#037FB17800000000
(1662867194.560600) can0 76F#037FB17800000000
(1662867195.013645) can0 76F#037FB17800000000
(1662867195.014614) can0 76F#037FB17800000000
(1662867195.460208) can0 76F#03F100B200000000
(1662867195.548763) can0 767#1009340000450000
(1662867195.549776) can0 76F#3000010000000000
(1662867195.550862) can0 767#2100016400000000
(1662867195.553244) can0 76F#037400E100000000
(1662867195.558254) can0 767#10E1368007E06AE0
(1662867195.560211) can0 76F#3000010000000000
(1662867195.562129) can0 767#21074001E0074001
(1662867195.564153) can0 767#22E0074001E00740
(1662867195.566160) can0 767#2301E0074001E007
(1662867195.568568) can0 767#244001E0074001E0
(1662867195.570558) can0 767#25074001E0074001
(1662867195.572566) can0 767#26E0074001E00740
(1662867195.574556) can0 767#2701E0074001E007
(1662867195.576547) can0 767#284001E0074001E0
(1662867195.578555) can0 767#29074001E0074001
(1662867195.580537) can0 767#2A8107226AE00740
(1662867195.582560) can0 767#2B01E0074001E007
(1662867195.585226) can0 767#2C4001E007400181
(1662867195.587248) can0 767#2D070A6CE0074001
(1662867195.589286) can0 767#2EE0074001E00740
(1662867195.591905) can0 767#2F01E0074001E007
(1662867195.593873) can0 767#204001E0074001E0
(1662867195.595853) can0 767#21074001E0074001
(1662867195.597852) can0 767#22E0074001E00740
(1662867195.599868) can0 767#2301E0074001E007
(1662867195.601886) can0 767#244001E007400181
(1662867195.603833) can0 767#2507606781072668
(1662867195.605856) can0 767#26E0074001E00740
(1662867195.607855) can0 767#27018007CEAD8007
(1662867195.609841) can0 767#28F4AC81077E0780
(1662867195.611887) can0 767#2907B8888007D087
(1662867195.616594) can0 767#2A80077C89800780
(1662867195.618546) can0 767#2B8AE0074001E007
(1662867195.620545) can0 767#2C40018007D878E0
(1662867195.622561) can0 767#2D074001E0074001
(1662867195.624561) can0 767#2EE0074001E00740
(1662867195.626558) can0 767#2F018107AC68E007
(1662867195.628586) can0 767#2040010000000000
(1662867195.632882) can0 76F#037F367800000000
(1662867195.633802) can0 76F#037F367800000000
(1662867195.641681) can0 76F#0176000000000000
(1662867195.646202) can0 767#108536E0074001E0
(1662867195.647216) can0 76F#3000010000000000
(1662867195.648281) can0 767#21074001E0074001
(1662867195.650262) can0 767#22E0074001E00740
(1662867195.652308) can0 767#2301E0074001E007
(1662867195.654253) can0 767#244001E0074001E0
(1662867195.658134) can0 767#25074001E0074001
(1662867195.662902) can0 767#26E0074001E00740
(1662867195.664902) can0 767#2701E0074001E007
(1662867195.666852) can0 767#284001E0074001E0
(1662867195.668868) can0 767#29074001E0074001
(1662867195.670868) can0 767#2AE0074001E00740
(1662867195.672866) can0 767#2B01E0074001E007
(1662867195.674857) can0 767#2C4001E0074001E0
(1662867195.676864) can0 767#2D074001E0074001
(1662867195.678873) can0 767#2EE0074001E00740
(1662867195.680864) can0 767#2F01E0074001E007
(1662867195.682863) can0 767#204001E0074001E0
(1662867195.685233) can0 767#21074001E0074001
(1662867195.692128) can0 767#22E0074001E00740
(1662867195.694177) can0 767#2301000000000000
(1662867195.695615) can0 76F#037F367800000000
(1662867195.696582) can0 76F#037F367800000000
(1662867195.702662) can0 76F#0176000000000000
(1662867195.706725) can0 767#0137000000000000
(1662867195.708229) can0 76F#037F377800000000
(1662867195.709746) can0 76F#0177000000000000
(1662867195.713183) can0 767#1009340000470000
(1662867195.714200) can0 76F#3000010000000000
(1662867195.715287) can0 767#2100001C00000000
(1662867195.717240) can0 76F#037400E100000000
(1662867195.720791) can0 767#101D36B502000001
(1662867195.721806) can0 76F#3000010000000000
(1662867195.722903) can0 767#2100000000450000
(1662867195.724860) can0 767#22FF9A0300020000
(1662867195.726860) can0 767#230000E00300FF1F
(1662867195.728883) can0 767#2400000000000000
(1662867195.732849) can0 76F#037F367800000000
(1662867195.733792) can0 76F#037F367800000000
(1662867195.736661) can0 76F#0176000000000000
(1662867195.741539) can0 767#0137000000000000
(1662867195.744912) can0 76F#037F377800000000
(1662867195.745886) can0 76F#0177000000000000
(1662867195.750173) can0 767#1009340000480000
(1662867195.751186) can0 76F#3000010000000000
(1662867195.752273) can0 767#210065BB00000000
(1662867195.755241) can0 76F#037400E100000000
(1662867195.759561) can0 767#10E1360116000001
(1662867195.760576) can0 76F#3000010000000000
(1662867195.762493) can0 767#21200100F0000000
(1662867195.764514) can0 767#2201220000010000
(1662867195.766461) can0 767#2300040300000115
(1662867195.768480) can0 767#2400000000000000
(1662867195.770469) can0 767#250000001C480000
(1662867195.772488) can0 767#260D000101051919
(1662867195.774491) can0 767#2700000000000000
(1662867195.776465) can0 767#2800010101010101
(1662867195.778458) can0 767#2901010202020202
(1662867195.780456) can0 767#2A02020203030303
(1662867195.782455) can0 767#2B03030303040404
(1662867195.785231) can0 767#2C04040404040102
(1662867195.787281) can0 767#2D04081020408001
(1662867195.789273) can0 767#2E02040810204080
(1662867195.791279) can0 767#2F01020408102040
(1662867195.793291) can0 767#2080010204081020
(1662867195.795283) can0 767#2140800102040810
(1662867195.797307) can0 767#2220408000036700
(1662867195.799287) can0 767#23007E0000000700
(1662867195.801312) can0 767#24000000000000AC
(1662867195.803298) can0 767#25EC000000000000
(1662867195.805273) can0 767#2651000000070000
(1662867195.807279) can0 767#2700000000008C45
(1662867195.809297) can0 767#2801000000000058
(1662867195.813218) can0 767#2900000007000000
(1662867195.815208) can0 767#2A00000000FC4301
(1662867195.817194) can0 767#2B00000000005400
(1662867195.819192) can0 767#2C00000700000000
(1662867195.821183) can0 767#2D0000006A430100
(1662867195.823214) can0 767#2E00000000500000
(1662867195.825851) can0 767#2F00070000000000
(1662867195.827798) can0 767#2000000000000000
(1662867195.829914) can0 76F#037F367800000000
(1662867195.833840) can0 76F#037F367800000000
(1662867195.838684) can0 76F#0176000000000000
(1662867195.843611) can0 767#10E13650ED0000FA
(1662867195.844626) can0 76F#3000010000000000
(1662867195.845714) can0 767#21EC0000E0000000
(1662867195.847697) can0 767#2205000000000000
(1662867195.849665) can0 767#2300122B0100FCEA
(1662867195.851696) can0 767#2400007100000007
(1662867195.853703) can0 767#2500000000000000
(1662867195.855666) can0 767#260442010004EB00
(1662867195.858556) can0 767#2700720000000700
(1662867195.863371) can0 767#280000000000001A
(1662867195.865428) can0 767#2941010000000000
(1662867195.867397) can0 767#2A73000000070000
(1662867195.869389) can0 767#2B0000000000B23F
(1662867195.871388) can0 767#2C0100000000007B
(1662867195.873410) can0 767#2D00000007000000
(1662867195.875377) can0 767#2E00000000342E01
(1662867195.877403) can0 767#2F00000000006100
(1662867195.879421) can0 767#2000000700000000
(1662867195.881370) can0 767#21000000DE2D0100
(1662867195.883401) can0 767#2200000000620000
(1662867195.885398) can0 767#2300070000000000
(1662867195.887382) can0 767#2400008A2F010000
(1662867195.889390) can0 767#2500000067000000
(1662867195.891849) can0 767#2607000000000000
(1662867195.893852) can0 767#2700382B0100F4EA
(1662867195.895883) can0 767#2800006800000007
(1662867195.897918) can0 767#2900000000000000
(1662867195.899865) can0 767#2A16EC00000CEB00
(1662867195.901888) can0 767#2B00740000000600
(1662867195.903888) can0 767#2C00000000000076
(1662867195.905907) can0 767#2D2F010000000000
(1662867195.907880) can0 767#2E76000000060000
(1662867195.909885) can0 767#2F0000000000642F
(1662867195.911914) can0 767#2001000000000000
(1662867195.914897) can0 76F#037F367800000000
(1662867195.915866) can0 76F#037F367800000000
(1662867195.923671) can0 76F#0176000000000000
(1662867195.928383) can0 767#10E1360000000077
(1662867195.929398) can0 76F#3000010000000000
(1662867195.930501) can0 767#2100000006000000
(1662867195.933428) can0 767#2200000000522F01
(1662867195.936402) can0 767#2300000000006E00
(1662867195.939357) can0 767#2400000700000000
(1662867195.943226) can0 767#250000007E3B0100
(1662867195.945282) can0 767#26000000006F0000
(1662867195.947289) can0 767#2700050000000000
(1662867195.949281) can0 767#280000DA450100EC
(1662867195.951826) can0 767#29EA0000C5000000
(1662867195.953889) can0 767#2A07000000000000
(1662867195.955840) can0 767#2B00982D0100DCEA
(1662867195.957871) can0 767#2C0000F100000007
(1662867195.959895) can0 767#2D00000000000000
(1662867195.961878) can0 767#2EC8450100E4EA00
(1662867195.963900) can0 767#2F00FFFFFFFFFFFF
(1662867195.965901) can0 767#20FFFFFFFFFFFFFF
(1662867195.967913) can0 767#21FFFFFF0401FFFF
(1662867195.969900) can0 767#2203FFFFFF02FFFF
(1662867195.971898) can0 767#23FFFFFFFFFFFF0A
(1662867195.973866) can0 767#240BFFFFFFFF0C0D
(1662867195.975872) can0 767#25FFFFFFFFFF1112
(1662867195.977864) can0 767#26FF0607080EFF0F
(1662867195.979870) can0 767#2710FFFFFF09FFFF
(1662867195.981910) can0 767#2800FFFFFFFFFFFF
(1662867195.983894) can0 767#2913FFFFFFFFFFFF
(1662867195.985991) can0 767#2AFFFFFFFFFFFFFF
(1662867195.988009) can0 767#2BFFFFFFFFFFFFFF
(1662867195.989907) can0 767#2CFFFFFFFFFFFF05
(1662867195.991915) can0 767#2DFFFFFFFFFFFFFF
(1662867195.993895) can0 767#2EFFFFFFFFFFFFFF
(1662867195.995904) can0 767#2FFFFF14FFFFFFFF
(1662867195.997969) can0 767#20FFFF0000000000
(1662867195.999921) can0 76F#037F367800000000
(1662867196.000882) can0 76F#037F367800000000
(1662867196.008597) can0 76F#0176000000000000
(1662867196.013168) can0 767#10E136FFFFFFFFFF
(1662867196.014185) can0 76F#3000010000000000
(1662867196.015265) can0 767#21FFFFFF01270700
(1662867196.017231) can0 767#2204261200BC1DBC
(1662867196.019258) can0 767#231D5415A00BA00B
(1662867196.021230) can0 767#24900B900B780B78
(1662867196.023238) can0 767#250B6C0B6C0B600B
(1662867196.025229) can0 767#26600B500B480B48
(1662867196.027259) can0 767#270B080808080808
(1662867196.029276) can0 767#2808080808080808
(1662867196.032781) can0 767#2908080838CAFF03
(1662867196.034744) can0 767#2A1CCEFF038CC9FF
(1662867196.036741) can0 767#2B0324CEFF032CCE
(1662867196.038757) can0 767#2CFF0334CEFF033C
(1662867196.040755) can0 767#2DCEFF0344CEFF03
(1662867196.042739) can0 767#2E4CCEFF0354CEFF
(1662867196.044739) can0 767#2F035CCEFF0364CE
(1662867196.046771) can0 767#20FF036CCEFF0384
(1662867196.048754) can0 767#21C9FF0374CEFF03
(1662867196.050747) can0 767#227CCEFF03AAC201
(1662867196.052774) can0 767#2300A2C1010040E8
(1662867196.054744) can0 767#240000AAC20100A2
(1662867196.057666) can0 767#25C10100AAC20100
(1662867196.060528) can0 767#26A2C10100AAC201
(1662867196.064422) can0 767#2700A2C10100AAC2
(1662867196.067281) can0 767#280100A2C10100AA
(1662867196.070204) can0 767#29C20100A2C10100
(1662867196.073997) can0 767#2ADCDF0000AAC201
(1662867196.075964) can0 767#2B00A2C101000202
(1662867196.077999) can0 767#2C01040404040404
(1662867196.079998) can0 767#2D04040404040404
(1662867196.082021) can0 767#2E00000000000000
(1662867196.084004) can0 767#2F00000000000000
(1662867196.086017) can0 767#2000000000000000
(1662867196.087927) can0 76F#037F367800000000
(1662867196.088866) can0 76F#037F367800000000
(1662867196.095659) can0 76F#0176000000000000
(1662867196.100413) can0 767#10E1360000000000
(1662867196.101427) can0 76F#3000010000000000
(1662867196.102561) can0 767#2100000000000000
(1662867196.104579) can0 767#22000100009C1D5C
(1662867196.106545) can0 767#230CF00BC80BA40B
(1662867196.108546) can0 767#24940B7C0B700B64
(1662867196.110570) can0 767#250B4C0B03000000
(1662867196.112625) can0 767#2601000200040005
(1662867196.117132) can0 767#2700060007000800
(1662867196.119175) can0 767#2809000808080000
(1662867196.121204) can0 767#2900000000000000
(1662867196.123147) can0 767#2A7CC9FF0384CEFF
(1662867196.125162) can0 767#2B0318C8FF030000
(1662867196.127170) can0 767#2C00008CCEFF0394
(1662867196.129161) can0 767#2DCEFF039CCEFF03
(1662867196.133748) can0 767#2EA4CEFF03ACCEFF
(1662867196.135765) can0 767#2F03B4CEFF030000
(1662867196.138530) can0 767#2000000000000000
(1662867196.140587) can0 767#2100000050C30100
(1662867196.142546) can0 767#2250C3010050C301
(1662867196.144537) can0 767#230050C3010050C3
(1662867196.146552) can0 767#24010050C3010050
(1662867196.148576) can0 767#25C3010096DF0000
(1662867196.150551) can0 767#2648DF00002EDF00
(1662867196.152599) can0 767#2700000000000000
(1662867196.154605) can0 767#2800000000000000
(1662867196.156613) can0 767#2900000000000000
(1662867196.158603) can0 767#2A00000000000000
(1662867196.160593) can0 767#2B00000000000000
(1662867196.162620) can0 767#2C00000000010204
(1662867196.164627) can0 767#2D00000000000000
(1662867196.166581) can0 767#2E0000050003000E
(1662867196.168573) can0 767#2F000B0009000700
(1662867196.170589) can0 767#2001000000000000
(1662867196.173900) can0 76F#037F367800000000
(1662867196.174857) can0 76F#037F367800000000
(1662867196.182662) can0 76F#0176000000000000
(1662867196.193146) can0 767#10E136060004000F
(1662867196.194163) can0 76F#3000010000000000
(1662867196.195250) can0 767#21000C000A000800
(1662867196.197272) can0 767#22B4EE0000B29F01
(1662867196.199266) can0 767#23003A9F01009AA1
(1662867196.201289) can0 767#2401001AA10100A2
(1662867196.203291) can0 767#25A001002AA00100
(1662867196.205281) can0 767#26F6EE0000C69F01
(1662867196.207289) can0 767#27004E9F010096A1
(1662867196.209282) can0 767#2801002EA10100B6
(1662867196.211789) can0 767#29A001003EA00100
(1662867196.213773) can0 767#2A18EF000030F900
(1662867196.215796) can0 767#2B0030F9000030F9
(1662867196.217803) can0 767#2C000030F9000030
(1662867196.219788) can0 767#2DF9000030F90000
(1662867196.221786) can0 767#2E2EF900002EF900
(1662867196.223785) can0 767#2F002EF900002EF9
(1662867196.225784) can0 767#2000002EF900002E
(1662867196.227806) can0 767#21F900002EF90000
(1662867196.229774) can0 767#221EEF000016F900
(1662867196.232800) can0 767#230016F9000016F9
(1662867196.234794) can0 767#24000016F9000016
(1662867196.236784) can0 767#25F9000016F90000
(1662867196.238776) can0 767#2601010101010101
(1662867196.240791) can0 767#270040EE0000F8F8
(1662867196.242816) can0 767#280000F8F80000F8
(1662867196.244806) can0 767#29F80000F8F80000
(1662867196.246828) can0 767#2AF8F80000F8F800
(1662867196.248781) can0 767#2B0000EE0000F6F8
(1662867196.250811) can0 767#2C0000F6F80000F6
(1662867196.252812) can0 767#2DF80000F6F80000
(1662867196.254817) can0 767#2EF6F80000F6F800
(1662867196.257606) can0 767#2F0004EF0000F4F8
(1662867196.260530) can0 767#2000000000000000
(1662867196.264315) can0 76F#037F367800000000
(1662867196.266227) can0 76F#037F367800000000
(1662867196.273683) can0 76F#0176000000000000
(1662867196.278954) can0 767#10E136F4F80000F4
(1662867196.279953) can0 76F#3000010000000000
(1662867196.281056) can0 767#21F80000F4F80000
(1662867196.283105) can0 767#22F4F80000F4F800
(1662867196.285236) can0 767#230082EE000026A0
(1662867196.287189) can0 767#240100AE9F010092
(1662867196.289186) can0 767#25A101008EA10100
(1662867196.291820) can0 767#2616A101009EA001
(1662867196.293787) can0 767#2700F2F80000F2F8
(1662867196.295803) can0 767#280000F2F80000F2
(1662867196.297816) can0 767#29F80000F2F80000
(1662867196.299827) can0 767#2AF2F80000F2F800
(1662867196.301816) can0 767#2B00F0F80000F0F8
(1662867196.303814) can0 767#2C0000F0F80000F0
(1662867196.305806) can0 767#2DF80000F0F80000
(1662867196.307823) can0 767#2EF0F80000F0F800
(1662867196.309793) can0 767#2F00A2ED0000EEF8
(1662867196.312786) can0 767#200000EEF80000EE
(1662867196.314813) can0 767#21F80000EEF80000
(1662867196.316803) can0 767#22EEF80000EEF800
(1662867196.318837) can0 767#2300ECF80000ECF8
(1662867196.320792) can0 767#240000ECF80000EC
(1662867196.323777) can0 767#25F80000ECF80000
(1662867196.325802) can0 767#26ECF80000ECF800
(1662867196.327802) can0 767#2700010101010101
(1662867196.329802) can0 767#28010000FF020201
(1662867196.332820) can0 767#2901060605050404
(1662867196.334805) can0 767#2AFF0303FFFFFF00
(1662867196.336788) can0 767#2B02010605040308
(1662867196.338853) can0 767#2C08080808080828
(1662867196.340819) can0 767#2D00000000000004
(1662867196.342794) can0 767#2E06060606060608
(1662867196.344793) can0 767#2F08080808080802
(1662867196.346818) can0 767#2001010000000000
(1662867196.349925) can0 76F#037F367800000000
(1662867196.350879) can0 76F#037F367800000000
(1662867196.358731) can0 76F#0176000000000000
(1662867196.363444) can0 767#10E1360101010100
(1662867196.364461) can0 76F#3000010000000000
(1662867196.366353) can0 767#212709000835FF1F
(1662867196.368406) can0 767#22FF1FFF1FFF1FFF
(1662867196.370427) can0 767#23FFFFFFFFFFFFFF
(1662867196.372424) can0 767#2400000000000000
(1662867196.374407) can0 767#2500FFFFFFFFFFFF
(1662867196.376425) can0 767#26FFFF0000030001
(1662867196.378414) can0 767#2702000202000302
(1662867196.380405) can0 767#2800050200060004
(1662867196.382426) can0 767#2902000D000E0010
(1662867196.385257) can0 767#2A02000700080200
(1662867196.387298) can0 767#2B0B000C02000900
(1662867196.389326) can0 767#2C0A001400160019
(1662867196.391321) can0 767#2D00000006020000
(1662867196.393313) can0 767#2E00000006020010
(1662867196.395311) can0 767#2F00000006020008
(1662867196.397326) can0 767#2000000006020001
(1662867196.399329) can0 767#2100000006020002
(1662867196.401302) can0 767#2200000006020004
(1662867196.403308) can0 767#2300000006020008
(1662867196.405325) can0 767#2400000006020010
(1662867196.407324) can0 767#2500000006020020
(1662867196.409334) can0 767#2600000006020040
(1662867196.411815) can0 767#2700000006020080
(1662867196.413816) can0 767#2800000006020000
(1662867196.415808) can0 767#2901000006020000
(1662867196.417814) can0 767#2A02000006020000
(1662867196.419821) can0 767#2B04000006020000
(1662867196.421820) can0 767#2C08000006020000
(1662867196.423818) can0 767#2D10000006020000
(1662867196.425819) can0 767#2E20000006020000
(1662867196.427817) can0 767#2F40000006020000
(1662867196.429825) can0 767#2080000000000000
(1662867196.433810) can0 76F#037F367800000000
(1662867196.435768) can0 76F#037F367800000000
(1662867196.442689) can0 76F#0176000000000000
(1662867196.448043) can0 767#10E1360006020000
(1662867196.449056) can0 76F#3000010000000000
(1662867196.450150) can0 767#2100010006020000
(1662867196.452110) can0 767#2200020006020000
(1662867196.454127) can0 767#2300040006020000
(1662867196.456125) can0 767#2400080006020000
(1662867196.458109) can0 767#2500100006020000
(1662867196.462886) can0 767#2600200006020000
(1662867196.465803) can0 767#2700400006020000
(1662867196.468612) can0 767#2800800006020000
(1662867196.470625) can0 767#2900000206020000
(1662867196.472624) can0 767#2A00000106020000
(1662867196.474630) can0 767#2B00000000000400
(1662867196.476639) can0 767#2C01040003040005
(1662867196.478616) can0 767#2D04000804000A04
(1662867196.480603) can0 767#2E000D04000F0400
(1662867196.482595) can0 767#2F11040013040019
(1662867196.485278) can0 767#2004001B04001D04
(1662867196.487356) can0 767#21001F0400210400
(1662867196.489338) can0 767#2223040025040027
(1662867196.491834) can0 767#2304002B04002D04
(1662867196.493812) can0 767#2400300400340400
(1662867196.495814) can0 767#253604003A000000
(1662867196.497762) can0 767#264D757369630000
(1662867196.499768) can0 767#27506C61796C6973
(1662867196.501673) can0 767#2874730000417274
(1662867196.503674) can0 767#2969737473000041
(1662867196.505664) can0 767#2A6C62756D730000
(1662867196.507672) can0 767#2B536F6E67730000
(1662867196.509664) can0 767#2C506F6463617374
(1662867196.511750) can0 767#2D730000436F6D70
(1662867196.513687) can0 767#2E6F736572730000
(1662867196.515667) can0 767#2F417564696F626F
(1662867196.517730) can0 767#206F6B0000000000
(1662867196.520917) can0 76F#037F367800000000
(1662867196.521882) can0 76F#037F367800000000
(1662867196.529692) can0 76F#0176000000000000
(1662867196.534509) can0 767#10E1367300004E6F
(1662867196.535527) can0 76F#3000010000000000
(1662867196.536566) can0 767#2120506C61796C69
(1662867196.538604) can0 767#2273747300004E6F
(1662867196.540564) can0 767#2320417274697374
(1662867196.542596) can0 767#247300004E6F2041
(1662867196.544569) can0 767#256C62756D730000
(1662867196.546563) can0 767#264E6F20536F6E67
(1662867196.548595) can0 767#277300004E6F2050
(1662867196.550552) can0 767#286F646361737473
(1662867196.552486) can0 767#2900004E6F20436F
(1662867196.555324) can0 767#2A6D706F73657273
(1662867196.557820) can0 767#2B00004E6F204175
(1662867196.559755) can0 767#2C64696F626F6F6B
(1662867196.563488) can0 767#2D730000506C6179
(1662867196.565512) can0 767#2E6C697374000041
(1662867196.567480) can0 767#2F72746973740000
(1662867196.569497) can0 767#20416C62756D0000
(1662867196.571471) can0 767#21547261636B0000
(1662867196.573465) can0 767#22506F6463617374
(1662867196.575381) can0 767#230000436F6D706F
(1662867196.577380) can0 767#2473657200004175
(1662867196.579355) can0 767#2564696F626F6F6B
(1662867196.581289) can0 767#2600004D656E7500
(1662867196.583279) can0 767#2700416C62756D20
(1662867196.585293) can0 767#28556E6B6E6F776E
(1662867196.587316) can0 767#2900004172746973
(1662867196.589271) can0 767#2A7420556E6B6E6F
(1662867196.591347) can0 767#2B776E000000FFFF
(1662867196.593335) can0 767#2CFFFFFFFFFFFFFF
(1662867196.595334) can0 767#2DFFFFFFFFFFFFFF
(1662867196.597340) can0 767#2EFFFFFFFFFFFFFF
(1662867196.599349) can0 767#2FFFFFFFFFFFFFFF
(1662867196.601346) can0 767#20FFFF0000000000
(1662867196.603925) can0 76F#037F367800000000
(1662867196.604889) can0 76F#037F367800000000
(1662867196.612804) can0 76F#0176000000000000
(1662867196.617914) can0 767#10E136FFFFFFFFFF
(1662867196.618910) can0 76F#3000010000000000
(1662867196.620023) can0 767#21FFFFFFFFFFFFFF
(1662867196.622049) can0 767#22FFFFFFFFFFFFFF
(1662867196.624045) can0 767#23FFFFFFFFFFFFFF
(1662867196.626046) can0 767#24FFFFFFFFFFFFFF
(1662867196.628057) can0 767#25FFFFFFFFFFFFFF
(1662867196.630012) can0 767#26FFFFFFFF9EEF9E
(1662867196.632920) can0 767#27E77EE77EDFFDCE
(1662867196.634871) can0 767#28998D597D5A7D3A
(1662867196.636862) can0 767#296D1965F954B94C
(1662867196.638748) can0 767#2A99447844784478
(1662867196.640717) can0 767#2B3C783C383C383C
(1662867196.642742) can0 767#2C583C383C383C38
(1662867196.644724) can0 767#2D3C583C383C383C
(1662867196.646739) can0 767#2E383C583C783C78
(1662867196.648671) can0 767#2F4479449944B954
(1662867196.650587) can0 767#20F95C1A655A755A
(1662867196.652589) can0 767#217D597D998DFDCE
(1662867196.654601) can0 767#227EDF9EE79EEFBE
(1662867196.657597) can0 767#23EFFFFFFFFFFFFF
(1662867196.660516) can0 767#24FFFFFFFFFFFFFF
(1662867196.666188) can0 767#25FFFFFFFFFFFFFF
(1662867196.668258) can0 767#26FFFFFFFFFFFFFF
(1662867196.670268) can0 767#27FFFFFFFFFFFFFF
(1662867196.672241) can0 767#28FFFFFFFFFFFFFF
(1662867196.674266) can0 767#29FFFFFFFFFFFFFF
(1662867196.676241) can0 767#2AFFFFFFFFFFFFFF
(1662867196.678260) can0 767#2BFFFFFFFFFFFFFF
(1662867196.680241) can0 767#2CFFFFFFFFFFFFFF
(1662867196.682255) can0 767#2DFFFFFFFFFFFFFF
(1662867196.684253) can0 767#2EFFFFFFFFFFFFFF
(1662867196.686252) can0 767#2FFFFFFFFFFFFFFF
(1662867196.692185) can0 767#20FFFF0000000000
(1662867196.694144) can0 76F#037F367800000000
(1662867196.695114) can0 76F#037F367800000000
(1662867196.699700) can0 76F#0176000000000000
(1662867196.704448) can0 767#10E136FFFFFFFFFF
(1662867196.705463) can0 76F#3000010000000000
(1662867196.706574) can0 767#21FFFFFFFFFFFFFF
(1662867196.708553) can0 767#22FFFFFFFFFFFFFF
(1662867196.710558) can0 767#23FFFFFFFFFFFFFF
(1662867196.712594) can0 767#24FFFFFFFFFFFFFF
(1662867196.714666) can0 767#25FFFFFFFFFFFFFF
(1662867196.716645) can0 767#26FFFFFFFFFFFFFF
(1662867196.718654) can0 767#27FFFFFF7DEF9CBE
(1662867196.720577) can0 767#287CAE1C9EBB85B9
(1662867196.722495) can0 767#2954984C583C3834
(1662867196.724527) can0 767#2AF82B182C183438
(1662867196.726479) can0 767#2B3458449844D954
(1662867196.728465) can0 767#2CD964396D5A757A
(1662867196.730604) can0 767#2D759A7D9B85BB8D
(1662867196.734479) can0 767#2EFB8DFB953B963B
(1662867196.736463) can0 767#2F963B961B96DB95
(1662867196.738504) can0 767#20DB8DBB8D9B7D7A
(1662867196.740477) can0 767#217D7A753A6D1965
(1662867196.742461) can0 767#22D95CD94C984438
(1662867196.744387) can0 767#23341734372C182C
(1662867196.746387) can0 767#24183438349844B9
(1662867196.748377) can0 767#254CD95C9B853C9E
(1662867196.750408) can0 767#26BDB6FDCE7DEFFF
(1662867196.752469) can0 767#27FFFFFFFFFFFFFF
(1662867196.754453) can0 767#28FFFFFFFFFFFFFF
(1662867196.756452) can0 767#29FFFFFFFFFFFFFF
(1662867196.758444) can0 767#2AFFFFFFFFFFFFFF
(1662867196.760460) can0 767#2BFFFFFFFFFFFFFF
(1662867196.762487) can0 767#2CFFFFFFFFFFFFFF
(1662867196.764551) can0 767#2DFFFFFFFFFFFFFF
(1662867196.766559) can0 767#2EFFFFFFFFFFFFFF
(1662867196.768551) can0 767#2FFFFFFFFFFFFFFF
(1662867196.770541) can0 767#20FFFF0000000000
(1662867196.773926) can0 76F#037F367800000000
(1662867196.774891) can0 76F#037F367800000000
(1662867196.780700) can0 76F#0176000000000000
(1662867196.785657) can0 767#10E136FFFFFFFFFF
(1662867196.786694) can0 76F#3000010000000000
(1662867196.787784) can0 767#21FFFFFFFFFFFFFF
(1662867196.789748) can0 767#22FFFFFFFFFFFFFF
(1662867196.791856) can0 767#23FFFFFFFFFFFFFF
(1662867196.793865) can0 767#24FFFFFFFFFFFFFF
(1662867196.795870) can0 767#25FFFFFFFFFFFFFF
(1662867196.797846) can0 767#26FFFFFFFFFFFFFF
(1662867196.799866) can0 767#27FFFFFFFFFFFFFF
(1662867196.801793) can0 767#28DFFFDFF71AA699
(1662867196.803777) can0 767#298D5A6DB9549944
(1662867196.805702) can0 767#2A38343834383C58
(1662867196.807677) can0 767#2B3C994C19657A75
(1662867196.809572) can0 767#2CBB8D1B9E9CB61D
(1662867196.811769) can0 767#2DD7BEE7DFF7FFFF
(1662867196.813753) can0 767#2EFFFFFFFFFFFFFF
(1662867196.815760) can0 767#2FFFFFFFFFFFFFFF
(1662867196.817767) can0 767#20FFFFFFFFFFFFFF
(1662867196.819767) can0 767#21FFFFFFFFFFFFFF
(1662867196.821876) can0 767#22FFFFFFFFFFFFFF
(1662867196.823863) can0 767#23FFFFFFFFFFFFFF
(1662867196.825871) can0 767#24FFFFFFFFFFFFFF
(1662867196.827812) can0 767#25FFBFEF7EDF1DC7
(1662867196.829785) can0 767#267CAEFC95BA853A
(1662867196.833770) can0 767#276DD95C994C383C
(1662867196.835719) can0 767#28383C3834383459
(1662867196.837689) can0 767#2944F95CBB7DBDBE
(1662867196.839739) can0 767#2ADFF7DFF7FFFFFF
(1662867196.841769) can0 767#2BFFFFFFFFFFFFFF
(1662867196.843760) can0 767#2CFFFFFFFFFFFFFF
(1662867196.845752) can0 767#2DFFFFFFFFFFFFFF
(1662867196.847752) can0 767#2EFFFFFFFFFFFFFF
(1662867196.849768) can0 767#2FFFFFFFFFFFFFFF
(1662867196.851883) can0 767#20FFFF0000000000
(1662867196.854934) can0 76F#037F367800000000
(1662867196.855899) can0 76F#037F367800000000
(1662867196.863421) can0 76F#0176000000000000
(1662867196.868629) can0 767#10E136FFFFFFFFFF
(1662867196.869640) can0 76F#3000010000000000
(1662867196.870751) can0 767#21FFFFFFFFFFFFFF
(1662867196.872759) can0 767#22FFFFFFFFFFFFFF
(1662867196.874766) can0 767#23FFFFFFFFFFFFFF
(1662867196.876775) can0 767#24FFFFFFFFFFFFFF
(1662867196.878776) can0 767#25FFFFFFFFFFFFFF
(1662867196.880756) can0 767#26FFFFFFFFFFFFFF
(1662867196.882779) can0 767#27FFFFFFFFFFFFFF
(1662867196.885321) can0 767#28FFFFFFFFFFFFFF
(1662867196.887289) can0 767#29FF7DEF1DD73BA6
(1662867196.889294) can0 767#2A5A7DD85C784458
(1662867196.891222) can0 767#2B341834583C984C
(1662867196.893192) can0 767#2C196DDB8D5CAEDD
(1662867196.895246) can0 767#2DBE5ED7FFF7FFFF
(1662867196.897269) can0 767#2EFFFFFFFFFFFFFF
(1662867196.899202) can0 767#2FFF9EF75DE7BCCE
(1662867196.901728) can0 767#203ABED8AD789DF6
(1662867196.903673) can0 767#218CD684757C5474
(1662867196.905576) can0 767#22346C1464F45BD3
(1662867196.907468) can0 767#235BB35BB353B35B
(1662867196.909380) can0 767#24D35BD35BF46314
(1662867196.912768) can0 767#2564347455747584
(1662867196.914682) can0 767#26F68C179D98A5D8
(1662867196.916588) can0 767#27B53AC6BCD65DE7
(1662867196.918557) can0 767#28BEF7FFFFFFFFFF
(1662867196.920561) can0 767#29FFFFFFFFFFBFEF
(1662867196.922488) can0 767#2A3ED7BDB65CA6BB
(1662867196.924398) can0 767#2B8DF964984C3834
(1662867196.926373) can0 767#2CF723182CB94C3A
(1662867196.928269) can0 767#2D6D5CA61ECF5DE7
(1662867196.930260) can0 767#2EFFFFFFFFFFFFFF
(1662867196.933223) can0 767#2FFFFFFFFFFFFFFF
(1662867196.935326) can0 767#20FFFF0000000000
(1662867196.939283) can0 76F#037F367800000000
(1662867196.941234) can0 76F#037F367800000000
(1662867196.946704) can0 76F#0176000000000000
(1662867196.951579) can0 767#10E136FFFFFFFFFF
(1662867196.952592) can0 76F#3000010000000000
(1662867196.953711) can0 767#21FFFFFFFFFFFFFF
(1662867196.955768) can0 767#22FFFFFFFFFFFFFF
(1662867196.957775) can0 767#23FFFFFFFFFFFFFF
(1662867196.959775) can0 767#24FFFFFFFFFFFFFF
(1662867196.961835) can0 767#25FFFFFFFFFFFFFF
(1662867196.963867) can0 767#26FFFFFFFFFFFFFF
(1662867196.965883) can0 767#27FFFFFFFFFFFFFF
(1662867196.967857) can0 767#28FFFFFFFFFFFFFF
(1662867196.969865) can0 767#29FFFFFFFFFFFFFF
(1662867196.971845) can0 767#2AFFFFFFFFFFFF9B
(1662867196.973774) can0 767#2BC61B9E1A657844
(1662867196.975725) can0 767#2C583C1834783CB9
(1662867196.977701) can0 767#2D547B85BDB6BEE7
(1662867196.979756) can0 767#2EDFF7FFFFFFFFFF
(1662867196.981731) can0 767#2FFFFFFF7EF7DCDE
(1662867196.983732) can0 767#20B8B595849163B0
(1662867196.985589) can0 767#21424F320E2AEE19
(1662867196.987515) can0 767#22EE11CD11EE110F
(1662867196.989520) can0 767#231A5012911AB222
(1662867196.991384) can0 767#24F3221323342B54
(1662867196.993293) can0 767#252B542B542B542B
(1662867196.995339) can0 767#26542B542B542B54
(1662867196.997275) can0 767#272B342B1323F322
(1662867196.999213) can0 767#28D21A9122501A2F
(1662867197.001191) can0 767#291AEF11CF11EE11
(1662867197.003083) can0 767#2AEE210E2A8F32EF
(1662867197.004979) can0 767#2B42D26BD594F9BD
(1662867197.006938) can0 767#2C1CDFBEF7FFFFFF
(1662867197.008954) can0 767#2DFFFFFFFFFFDFF7
(1662867197.011726) can0 767#2E5EDF3CA67A7578
(1662867197.013727) can0 767#2F4C183417345834
(1662867197.015757) can0 767#2078440000000000
(1662867197.018934) can0 76F#037F367800000000
(1662867197.019900) can0 76F#037F367800000000
(1662867197.025708) can0 76F#0176000000000000
(1662867197.033750) can0 767#10E136BB7DBCB6FF
(1662867197.034766) can0 76F#3000010000000000
(1662867197.035878) can0 767#21FFFFFFFFFFFFFF
(1662867197.037870) can0 767#22FFFFFFFFFFFFFF
(1662867197.039880) can0 767#23FFFFFFFFFFFFFF
(1662867197.041886) can0 767#24FFFFFFFFFFFFFF
(1662867197.043870) can0 767#25FFFFFFFFFFFFFF
(1662867197.045870) can0 767#26FFFFFFFFFFFFFF
(1662867197.047884) can0 767#27FFFFFFFFFFFFFF
(1662867197.049875) can0 767#28FFFFFFFFFFFFFF
(1662867197.051879) can0 767#29FFFFFFFFFFFFFF
(1662867197.053863) can0 767#2AFFFFFFFFFFFFFF
(1662867197.055879) can0 767#2BFFFFFFFFFFFFFF
(1662867197.057798) can0 767#2C7DEF1DCF5985B9
(1662867197.060695) can0 767#2D545934182C7844
(1662867197.064434) can0 767#2E196DDB8DFDC6FF
(1662867197.066496) can0 767#2FFFFFFFFFFFDFFF
(1662867197.068416) can0 767#20DBD6D8BD369D91
(1662867197.071252) can0 767#21634E328C116C09
(1662867197.074146) can0 767#224D018E010F0AB2
(1662867197.077000) can0 767#231A542BB733F83B
(1662867197.079047) can0 767#24583C793CBA44BA
(1662867197.080984) can0 767#2544BA4CBA4CBA4C
(1662867197.082886) can0 767#26B94CB94CB94CD9
(1662867197.085237) can0 767#274C994C794C794C
(1662867197.087232) can0 767#28794C794C794C99
(1662867197.089202) can0 767#294CB94CB94CB94C
(1662867197.091771) can0 767#2AB94CD94CDA4CDA
(1662867197.093709) can0 767#2B4CDB4CDA4CDA4C
(1662867197.095701) can0 767#2C9A4CB94C794417
(1662867197.097611) can0 767#2D3CB633F322300A
(1662867197.099612) can0 767#2ECE018D098D09CD
(1662867197.101586) can0 767#2F21CF42127456A5
(1662867197.103560) can0 767#20F9BD0000000000
(1662867197.105944) can0 76F#037F367800000000
(1662867197.106913) can0 76F#037F367800000000
(1662867197.112716) can0 76F#0176000000000000
(1662867197.118250) can0 767#10E136FCDEFFFFFF
(1662867197.119268) can0 76F#3000010000000000
(1662867197.120355) can0 767#21FFFFFFBFEFBDB6
(1662867197.122346) can0 767#229B7DF95C383CF8
(1662867197.124315) can0 767#2323182C1A657CAE
(1662867197.126353) can0 767#247EE7DEFFFFFFFF
(1662867197.128396) can0 767#25FFFFFFFFFFFFFF
(1662867197.130384) can0 767#26FFFFFFFFFFFFFF
(1662867197.133354) can0 767#27FFFFFFFFFFFFFF
(1662867197.135372) can0 767#28FFFFFFFFFFFFFF
(1662867197.137387) can0 767#29FFFFFFFFFFFFFF
(1662867197.139375) can0 767#2AFFFFFFFFFFFFFF
(1662867197.141810) can0 767#2BFFFFFFFFFFFFFF
(1662867197.143784) can0 767#2CFFFFFFFFFFFFFF
(1662867197.145750) can0 767#2DFFFFFFFFFF5DE7
(1662867197.147685) can0 767#2E1B9E195D593438
(1662867197.149614) can0 767#2F34383C3A755CA6
(1662867197.151849) can0 767#207EDFFFFFFFFFFF
(1662867197.153811) can0 767#21FFBAD6F59C516B
(1662867197.155794) can0 767#222D3A8B19AD19EE
(1662867197.157704) can0 767#23119122542BF63B
(1662867197.159657) can0 767#24383C383C583C9A
(1662867197.161723) can0 767#25443A6DBB859B85
(1662867197.163686) can0 767#26BB8DBA8D9A857A
(1662867197.165597) can0 767#277D3975995C3844
(1662867197.167492) can0 767#28F73BB733D733D7
(1662867197.169398) can0 767#29331734373C373C
(1662867197.171289) can0 767#2A373C3744374438
(1662867197.173220) can0 767#2B44384438443844
(1662867197.175101) can0 767#2C38443844384438
(1662867197.176999) can0 767#2D44384438443844
(1662867197.178889) can0 767#2E38443844384439
(1662867197.180806) can0 767#2F445944994C9A4C
(1662867197.182750) can0 767#20D94C0000000000
(1662867197.185313) can0 76F#037F367800000000
(1662867197.187271) can0 76F#037F367800000000
(1662867197.193243) can0 76F#0176000000000000
(1662867197.197856) can0 767#10E136B94CB94C78
(1662867197.198868) can0 76F#3000010000000000
(1662867197.199901) can0 767#2144F73B542BD222
(1662867197.201810) can0 767#22301AEE19ED298E
(1662867197.203815) can0 767#234AB17357AD3CE7
(1662867197.205769) can0 767#24FFFFFFFFFFFF3E
(1662867197.207729) can0 767#25D7FC95F964182C
(1662867197.209742) can0 767#26F82B79449A7D1E
(1662867197.212789) can0 767#27C73CE7FFFFFFFF
(1662867197.214790) can0 767#28FFFFFFFFFFFFFF
(1662867197.216789) can0 767#29FFFFFFFFFFFFFF
(1662867197.218783) can0 767#2AFFFFFFFFFFFFFF
(1662867197.220792) can0 767#2BFFFFFFFFFFFFFF
(1662867197.222783) can0 767#2CFFFFFFFFFFFFFF
(1662867197.224775) can0 767#2DFFFFFFFFFFFFFF
(1662867197.226783) can0 767#2EFFFFFFFFFFFFFF
(1662867197.228747) can0 767#2FFFFFFF3DDF5975
(1662867197.230752) can0 767#20994C182C583C1A
(1662867197.233668) can0 767#21657DAEDFEFFFFF
(1662867197.235620) can0 767#22DEFFDBDE16A50F
(1662867197.237609) can0 767#235B6B21EA108C11
(1662867197.239493) can0 767#24F222953B58449A
(1662867197.241395) can0 767#254CB94C79443844
(1662867197.243318) can0 767#26173C9854DB8D5E
(1662867197.245291) can0 767#27D7FFFFFFFFFFFF
(1662867197.247290) can0 767#28FFFFFFFFFFFFFF
(1662867197.249305) can0 767#29FFFFFFFFFFFFFF
(1662867197.251240) can0 767#2AFFFF7EEFFDCE5C
(1662867197.253206) can0 767#2BB69B8DD9647854
(1662867197.255102) can0 767#2CF743D73BD733B6
(1662867197.257020) can0 767#2D33B733B733B733
(1662867197.258913) can0 767#2EF7331734173417
(1662867197.262706) can0 767#2F3C1744173C1734
(1662867197.265623) can0 767#20F7330000000000
(1662867197.268954) can0 76F#037F367800000000
(1662867197.269918) can0 76F#037F367800000000
(1662867197.275715) can0 76F#0176000000000000
(1662867197.280212) can0 767#10E136F733F733B6
(1662867197.282201) can0 76F#3000010000000000
(1662867197.283227) can0 767#2133B733373C173C
(1662867197.285251) can0 767#2217443744384438
(1662867197.287214) can0 767#2344384458449844
(1662867197.289109) can0 767#247944B94C9A4C99
(1662867197.291002) can0 767#2544B633D322CE11
(1662867197.292913) can0 767#268B19EC31916BB8
(1662867197.294873) can0 767#27B53CE7FEFFFFFF
(1662867197.296855) can0 767#285EDF3C9EF95C38
(1662867197.298856) can0 767#293CD72BBA541B96
(1662867197.300894) can0 767#2A7EE7FFFFFFFFFF
(1662867197.302917) can0 767#2BFFFFFFFFFFFFFF
(1662867197.304901) can0 767#2CFFFFFFFFFFFFFF
(1662867197.306901) can0 767#2DFFFFFFFFFFFFFF
(1662867197.308935) can0 767#2EFFFFFFFFFFFFFF
(1662867197.311834) can0 767#2FFFFFFFFFFFFFFF
(1662867197.313906) can0 767#20FFFFFFFFFFFFFF
(1662867197.315852) can0 767#21FFDCCE5A7D5934
(1662867197.317834) can0 767#22F82B7844DB951E
(1662867197.319865) can0 767#23D7FFFFFFFF9AD6
(1662867197.321818) can0 767#2453844D426B196C
(1662867197.323720) can0 767#25095122B6335844
(1662867197.325622) can0 767#26BA4C994C784458
(1662867197.327573) can0 767#2744373CF743D733
(1662867197.329558) can0 767#28374C3CAEDFFFFF
(1662867197.333784) can0 767#29FFFFFF3DE71AB6
(1662867197.335712) can0 767#2A36959584347455
(1662867197.338521) can0 767#2B84F69498A519BE
(1662867197.340472) can0 767#2CDCD6DFFFFFFFFF
(1662867197.342537) can0 767#2DFFFFFFFFFFFFFF
(1662867197.345202) can0 767#2EBFEF3DDFDDC65C
(1662867197.347168) can0 767#2FAE9A8DF974B85C
(1662867197.349190) can0 767#20784C0000000000
(1662867197.351970) can0 76F#037F367800000000
(1662867197.352935) can0 76F#037F367800000000
(1662867197.358789) can0 76F#0176000000000000
(1662867197.363437) can0 767#10E1363744F73BF6
(1662867197.364453) can0 76F#3000010000000000
(1662867197.365492) can0 767#213BF733F733D73B
(1662867197.367465) can0 767#22173C374C785CF9
(1662867197.369455) can0 767#2364597D1CAE3DD7
(1662867197.371431) can0 767#24BB8D9623173CF7
(1662867197.373342) can0 767#253BF73BF73BF73B
(1662867197.375326) can0 767#26173C373C174417
(1662867197.377237) can0 767#274458447844994C
(1662867197.379240) can0 767#28BA4C7944B63392
(1662867197.381706) can0 767#291ACE11EC21EF52
(1662867197.383692) can0 767#2AD59CFBE6FFFFFF
(1662867197.385697) can0 767#2BFFDDC69A7D383C
(1662867197.387641) can0 767#2CD8239A44FB955E
(1662867197.389712) can0 767#2DDFFFFFFFFFFFFF
(1662867197.391865) can0 767#2EFFFFFFFFFFFFFF
(1662867197.393910) can0 767#2FFFFFFFFFFFFFFF
(1662867197.395902) can0 767#20FFFFFFFFFFFFFF
(1662867197.397928) can0 767#21FFFFFFFFFFFFFF
(1662867197.399869) can0 767#22FFFFFFFFFFFF5D
(1662867197.401845) can0 767#23E7BB851834D82B
(1662867197.403843) can0 767#24994C1C9EDFEFFF
(1662867197.405851) can0 767#25FFBEF7F6A44D42
(1662867197.407818) can0 767#262911AD19132BF7
(1662867197.409739) can0 767#273B7944784C583C
(1662867197.411751) can0 767#28373C373C173CD7
(1662867197.413737) can0 767#293BF73BF73B7623
(1662867197.415758) can0 767#2AF96C5EE7FFFFFF
(1662867197.417743) can0 767#2BFF9BCE505B4B19
(1662867197.419742) can0 767#2C0B014C09AD09AD
(1662867197.421716) can0 767#2D118D094C094B09
(1662867197.423635) can0 767#2E2A096B11ED31F0
(1662867197.425658) can0 767#2F5295847DEFFFFF
(1662867197.427697) can0 767#20FFFF0000000000
(1662867197.432814) can0 76F#037F367800000000
(1662867197.433782) can0 76F#037F367800000000
(1662867197.439769) can0 76F#0176000000000000
(1662867197.444475) can0 767#10E136FFFFFFFFFF
(1662867197.445489) can0 76F#3000010000000000
(1662867197.446592) can0 767#21FFFFFFFFFFDFFF
(1662867197.448544) can0 767#22DFF7BEEF9EEF7E
(1662867197.450554) can0 767#23E73EDF3DD73DDF
(1662867197.452595) can0 767#243EDF9EEF9EEFBE
(1662867197.455436) can0 767#25EFDFF7FFFFFFFF
(1662867197.457435) can0 767#26FFFFB9A5351BF7
(1662867197.459430) can0 767#273BD73BD73BD73B
(1662867197.463222) can0 767#28D73BD73BF73BF7
(1662867197.466076) can0 767#293BF73BF73B373C
(1662867197.468930) can0 767#2A173C173C374458
(1662867197.470930) can0 767#2B44784C7944383C
(1662867197.472921) can0 767#2C542B0F1A8B212F
(1662867197.474848) can0 767#2D5BB7B5DEFFFFFF
(1662867197.476824) can0 767#2E9FEF7A853844D8
(1662867197.478771) can0 767#2F2B583C7CAEFFFF
(1662867197.480807) can0 767#20FFFFFFFFFFFFFF
(1662867197.482798) can0 767#21FFFFFFFFFFFFFF
(1662867197.485348) can0 767#22FFFFFFFFFFFFFF
(1662867197.487433) can0 767#23FFFFFFFFFFFFFF
(1662867197.489380) can0 767#24FFFFDFF77DEF5A
(1662867197.491341) can0 767#2585593CB723984C
(1662867197.493374) can0 767#263CA6FFFFFFFF39
(1662867197.495360) can0 767#27C60F5B09192C01
(1662867197.497372) can0 767#28F32258449A4439
(1662867197.499232) can0 767#2944173CD73BD73B
(1662867197.501221) can0 767#2AD73BD633D73BD7
(1662867197.503101) can0 767#2B3BD73BB6337623
(1662867197.505077) can0 767#2CF96CFFFFFFFFBE
(1662867197.507044) can0 767#2DF7306327006D09
(1662867197.509036) can0 767#2E132B9633F733F7
(1662867197.512752) can0 767#2F33F733F733F733
(1662867197.514778) can0 767#20D7330000000000
(1662867197.518017) can0 76F#037F367800000000
(1662867197.518926) can0 76F#037F367800000000
(1662867197.524725) can0 76F#0176000000000000
(1662867197.529362) can0 767#10E1369633132B0F
(1662867197.530375) can0 76F#3000010000000000
(1662867197.533316) can0 767#210A0E22369DFFFF
(1662867197.535221) can0 767#229BD62D42F27BD8
(1662867197.537184) can0 767#23BD5DE7DFFFFFFF
(1662867197.539255) can0 767#24FFFFFFFFFFFFFF
(1662867197.541312) can0 767#25FFFFFFFFFFFFFF
(1662867197.543309) can0 767#26FFFFFFFFFFFFFF
(1662867197.545330) can0 767#27FFFFFFFFFFFFFF
(1662867197.547243) can0 767#28FFFFB8BDAC1996
(1662867197.549223) can0 767#292BB63396339633
(1662867197.551120) can0 767#2AB633D633D633D6
(1662867197.553028) can0 767#2B3BD63BD63BB63B
(1662867197.554931) can0 767#2CD73BD73BD73BD6
(1662867197.556841) can0 767#2D3BD73BF73B173C
(1662867197.558716) can0 767#2E173C38449A4479
(1662867197.560612) can0 767#2F44F422AD09EC31
(1662867197.564417) can0 767#20F27BDBDEFFFFDF
(1662867197.567353) can0 767#21EFDB8D5844761B
(1662867197.569250) can0 767#229954DEC6BEF7FF
(1662867197.571863) can0 767#23FFFFFFFFFFFFFF
(1662867197.573919) can0 767#24FFFFFFFFFFFFFF
(1662867197.575911) can0 767#25FFFFFFFFFFFFFF
(1662867197.577870) can0 767#26FFFFFFFF7BBED9
(1662867197.579836) can0 767#275CB723B62B9B8D
(1662867197.581859) can0 767#28FFF7FFFF59CEAD
(1662867197.583819) can0 767#295209110F1A9633
(1662867197.585744) can0 767#2A59443844183CD6
(1662867197.587721) can0 767#2B3BD633D633B633
(1662867197.589619) can0 767#2CB633B633B633B6
(1662867197.591526) can0 767#2D33B63396335523
(1662867197.593470) can0 767#2E16449EE7FFFFFF
(1662867197.595459) can0 767#2FFF916B2700F32A
(1662867197.597504) can0 767#20D7330000000000
(1662867197.600980) can0 76F#037F367800000000
(1662867197.601944) can0 76F#037F367800000000
(1662867197.607779) can0 76F#0176000000000000
(1662867197.612826) can0 767#10E136B62B752B14
(1662867197.613849) can0 76F#3000010000000000
(1662867197.614872) can0 767#211B552B552B552B
(1662867197.618801) can0 767#22542B742B552BD3
(1662867197.620818) can0 767#2312F86CDFEFFFFF
(1662867197.622770) can0 767#2419BE49214C090A
(1662867197.624748) can0 767#2509E9088A29CE52
(1662867197.626690) can0 767#2657AD3CE7DFFFFF
(1662867197.628740) can0 767#27FFFFFFFFFFFFFF
(1662867197.630762) can0 767#28FFFFFFFFFFFFFF
(1662867197.634716) can0 767#29FFFFFFFFFFFFFF
(1662867197.636701) can0 767#2AFFFFF59CA8102F
(1662867197.638639) can0 767#2B1AD72B752B752B
(1662867197.640532) can0 767#2C752B752B753375
(1662867197.642441) can0 767#2D33953396339633
(1662867197.644337) can0 767#2E9633B633B633B6
(1662867197.646264) can0 767#2F33B633B633B633
(1662867197.648150) can0 767#20D633D633D63BD7
(1662867197.650074) can0 767#213BF73B3844793C
(1662867197.651942) can0 767#22B633911AAC21B0
(1662867197.653903) can0 767#23731BE7FFFF7EDF
(1662867197.655846) can0 767#24196D9623D7237A
(1662867197.657804) can0 767#2585FFFFFFFFFFFF
(1662867197.660022) can0 767#26FFFFFFFFFFFFFF
(1662867197.663815) can0 767#27FFFFFFFFFFFFFF
(1662867197.666716) can0 767#28FFFFFFFFFA9D18
(1662867197.668681) can0 767#293C561BB85C3ED7
(1662867197.670679) can0 767#2AFFFFBAD62E5B88
(1662867197.672693) can0 767#2B00701A1834383C
(1662867197.674646) can0 767#2CF733B633B63396
(1662867197.676540) can0 767#2D33963396339633
(1662867197.678435) can0 767#2E96339633953375
(1662867197.680362) can0 767#2F335533552B552B
(1662867197.682314) can0 767#2014230000000000
(1662867197.683994) can0 76F#037F367800000000
(1662867197.685942) can0 76F#037F367800000000
(1662867197.693849) can0 76F#0176000000000000
(1662867197.698595) can0 767#10E1363BAEFFFFFF
(1662867197.699601) can0 76F#3000010000000000
(1662867197.700648) can0 767#21FFB8B547003323
(1662867197.702647) can0 767#22962B342B132314
(1662867197.704638) can0 767#232B3BAED543F41A
(1662867197.706542) can0 767#24342B142B3323B2
(1662867197.708581) can0 767#25125985FFFFFFFF
(1662867197.710564) can0 767#26548C46006C0934
(1662867197.712554) can0 767#2723552B132B5022
(1662867197.714553) can0 767#284B11880087008B
(1662867197.716580) can0 767#2929916B369DF9BD
(1662867197.718538) can0 767#2A9BD65DE79DEF9E
(1662867197.720455) can0 767#2BEF5DEFBBD619BE
(1662867197.722477) can0 767#2C127C6921670091
(1662867197.724437) can0 767#2D1A952B542B542B
(1662867197.726332) can0 767#2E542B542B552B55
(1662867197.728228) can0 767#2F2B552B552B552B
(1662867197.730140) can0 767#20552B552B553355
(1662867197.733009) can0 767#2133953395339633
(1662867197.734937) can0 767#2296339633963396
(1662867197.736833) can0 767#23339633D633D633
(1662867197.738767) can0 767#24D63BD633183C18
(1662867197.740733) can0 767#2534911A2B09538C
(1662867197.742664) can0 767#263CE7FFFF9CB638
(1662867197.744630) can0 767#2744761B994C5EDF
(1662867197.746614) can0 767#28FFFFFFFFFFFFFF
(1662867197.748623) can0 767#29FFFFFFFFFFFFFF
(1662867197.750564) can0 767#2AFFFFDEFF7A8DB8
(1662867197.752585) can0 767#2B2B551B5A7DFFFF
(1662867197.754560) can0 767#2CFFFF328C0911CE
(1662867197.756559) can0 767#2D11F733383CD733
(1662867197.758538) can0 767#2E96339533952B75
(1662867197.760430) can0 767#2F2B762B752B752B
(1662867197.762444) can0 767#20552B0000000000
(1662867197.764963) can0 76F#037F367800000000
(1662867197.765931) can0 76F#037F367800000000
(1662867197.772752) can0 76F#0176000000000000
(1662867197.777516) can0 767#10E136552B542B54
(1662867197.778531) can0 76F#3000010000000000
(1662867197.779537) can0 767#212B552B752B542B
(1662867197.781458) can0 767#22132375335EE7FF
(1662867197.783488) can0 767#23FFFFFF91732B01
(1662867197.785462) can0 767#24B633332BB21A91
(1662867197.787446) can0 767#2512DAA5DEFF113B
(1662867197.789338) can0 767#26B222F22AD22A51
(1662867197.791293) can0 767#2712188DFFFFFFFF
(1662867197.793277) can0 767#28327C2600EF11D8
(1662867197.795253) can0 767#296C36649222F32A
(1662867197.797294) can0 767#2A142B332BF32A70
(1662867197.799280) can0 767#2B22AD110A01C808
(1662867197.801289) can0 767#2CC8082919AA29EB
(1662867197.803263) can0 767#2D39EB39AA310821
(1662867197.805262) can0 767#2EA710C900CD1113
(1662867197.807162) can0 767#2F2B742BF22AF32A
(1662867197.809070) can0 767#20132B142B132B13
(1662867197.812760) can0 767#212B132B332B332B
(1662867197.814664) can0 767#22332B342B342B35
(1662867197.816549) can0 767#232B552B552B1423
(1662867197.818465) can0 767#2414231423352B75
(1662867197.820365) can0 767#252B752B762B752B
(1662867197.822259) can0 767#2695339533963396
(1662867197.824187) can0 767#2733D633383C1834
(1662867197.826186) can0 767#282F122D3276ADFF
(1662867197.828190) can0 767#29FF9FEF985C551B
(1662867197.830217) can0 767#2AF8335FDFFFFFFF
(1662867197.833179) can0 767#2BFFFFFFFFFFFFFF
(1662867197.835206) can0 767#2CFFFFFFFFDA9DB7
(1662867197.837181) can0 767#2D23361BBA95FFFF
(1662867197.839208) can0 767#2E5CEF8D520A0175
(1662867197.841172) can0 767#2F2BF733B6335533
(1662867197.843247) can0 767#20552B0000000000
(1662867197.844986) can0 76F#037F367800000000
(1662867197.845953) can0 76F#037F367800000000
(1662867197.852765) can0 76F#0176000000000000
(1662867197.857671) can0 767#10E136752B752B75
(1662867197.858687) can0 76F#3000010000000000
(1662867197.859702) can0 767#212B552B542B542B
(1662867197.865317) can0 767#22542B342B342B34
(1662867197.869054) can0 767#232B342B132B332B
(1662867197.871925) can0 767#24332BD222D54BDF
(1662867197.873924) can0 767#25F7FFFFFFFFB494
(1662867197.875867) can0 767#264C01B21A3012B1
(1662867197.877785) can0 767#2722999DFFFF9394
(1662867197.879761) can0 767#284B09D22AB12ACF
(1662867197.881714) can0 767#2901D77CFFFFFFFF
(1662867197.883682) can0 767#2AF27B46000F127C
(1662867197.885702) can0 767#2BB69EF7BEF7D784
(1662867197.887662) can0 767#2C511A91229122B1
(1662867197.889558) can0 767#2D22B122B22AF22A
(1662867197.891468) can0 767#2EB12A51224F22EE
(1662867197.893372) can0 767#2F19ED11ED11ED19
(1662867197.895431) can0 767#200F1A9122D22AF3
(1662867197.897341) can0 767#212AB22AB22AD22A
(1662867197.899247) can0 767#22D22AD22AD22AD2
(1662867197.901145) can0 767#232AD22AD22AD22A
(1662867197.903041) can0 767#24D32AF32A132B13
(1662867197.904944) can0 767#252B132B132B1323
(1662867197.906847) can0 767#26743B7533954396
(1662867197.908748) can0 767#273B142B542B542B
(1662867197.910646) can0 767#28552B552B752B75
(1662867197.912564) can0 767#292B752B55339633
(1662867197.914548) can0 767#2AB633D733762BCD
(1662867197.916493) can0 767#2B111184FEFFFFF7
(1662867197.918454) can0 767#2C196D1513173C3E
(1662867197.920427) can0 767#2DD7FFFFFFFFFFFF
(1662867197.922410) can0 767#2EFFFFDFFFFA9D76
(1662867197.924384) can0 767#2F1BF4121B9EFFFF
(1662867197.926415) can0 767#20DBDE0000000000
(1662867197.928978) can0 76F#037F367800000000
(1662867197.929943) can0 76F#037F367800000000
(1662867197.937392) can0 76F#0176000000000000
(1662867197.942769) can0 767#10E1362819AD09D7
(1662867197.943785) can0 76F#3000010000000000
(1662867197.944800) can0 767#2133B62B542B552B
(1662867197.946753) can0 767#22352B352B342B54
(1662867197.948649) can0 767#232B332B142B142B
(1662867197.950558) can0 767#24132BF22A122B12
(1662867197.952444) can0 767#252B122BF32AD22A
(1662867197.954345) can0 767#26D22AB12A712294
(1662867197.956335) can0 767#274BFFFFFFFFFFFF
(1662867197.958260) can0 767#28DEF7B67CB45396
(1662867197.960197) can0 767#297C3DE7FFFF5DE7
(1662867197.962187) can0 767#2AE818CD11B222EF
(1662867197.964202) can0 767#2B09924BFFFFFFFF
(1662867197.966193) can0 767#2CB48C26006D01F8
(1662867197.968164) can0 767#2D84BEFFE71897B5
(1662867197.970145) can0 767#2E7BC62F124F2250
(1662867197.972062) can0 767#2F2250224F225022
(1662867197.974070) can0 767#2050225022912291
(1662867197.976038) can0 767#2122912291229222
(1662867197.977973) can0 767#2292229122912291
(1662867197.979845) can0 767#2322712271227122
(1662867197.981748) can0 767#2471227122912290
(1662867197.983653) can0 767#2522912A912A922A
(1662867197.985553) can0 767#26B22AB22AB122B1
(1662867197.987476) can0 767#272AB12AF22A100A
(1662867197.989388) can0 767#28F87CDEF79EF79D
(1662867197.991773) can0 767#29EFD363D21A142B
(1662867197.993770) can0 767#2A142B342B342B54
(1662867197.995637) can0 767#2B2B342B342B552B
(1662867197.997539) can0 767#2C552B552B552B76
(1662867197.999461) can0 767#2D2BD733300ACF4A
(1662867198.001401) can0 767#2EBDFFFFFF1875F5
(1662867198.003384) can0 767#2F12D72B7EDFFFFF
(1662867198.005458) can0 767#20FFFF0000000000
(1662867198.008978) can0 76F#037F367800000000
(1662867198.009943) can0 76F#037F367800000000
(1662867198.016760) can0 76F#0176000000000000
(1662867198.021335) can0 767#10E136FFFFFCD6F7
(1662867198.022356) can0 76F#3000010000000000
(1662867198.023396) can0 767#213BD40AB86CFFFF
(1662867198.025371) can0 767#221BE789290F0AB6
(1662867198.027347) can0 767#2333342B342B342B
(1662867198.029256) can0 767#24332B132B132B13
(1662867198.032753) can0 767#252B332BF32AF22A
(1662867198.034677) can0 767#26F22AF22AD22AB2
(1662867198.036553) can0 767#272AB12AB122B12A
(1662867198.038472) can0 767#28B12AB122912270
(1662867198.040495) can0 767#2922B1325DDFFFFF
(1662867198.042528) can0 767#2AFFFFFFFFFFFFBE
(1662867198.044536) can0 767#2BEFFFFFFFFFFFFF
(1662867198.046461) can0 767#2CCE5AA7009122CE
(1662867198.048376) can0 767#2D110F1ABCCEFFFF
(1662867198.050381) can0 767#2EB8B50400CA008B
(1662867198.052393) can0 767#2F001AB697B5EC31
(1662867198.054386) can0 767#20FFFF948CAE112F
(1662867198.056361) can0 767#21222E222E222E22
(1662867198.058263) can0 767#222F222E222F222E
(1662867198.060157) can0 767#23222F222F222F22
(1662867198.063891) can0 767#242F222F222F222F
(1662867198.066791) can0 767#25222F224F224F22
(1662867198.069692) can0 767#264F224F22502270
(1662867198.072610) can0 767#2722702270227022
(1662867198.075479) can0 767#2870227022702270
(1662867198.078370) can0 767#292270229122501A
(1662867198.080315) can0 767#2A70229EEFFFFFFF
(1662867198.082291) can0 767#2BFFD7BDE810B22A
(1662867198.084259) can0 767#2CF22AF22AF22AF2
(1662867198.086162) can0 767#2D2A132B132B132B
(1662867198.088057) can0 767#2E332B342B342B34
(1662867198.089960) can0 767#2F2B742B542B962B
(1662867198.091928) can0 767#20720A0000000000
(1662867198.094991) can0 76F#037F367800000000
(1662867198.095951) can0 76F#037F367800000000
(1662867198.102764) can0 76F#0176000000000000
(1662867198.107429) can0 767#10E1367063DEFFDF
(1662867198.108446) can0 76F#3000010000000000
(1662867198.109473) can0 767#21F7D63BB412B95C
(1662867198.112792) can0 767#225CE7FFFFDFFFB8
(1662867198.114784) can0 767#2364D30AF643DFEF
(1662867198.119435) can0 767#249DF7EA390F0AB6
(1662867198.121387) can0 767#2533F32A132B132B
(1662867198.123370) can0 767#26132BD32AD22AB2
(1662867198.125289) can0 767#272AB22AD22AB22A
(1662867198.127294) can0 767#28912A912A912A91
(1662867198.129170) can0 767#292A912291229122
(1662867198.132782) can0 767#2A50225022502250
(1662867198.134694) can0 767#2B225022EE11B684
(1662867198.136765) can0 767#2CFFFFFFFFFFFFFF
(1662867198.138739) can0 767#2DFFFFFFFFFF5DE7
(1662867198.140698) can0 767#2E6D4A04008D09AD
(1662867198.142707) can0 767#2F098D11D9B5FFFF
(1662867198.144705) can0 767#20FFFFB494B27357
(1662867198.146696) can0 767#219517959EEFDFFF
(1662867198.148702) can0 767#22FFFF56AD0819AD
(1662867198.150748) can0 767#2319AD19AD21AD21
(1662867198.152671) can0 767#24CD19CD21AD19CD
(1662867198.154566) can0 767#2519CE21CE19CE21
(1662867198.156477) can0 767#26CE21CE21CE21CE
(1662867198.158384) can0 767#2721EE210E220E22
(1662867198.160307) can0 767#280E220E220D220E
(1662867198.162345) can0 767#29220F220F220F22
(1662867198.164297) can0 767#2A0F224F224F224F
(1662867198.166347) can0 767#2B22502250225022
(1662867198.168337) can0 767#2CAE09DAADFFFFFF
(1662867198.170331) can0 767#2DFFFFFFA6106B11
(1662867198.173180) can0 767#2E9122912A912A92
(1662867198.175070) can0 767#2F2AB22AD22AB22A
(1662867198.177046) can0 767#20B22A0000000000
(1662867198.179004) can0 76F#037F367800000000
(1662867198.179964) can0 76F#037F367800000000
(1662867198.187446) can0 76F#0176000000000000
(1662867198.192649) can0 767#10E136D22AF32A13
(1662867198.193667) can0 76F#3000010000000000
(1662867198.194697) can0 767#212B132B132B142B
(1662867198.196589) can0 767#22142B552B911212
(1662867198.198526) can0 767#237CFFFFFDCE1423
(1662867198.200485) can0 767#24F51A5A85BEF7DC
(1662867198.202475) can0 767#25CE552B920AFAA5
(1662867198.204387) can0 767#26FFFF528C4C0154
(1662867198.206386) can0 767#272BF22AD22AD22A
(1662867198.208381) can0 767#28D22AB12AB122B1
(1662867198.210286) can0 767#2922912291227022
(1662867198.212278) can0 767#2A70227122712250
(1662867198.214277) can0 767#2B2250224F224F22
(1662867198.216171) can0 767#2C2F2230222F222E
(1662867198.218070) can0 767#2D222E22EE210E1A
(1662867198.220018) can0 767#2EAD19D68C7DF7FF
(1662867198.222010) can0 767#2FFFFFFF7DEFD8B5
(1662867198.223976) can0 767#20C7188510715399
(1662867198.225888) can0 767#219D5AC6DCD6FFFF
(1662867198.227954) can0 767#22FFFFFFFFBEF7BE
(1662867198.229878) can0 767#23F73CE7DBDE59C6
(1662867198.233794) can0 767#24FFFFF8BD650029
(1662867198.235770) can0 767#2511AD218D198D19
(1662867198.237665) can0 767#268D19AD19AD198D
(1662867198.239569) can0 767#2719AD19AD19AD19
(1662867198.241472) can0 767#28AD19AC19AC19AC
(1662867198.243368) can0 767#2919AD19AC19AD19
(1662867198.245281) can0 767#2AAC19AC19AD19CD
(1662867198.247279) can0 767#2B19AD19CD19CD19
(1662867198.249223) can0 767#2CCD19ED19ED19ED
(1662867198.251062) can0 767#2D19EE21EE210E22
(1662867198.253013) can0 767#2E6D01B35BFFFFFF
(1662867198.255036) can0 767#2FFFFFFFD07B4600
(1662867198.257044) can0 767#2070220000000000
(1662867198.258991) can0 76F#037F367800000000
(1662867198.259951) can0 76F#037F367800000000
(1662867198.266825) can0 76F#0176000000000000
