base hex  timestamps absolute
2029.71329 2 0737       Rx   d 8 07 23 00 00 80 00 00 04 
2029.99246 2 073F       Rx   d 8 05 63 DC 61 C5 4E 00 00 
2030.18588 2 0737       Rx   d 8 07 23 00 00 80 04 00 04 
2030.48875 2 073F       Rx   d 8 05 63 10 00 00 00 00 00 
2030.81797 2 0737       Rx   d 8 07 23 00 00 80 08 00 04 
2031.12882 2 073F       Rx   d 8 05 63 00 00 C5 4E 00 00 
2031.43838 2 0737       Rx   d 8 07 23 00 00 80 0C 00 04 
2031.68051 2 073F       Rx   d 8 05 63 03 00 43 FF 00 00 
2031.86871 2 0737       Rx   d 8 07 23 00 00 80 10 00 04 
2032.18021 2 073F       Rx   d 8 05 63 8A 62 00 08 00 00 
2032.33834 2 0737       Rx   d 8 07 23 00 00 80 14 00 04 
2032.58069 2 073F       Rx   d 8 05 63 00 00 00 00 00 00 
2032.81681 2 0737       Rx   d 8 07 23 00 00 80 18 00 04 
2033.08017 2 073F       Rx   d 8 05 63 04 00 00 08 00 00 
2033.29271 2 0737       Rx   d 8 07 23 00 00 80 1C 00 04 
2033.58706 2 073F       Rx   d 8 05 63 70 01 11 FF 00 00 
2033.68868 2 0737       Rx   d 8 07 23 00 00 80 20 00 04 
2034.01179 2 073F       Rx   d 8 05 63 E1 23 C5 57 00 00 
2034.16913 2 0737       Rx   d 8 07 23 00 00 80 24 00 04 
2034.48920 2 073F       Rx   d 8 05 63 24 00 00 00 00 00 
2034.64927 2 0737       Rx   d 8 07 23 00 00 80 28 00 04 
2034.90057 2 073F       Rx   d 8 05 63 00 00 C5 57 00 00 
2034.98030 2 0737       Rx   d 8 07 23 00 00 80 2C 00 04 
2035.28901 2 073F       Rx   d 8 05 63 01 00 1B FF 00 00 
2035.44882 2 0737       Rx   d 8 07 23 00 00 80 30 00 04 
2035.68569 2 073F       Rx   d 8 05 63 81 23 A8 24 00 00 
2035.77080 2 0737       Rx   d 8 07 23 00 00 80 34 00 04 
2036.08793 2 073F       Rx   d 8 05 63 04 00 88 14 00 00 
2036.25078 2 0737       Rx   d 8 07 23 00 00 80 38 00 04 
2036.58555 2 073F       Rx   d 8 05 63 19 00 A8 24 00 00 
2036.88752 2 0737       Rx   d 8 07 23 00 00 80 3C 00 04 
2037.21221 2 073F       Rx   d 8 05 63 04 00 05 FF 00 00 
2037.53494 2 0737       Rx   d 8 07 23 00 00 80 40 00 04 
2037.84267 2 073F       Rx   d 8 05 63 DD 21 A8 24 00 00 
2038.15360 2 0737       Rx   d 8 07 23 00 00 80 44 00 04 
2038.38436 2 073F       Rx   d 8 05 63 00 00 A8 24 00 00 
2038.63997 2 0737       Rx   d 8 07 23 00 00 80 48 00 04 
2038.88710 2 073F       Rx   d 8 05 63 00 00 A8 24 00 00 
2039.13340 2 0737       Rx   d 8 07 23 00 00 80 4C 00 04 
2039.38317 2 073F       Rx   d 8 05 63 00 00 01 FF 00 00 
2039.55592 2 0737       Rx   d 8 07 23 00 00 80 50 00 04 
2039.93412 2 073F       Rx   d 8 05 63 AF 21 CE 2C 00 00 
2040.18814 2 0737       Rx   d 8 07 23 00 00 80 54 00 04 
2040.48254 2 073F       Rx   d 8 05 63 00 00 CE 2C 00 00 
2040.66943 2 0737       Rx   d 8 07 23 00 00 80 58 00 04 
2040.98374 2 073F       Rx   d 8 05 63 00 00 CE 2C 00 00 
2041.04950 2 0737       Rx   d 8 07 23 00 00 80 5C 00 04 
2041.28235 2 073F       Rx   d 8 05 63 00 00 01 FF 00 00 
2041.36737 2 0737       Rx   d 8 07 23 00 00 80 60 00 04 
2041.69218 2 073F       Rx   d 8 05 63 15 21 8F 4F 00 00 
2041.84610 2 0737       Rx   d 8 07 23 00 00 80 64 00 04 
2042.17511 2 073F       Rx   d 8 05 63 00 00 C1 4E 00 00 
2042.33953 2 0737       Rx   d 8 07 23 00 00 80 68 00 04 
2042.57265 2 073F       Rx   d 8 05 63 00 00 8F 4F 00 00 
2042.64997 2 0737       Rx   d 8 07 23 00 00 80 6C 00 04 
2042.89250 2 073F       Rx   d 8 05 63 00 00 12 FF 00 00 
2042.96965 2 0737       Rx   d 8 07 23 00 00 80 70 00 04 
2043.28918 2 073F       Rx   d 8 05 63 16 21 8F 4F 00 00 
2043.44856 2 0737       Rx   d 8 07 23 00 00 80 74 00 04 
2043.68101 2 073F       Rx   d 8 05 63 00 00 C1 4E 00 00 
2043.76976 2 0737       Rx   d 8 07 23 00 00 80 78 00 04 
2044.08582 2 073F       Rx   d 8 05 63 00 00 8F 4F 00 00 
2044.24863 2 0737       Rx   d 8 07 23 00 00 80 7C 00 04 
2044.48537 2 073F       Rx   d 8 05 63 00 00 12 FF 00 00 
2044.74319 2 0737       Rx   d 8 07 23 00 00 80 80 00 04 
2045.08098 2 073F       Rx   d 8 05 63 FF FF FF FF 00 00 
2045.32543 2 0737       Rx   d 8 07 23 00 00 80 84 00 04 
2045.58353 2 073F       Rx   d 8 05 63 FF FF FF FF 00 00 
2045.80449 2 0737       Rx   d 8 07 23 00 00 80 88 00 04 
2046.08011 2 073F       Rx   d 8 05 63 FF FF FF FF 00 00 
2046.27228 2 0737       Rx   d 8 07 23 00 00 80 8C 00 04 
2046.57946 2 073F       Rx   d 8 05 63 FF FF FF FF 00 00 
2046.74225 2 0737       Rx   d 8 07 23 00 00 80 90 00 04 
2046.98098 2 073F       Rx   d 8 05 63 FF FF FF FF 00 00 
2047.21050 2 0737       Rx   d 8 07 23 00 00 80 94 00 04 
2047.48222 2 073F       Rx   d 8 05 63 FF FF FF FF 00 00 
2047.62238 2 0737       Rx   d 8 07 23 00 00 80 98 00 04 
2047.88254 2 073F       Rx   d 8 05 63 FF FF FF FF 00 00 
2047.93765 2 0737       Rx   d 8 07 23 00 00 80 9C 00 04 
2048.16990 2 073F       Rx   d 8 05 63 FF FF FF FF 00 00 
2048.25057 2 0737       Rx   d 8 07 23 00 00 80 A0 00 04 
2048.58244 2 073F       Rx   d 8 05 63 FF FF FF FF 00 00 
2048.74590 2 0737       Rx   d 8 07 23 00 00 80 A4 00 04 
2048.97152 2 073F       Rx   d 8 05 63 FF FF FF FF 00 00 
2049.04904 2 0737       Rx   d 8 07 23 00 00 80 A8 00 04 
2049.38122 2 073F       Rx   d 8 05 63 FF FF FF FF 00 00 
2049.54567 2 0737       Rx   d 8 07 23 00 00 80 AC 00 04 
2049.80511 2 073F       Rx   d 8 05 63 FF FF FF FF 00 00 
2049.85139 2 0737       Rx   d 8 07 23 00 00 80 B0 00 04 
2050.18185 2 073F       Rx   d 8 05 63 FF FF FF FF 00 00 
2050.34076 2 0737       Rx   d 8 07 23 00 00 80 B4 00 04 
2050.58010 2 073F       Rx   d 8 05 63 FF FF FF FF 00 00 
2050.83002 2 0737       Rx   d 8 07 23 00 00 80 B8 00 04 
2051.07859 2 073F       Rx   d 8 05 63 FF FF FF FF 00 00 
2051.30626 2 0737       Rx   d 8 07 23 00 00 80 BC 00 04 
2051.56815 2 073F       Rx   d 8 05 63 FF FF FF FF 00 00 
2051.76664 2 0737       Rx   d 8 07 23 00 00 80 C0 00 04 
2052.09188 2 073F       Rx   d 8 05 63 FF FF FF FF 00 00 
2052.35641 2 0737       Rx   d 8 07 23 00 00 80 C4 00 04 
2052.67952 2 073F       Rx   d 8 05 63 FF FF FF FF 00 00 
2052.82946 2 0737       Rx   d 8 07 23 00 00 80 C8 00 04 
2053.08040 2 073F       Rx   d 8 05 63 FF FF FF FF 00 00 
2053.29774 2 0737       Rx   d 8 07 23 00 00 80 CC 00 04 
2053.56720 2 073F       Rx   d 8 05 63 FF FF FF FF 00 00 
2053.74975 2 0737       Rx   d 8 07 23 00 00 80 D0 00 04 
2054.07946 2 073F       Rx   d 8 05 63 FF FF FF FF 00 00 
2054.17057 2 0737       Rx   d 8 07 23 00 00 80 D4 00 04 
2054.50319 2 073F       Rx   d 8 05 63 FF FF FF FF 00 00 
2054.65091 2 0737       Rx   d 8 07 23 00 00 80 D8 00 04 
2054.97605 2 073F       Rx   d 8 05 63 FF FF FF FF 00 00 
2055.14168 2 0737       Rx   d 8 07 23 00 00 80 DC 00 04 
2055.37864 2 073F       Rx   d 8 05 63 FF FF FF FF 00 00 
2055.45001 2 0737       Rx   d 8 07 23 00 00 80 E0 00 04 
2055.56882 2 073F       Rx   d 8 05 63 FF FF FF FF 00 00 
2055.77541 2 0737       Rx   d 8 07 23 00 00 80 E4 00 04 
2056.10282 2 073F       Rx   d 8 05 63 FF FF FF FF 00 00 
2056.25731 2 0737       Rx   d 8 07 23 00 00 80 E8 00 04 
2056.57576 2 073F       Rx   d 8 05 63 FF FF FF FF 00 00 
2056.90145 2 0737       Rx   d 8 07 23 00 00 80 EC 00 04 
2057.16543 2 073F       Rx   d 8 05 63 FF FF FF FF 00 00 
2057.33790 2 0737       Rx   d 8 07 23 00 00 80 F0 00 04 
2057.57440 2 073F       Rx   d 8 05 63 FF FF FF FF 00 00 
2057.80388 2 0737       Rx   d 8 07 23 00 00 80 F4 00 04 
2058.06743 2 073F       Rx   d 8 05 63 FF FF FF FF 00 00 
2058.26642 2 0737       Rx   d 8 07 23 00 00 80 F8 00 04 
2058.56694 2 073F       Rx   d 8 05 63 FF FF FF FF 00 00 
2058.72810 2 0737       Rx   d 8 07 23 00 00 80 FC 00 04 
2058.97532 2 073F       Rx   d 8 05 63 FF FF FF FF 00 00 
2059.18529 2 0737       Rx   d 8 07 23 00 00 81 00 00 04 
2059.46602 2 073F       Rx   d 8 05 63 00 00 60 00 00 00 
2059.65011 2 0737       Rx   d 8 07 23 00 00 81 04 00 04 
2059.97965 2 073F       Rx   d 8 05 63 00 00 00 00 00 00 
2060.11810 2 0737       Rx   d 8 07 23 00 00 81 08 00 04 
2060.36603 2 073F       Rx   d 8 05 63 00 00 00 00 00 00 
2060.42963 2 0737       Rx   d 8 07 23 00 00 81 0C 00 04 
2060.66247 2 073F       Rx   d 8 05 63 00 00 00 00 00 00 
2060.75183 2 0737       Rx   d 8 07 23 00 00 81 10 00 04 
2061.06256 2 073F       Rx   d 8 05 63 02 04 00 00 00 00 
2061.23719 2 0737       Rx   d 8 07 23 00 00 81 14 00 04 
2061.46252 2 073F       Rx   d 8 05 63 00 80 00 00 00 00 
2061.70568 2 0737       Rx   d 8 07 23 00 00 81 18 00 04 
2061.96535 2 073F       Rx   d 8 05 63 00 00 00 30 00 00 
2062.13646 2 0737       Rx   d 8 07 23 00 00 81 1C 00 04 
2062.37501 2 073F       Rx   d 8 05 63 02 00 00 00 00 00 
2062.60201 2 0737       Rx   d 8 07 23 00 00 81 20 00 04 
2062.88157 2 073F       Rx   d 8 05 63 FF FF FF FF 00 00 
2062.98399 2 0737       Rx   d 8 07 23 00 00 81 24 00 04 
2063.32711 2 073F       Rx   d 8 05 63 FF FF FF FF 00 00 
2063.45953 2 0737       Rx   d 8 07 23 00 00 81 28 00 04 
2063.80958 2 073F       Rx   d 8 05 63 FF FF FF FF 00 00 
2063.94750 2 0737       Rx   d 8 07 23 00 00 81 2C 00 04 
2064.27063 2 073F       Rx   d 8 05 63 FF FF FF FF 00 00 
2064.43273 2 0737       Rx   d 8 07 23 00 00 81 30 00 04 
2064.67066 2 073F       Rx   d 8 05 63 FF FF FF FF 00 00 
2064.75556 2 0737       Rx   d 8 07 23 00 00 81 34 00 04 
2065.06369 2 073F       Rx   d 8 05 63 FF FF FF FF 00 00 
2065.23858 2 0737       Rx   d 8 07 23 00 00 81 38 00 04 
2065.46993 2 073F       Rx   d 8 05 63 FF FF FF FF 00 00 
2065.55225 2 0737       Rx   d 8 07 23 00 00 81 3C 00 04 
2065.86355 2 073F       Rx   d 8 05 63 FF FF FF FF 00 00 
2066.03948 2 0737       Rx   d 8 07 23 00 00 81 40 00 04 
2066.36299 2 073F       Rx   d 8 05 63 FF 07 7A 71 00 00 
2066.52270 2 0737       Rx   d 8 07 23 00 00 81 44 00 04 
2066.83567 2 073F       Rx   d 8 05 63 D6 12 00 00 00 00 
2067.14932 2 0737       Rx   d 8 07 23 00 00 81 48 00 04 
2067.46279 2 073F       Rx   d 8 05 63 00 36 46 50 00 00 
2067.73616 2 0737       Rx   d 8 07 23 00 00 81 4C 00 04 
2067.95975 2 073F       Rx   d 8 05 63 41 41 41 4A 00 00 
2068.12563 2 0737       Rx   d 8 07 23 00 00 81 50 00 04 
2068.36216 2 073F       Rx   d 8 05 63 47 53 57 38 00 00 
2068.43845 2 0737       Rx   d 8 07 23 00 00 81 54 00 04 
2068.65904 2 073F       Rx   d 8 05 63 59 32 32 30 00 00 
2068.76125 2 0737       Rx   d 8 07 23 00 00 81 58 00 04 
2069.06470 2 073F       Rx   d 8 05 63 30 33 00 00 00 00 
2069.24046 2 0737       Rx   d 8 07 23 00 00 81 5C 00 04 
2069.56113 2 073F       Rx   d 8 05 63 00 FF FF FF 00 00 
2069.71309 2 0737       Rx   d 8 07 23 00 00 81 60 00 04 
2069.96769 2 073F       Rx   d 8 05 63 FF FF FF FF 00 00 
2070.04309 2 0737       Rx   d 8 07 23 00 00 81 64 00 04 
2070.26144 2 073F       Rx   d 8 05 63 FF FF FF FF 00 00 
2070.34987 2 0737       Rx   d 8 07 23 00 00 81 68 00 04 
2070.66449 2 073F       Rx   d 8 05 63 FF FF FF FF 00 00 
2070.84054 2 0737       Rx   d 8 07 23 00 00 81 6C 00 04 
2071.16029 2 073F       Rx   d 8 05 63 FF FF 00 00 00 00 
2071.33029 2 0737       Rx   d 8 07 23 00 00 81 70 00 04 
2071.56718 2 073F       Rx   d 8 05 63 00 FF FF FF 00 00 
2071.63656 2 0737       Rx   d 8 07 23 00 00 81 74 00 04 
2071.97025 2 073F       Rx   d 8 05 63 FF FF FF FF 00 00 
2072.12788 2 0737       Rx   d 8 07 23 00 00 81 78 00 04 
2072.36027 2 073F       Rx   d 8 05 63 FF FF FF FF 00 00 
2072.43613 2 0737       Rx   d 8 07 23 00 00 81 7C 00 04 
2072.65670 2 073F       Rx   d 8 05 63 FF FF FF FF 00 00 
2072.76594 2 0737       Rx   d 8 07 23 00 00 81 80 00 04 
2073.07108 2 073F       Rx   d 8 05 63 FF FF 00 FF 00 00 
2073.24257 2 0737       Rx   d 8 07 23 00 00 81 84 00 04 
2073.46901 2 073F       Rx   d 8 05 63 FF FF FF FF 00 00 
2073.66923 2 0737       Rx   d 8 07 23 00 00 81 88 00 04 
2073.95921 2 073F       Rx   d 8 05 63 00 FF FF FF 00 00 
2074.13394 2 0737       Rx   d 8 07 23 00 00 81 8C 00 04 
2074.36688 2 073F       Rx   d 8 05 63 FF FF FF FF 00 00 
2074.53160 2 0737       Rx   d 8 07 23 00 00 81 90 00 04 
2074.78655 2 073F       Rx   d 8 05 63 FF FF FF FF 00 00 
2075.01552 2 0737       Rx   d 8 07 23 00 00 81 94 00 04 
2075.25889 2 073F       Rx   d 8 05 63 FF FF FF FF 00 00 
2075.46915 2 0737       Rx   d 8 07 23 00 00 81 98 00 04 
2075.81672 2 073F       Rx   d 8 05 63 FF FF 09 96 00 00 
2075.94949 2 0737       Rx   d 8 07 23 00 00 81 9C 00 04 
2076.27279 2 073F       Rx   d 8 05 63 FF FF FF FF 00 00 
2076.43496 2 0737       Rx   d 8 07 23 00 00 81 A0 00 04 
2076.80986 2 073F       Rx   d 8 05 63 D9 12 D8 12 00 00 
2076.92800 2 0737       Rx   d 8 07 23 00 00 81 A4 00 04 
2077.15547 2 073F       Rx   d 8 05 63 FF FF FF FF 00 00 
2077.27980 2 0737       Rx   d 8 07 23 00 00 81 A8 00 04 
2077.56439 2 073F       Rx   d 8 05 63 FF FF FF FF 00 00 
2077.74830 2 0737       Rx   d 8 07 23 00 00 81 AC 00 04 
2078.06352 2 073F       Rx   d 8 05 63 FF FF 83 6E 00 00 
2078.36664 2 0737       Rx   d 8 07 23 00 00 81 B0 00 04 
2078.67381 2 073F       Rx   d 8 05 63 6E FF FF FF 00 00 
2078.84331 2 0737       Rx   d 8 07 23 00 00 81 B4 00 04 
2079.15612 2 073F       Rx   d 8 05 63 FF FF FF FF 00 00 
2079.33802 2 0737       Rx   d 8 07 23 00 00 81 B8 00 04 
2079.65606 2 073F       Rx   d 8 05 63 EA A6 40 24 00 00 
2079.82284 2 0737       Rx   d 8 07 23 00 00 81 BC 00 04 
2080.06276 2 073F       Rx   d 8 05 63 FF FF FF FF 00 00 
2080.27411 2 0737       Rx   d 8 07 23 00 00 81 C0 00 04 
2080.55578 2 073F       Rx   d 8 05 63 FF FF FF FF 00 00 
2080.76329 2 0737       Rx   d 8 07 23 00 00 81 C4 00 04 
2081.07943 2 073F       Rx   d 8 05 63 FF FF FF FF 00 00 
2081.19795 2 0737       Rx   d 8 07 23 00 00 81 C8 00 04 
2081.46179 2 073F       Rx   d 8 05 63 FF FF 42 52 00 00 
2081.51247 2 0737       Rx   d 8 07 23 00 00 81 CC 00 04 
2081.78277 2 073F       Rx   d 8 05 63 32 39 2D 31 00 00 
2081.83310 2 0737       Rx   d 8 07 23 00 00 81 D0 00 04 
2082.16181 2 073F       Rx   d 8 05 63 34 42 33 32 00 00 
2082.31475 2 0737       Rx   d 8 07 23 00 00 81 D4 00 04 
2082.56190 2 073F       Rx   d 8 05 63 31 2D 41 42 00 00 
2082.63333 2 0737       Rx   d 8 07 23 00 00 81 D8 00 04 
2083.02021 2 073F       Rx   d 8 05 63 00 00 00 00 00 00 
2083.11234 2 0737       Rx   d 8 07 23 00 00 81 DC 00 04 
2083.36122 2 073F       Rx   d 8 05 63 00 00 00 00 00 00 
2083.43299 2 0737       Rx   d 8 07 23 00 00 81 E0 00 04 
2083.82437 2 073F       Rx   d 8 05 63 00 00 B3 08 00 00 
2083.91582 2 0737       Rx   d 8 07 23 00 00 81 E4 00 04 
2084.15504 2 073F       Rx   d 8 05 63 00 00 00 00 00 00 
2084.23355 2 0737       Rx   d 8 07 23 00 00 81 E8 00 04 
2084.55136 2 073F       Rx   d 8 05 63 00 00 00 00 00 00 
2084.76261 2 0737       Rx   d 8 07 23 00 00 81 EC 00 04 
2085.08308 2 073F       Rx   d 8 05 63 00 00 00 00 00 00 
2085.19950 2 0737       Rx   d 8 07 23 00 00 81 F0 00 04 
2085.45332 2 073F       Rx   d 8 05 63 00 00 00 00 00 00 
2085.51323 2 0737       Rx   d 8 07 23 00 00 81 F4 00 04 
2085.78085 2 073F       Rx   d 8 05 63 00 00 00 00 00 00 
2085.83290 2 0737       Rx   d 8 07 23 00 00 81 F8 00 04 
2086.15975 2 073F       Rx   d 8 05 63 00 00 00 00 00 00 
2086.36214 2 0737       Rx   d 8 07 23 00 00 81 FC 00 04 
2086.55915 2 073F       Rx   d 8 05 63 7A F7 80 80 00 00 
2086.68459 2 0737       Rx   d 8 07 23 00 00 82 00 00 04 
2086.96008 2 073F       Rx   d 8 05 63 80 80 80 80 00 00 
2087.27162 2 0737       Rx   d 8 07 23 00 00 82 04 00 04 
2087.55006 2 073F       Rx   d 8 05 63 80 80 80 80 00 00 
2087.59968 2 0737       Rx   d 8 07 23 00 00 82 08 00 04 
2087.86241 2 073F       Rx   d 8 05 63 80 80 80 80 00 00 
2088.06628 2 0737       Rx   d 8 07 23 00 00 82 0C 00 04 
2088.35953 2 073F       Rx   d 8 05 63 80 80 80 80 00 00 
2088.67685 2 0737       Rx   d 8 07 23 00 00 82 10 00 04 
2088.95928 2 073F       Rx   d 8 05 63 80 80 80 80 00 00 
2089.02803 2 0737       Rx   d 8 07 23 00 00 82 14 00 04 
2089.35746 2 073F       Rx   d 8 05 63 80 80 80 80 00 00 
2089.51462 2 0737       Rx   d 8 07 23 00 00 82 18 00 04 
2089.79995 2 073F       Rx   d 8 05 63 80 80 80 80 00 00 
2089.82655 2 0737       Rx   d 8 07 23 00 00 82 1C 00 04 
2090.04838 2 073F       Rx   d 8 05 63 80 80 61 80 00 00 
2090.14679 2 0737       Rx   d 8 07 23 00 00 82 20 00 04 
2090.45766 2 073F       Rx   d 8 05 63 BB 5C 00 00 00 00 
2090.62643 2 0737       Rx   d 8 07 23 00 00 82 24 00 04 
2090.86803 2 073F       Rx   d 8 05 63 79 F0 C7 47 00 00 
2090.94666 2 0737       Rx   d 8 07 23 00 00 82 28 00 04 
2091.26001 2 073F       Rx   d 8 05 63 A8 51 37 01 00 00 
2091.42658 2 0737       Rx   d 8 07 23 00 00 82 2C 00 04 
2091.83298 2 073F       Rx   d 8 05 63 FF 3F 8F 8F 00 00 
2091.91754 2 0737       Rx   d 8 07 23 00 00 82 30 00 04 
2092.15003 2 073F       Rx   d 8 05 63 80 8F 80 8F 00 00 
2092.22526 2 0737       Rx   d 8 07 23 00 00 82 34 00 04 
2092.45930 2 073F       Rx   d 8 05 63 00 00 00 FF 00 00 
2092.54688 2 0737       Rx   d 8 07 23 00 00 82 38 00 04 
2092.84970 2 073F       Rx   d 8 05 63 98 FD 80 02 00 00 
2093.02866 2 0737       Rx   d 8 07 23 00 00 82 3C 00 04 
2093.34698 2 073F       Rx   d 8 05 63 02 01 17 02 00 00 
2093.65327 2 0737       Rx   d 8 07 23 00 00 82 40 00 04 
2093.94668 2 073F       Rx   d 8 05 63 02 01 58 ED 00 00 
2094.11488 2 0737       Rx   d 8 07 23 00 00 82 44 00 04 
2094.36740 2 073F       Rx   d 8 05 63 FF FF FF FF 00 00 
2094.59693 2 0737       Rx   d 8 07 23 00 00 82 48 00 04 
2094.86844 2 073F       Rx   d 8 05 63 FF FF FF FF 00 00 
2094.94491 2 0737       Rx   d 8 07 23 00 00 82 4C 00 04 
2095.25857 2 073F       Rx   d 8 05 63 FF FF FF FF 00 00 
2095.43306 2 0737       Rx   d 8 07 23 00 00 82 50 00 04 
2095.82808 2 073F       Rx   d 8 05 63 FF FF 08 FF 00 00 
2095.91165 2 0737       Rx   d 8 07 23 00 00 82 54 00 04 
2096.15520 2 073F       Rx   d 8 05 63 00 05 00 05 00 00 
2096.22836 2 0737       Rx   d 8 07 23 00 00 82 58 00 04 
2096.44924 2 073F       Rx   d 8 05 63 00 11 14 1F 00 00 
2096.54295 2 0737       Rx   d 8 07 23 00 00 82 5C 00 04 
2096.85751 2 073F       Rx   d 8 05 63 20 60 61 6C 00 00 
2097.02493 2 0737       Rx   d 8 07 23 00 00 82 60 00 04 
2097.35349 2 073F       Rx   d 8 05 63 6D 75 78 7B 00 00 
2097.51355 2 0737       Rx   d 8 07 23 00 00 82 64 00 04 
2097.80167 2 073F       Rx   d 8 05 63 7E 8E 8F C9 00 00 
2097.82533 2 0737       Rx   d 8 07 23 00 00 82 68 00 04 
2098.14656 2 073F       Rx   d 8 05 63 DC DD 82 8C 00 00 
2098.31134 2 0737       Rx   d 8 07 23 00 00 82 6C 00 04 
2098.55686 2 073F       Rx   d 8 05 63 8D D9 DA DB 00 00 
2098.62471 2 0737       Rx   d 8 07 23 00 00 82 70 00 04 
2098.94673 2 073F       Rx   d 8 05 63 00 55 05 00 00 00 
2099.11376 2 0737       Rx   d 8 07 23 00 00 82 74 00 04 
2099.35398 2 073F       Rx   d 8 05 63 5E 28 6E 5E 00 00 
2099.42625 2 0737       Rx   d 8 07 23 00 00 82 78 00 04 
2099.82936 2 073F       Rx   d 8 05 63 52 45 51 58 00 00 
2099.97252 2 0737       Rx   d 8 07 23 00 00 82 7C 00 04 
2100.25349 2 073F       Rx   d 8 05 63 57 55 79 55 00 00 
2100.52900 2 0737       Rx   d 8 07 23 00 00 82 80 00 04 
2100.86335 2 073F       Rx   d 8 05 63 76 54 51 5B 00 00 
2101.16282 2 0737       Rx   d 8 07 23 00 00 82 84 00 04 
2101.44501 2 073F       Rx   d 8 05 63 7D 0D 7A 55 00 00 
2101.51345 2 0737       Rx   d 8 07 23 00 00 82 88 00 04 
2101.79934 2 073F       Rx   d 8 05 63 7A 4F 51 3C 00 00 
2101.82536 2 0737       Rx   d 8 07 23 00 00 82 8C 00 04 
2102.15238 2 073F       Rx   d 8 05 63 FF FF FF FF 00 00 
2102.31096 2 0737       Rx   d 8 07 23 00 00 82 90 00 04 
2102.55087 2 073F       Rx   d 8 05 63 FF FF FF FF 00 00 
2102.62290 2 0737       Rx   d 8 07 23 00 00 82 94 00 04 
2102.95162 2 073F       Rx   d 8 05 63 FF FF 3F FF 00 00 
2103.11075 2 0737       Rx   d 8 07 23 00 00 82 98 00 04 
2103.34718 2 073F       Rx   d 8 05 63 3F FF FF FF 00 00 
2103.43173 2 0737       Rx   d 8 07 23 00 00 82 9C 00 04 
2103.77851 2 073F       Rx   d 8 05 63 AA AA AA AA 00 00 
2103.91326 2 0737       Rx   d 8 07 23 00 00 82 A0 00 04 
2104.15376 2 073F       Rx   d 8 05 63 FF AA 02 7F 00 00 
2104.22249 2 0737       Rx   d 8 07 23 00 00 82 A4 00 04 
2104.55322 2 073F       Rx   d 8 05 63 7F 7F 81 80 00 00 
2104.70066 2 0737       Rx   d 8 07 23 00 00 82 A8 00 04 
2104.94473 2 073F       Rx   d 8 05 63 80 FF FF FF 00 00 
2105.02151 2 0737       Rx   d 8 07 23 00 00 82 AC 00 04 
2105.35096 2 073F       Rx   d 8 05 63 FF FF FF 0A 00 00 
2105.51041 2 0737       Rx   d 8 07 23 00 00 82 B0 00 04 
2105.79781 2 073F       Rx   d 8 05 63 2C 53 24 18 00 00 
2105.82109 2 0737       Rx   d 8 07 23 00 00 82 B4 00 04 
2106.14909 2 073F       Rx   d 8 05 63 30 FF F3 82 00 00 
2106.31361 2 0737       Rx   d 8 07 23 00 00 82 B8 00 04 
2106.54867 2 073F       Rx   d 8 05 63 09 49 24 FF 00 00 
2106.62414 2 0737       Rx   d 8 07 23 00 00 82 BC 00 04 
2106.94944 2 073F       Rx   d 8 05 63 FF FF 45 47 00 00 
2107.28420 2 0737       Rx   d 8 07 23 00 00 82 C0 00 04 
2107.55227 2 073F       Rx   d 8 05 63 42 52 32 39 00 00 
2107.74597 2 0737       Rx   d 8 07 23 00 00 82 C4 00 04 
2108.04906 2 073F       Rx   d 8 05 63 14 0B 03 21 00 00 
2108.37895 2 0737       Rx   d 8 07 23 00 00 82 C8 00 04 
2108.63824 2 073F       Rx   d 8 05 63 00 01 83 00 00 00 
2108.84915 2 0737       Rx   d 8 07 23 00 00 82 CC 00 04 
2109.14900 2 073F       Rx   d 8 05 63 3F DC 11 06 00 00 
2109.33121 2 0737       Rx   d 8 07 23 00 00 82 D0 00 04 
2109.64852 2 073F       Rx   d 8 05 63 11 30 06 01 00 00 
2109.95355 2 0737       Rx   d 8 07 23 00 00 82 D4 00 04 
2110.25070 2 073F       Rx   d 8 05 63 10 72 53 FF 00 00 
2110.42776 2 0737       Rx   d 8 07 23 00 00 82 D8 00 04 
2110.78040 2 073F       Rx   d 8 05 63 FF FF 00 00 00 00 
2111.04371 2 0737       Rx   d 8 07 23 00 00 82 DC 00 04 
2111.35017 2 073F       Rx   d 8 05 63 00 00 00 00 00 00 
2111.52691 2 0737       Rx   d 8 07 23 00 00 82 E0 00 04 
2111.84703 2 073F       Rx   d 8 05 63 00 00 00 00 00 00 
2112.00767 2 0737       Rx   d 8 07 23 00 00 82 E4 00 04 
2112.24984 2 073F       Rx   d 8 05 63 00 00 00 00 00 00 
2112.46632 2 0737       Rx   d 8 07 23 00 00 82 E8 00 04 
2112.81403 2 073F       Rx   d 8 05 63 00 00 00 00 00 00 
2112.94657 2 0737       Rx   d 8 07 23 00 00 82 EC 00 04 
2113.26761 2 073F       Rx   d 8 05 63 00 00 00 00 00 00 
2113.37806 2 0737       Rx   d 8 07 23 00 00 82 F0 00 04 
2113.64689 2 073F       Rx   d 8 05 63 00 00 00 00 00 00 
2113.84955 2 0737       Rx   d 8 07 23 00 00 82 F4 00 04 
2114.14651 2 073F       Rx   d 8 05 63 00 00 00 00 00 00 
2114.32335 2 0737       Rx   d 8 07 23 00 00 82 F8 00 04 
2114.63566 2 073F       Rx   d 8 05 63 00 00 00 00 00 00 
2114.80039 2 0737       Rx   d 8 07 23 00 00 82 FC 00 04 
2115.04586 2 073F       Rx   d 8 05 63 00 00 00 FF 00 00 
2115.10998 2 0737       Rx   d 8 07 23 00 00 83 00 00 04 
2115.34811 2 073F       Rx   d 8 05 63 FF FF FF FF 00 00 
2115.57759 2 0737       Rx   d 8 07 23 00 00 83 04 00 04 
2115.83525 2 073F       Rx   d 8 05 63 FF FF FF FF 00 00 
2116.05468 2 0737       Rx   d 8 07 23 00 00 83 08 00 04 
2116.34785 2 073F       Rx   d 8 05 63 FF FF FF FF 00 00 
2116.51862 2 0737       Rx   d 8 07 23 00 00 83 0C 00 04 
2116.85445 2 073F       Rx   d 8 05 63 FF FF FF FF 00 00 
2117.13793 2 0737       Rx   d 8 07 23 00 00 83 10 00 04 
2117.43430 2 073F       Rx   d 8 05 63 FF FF FF FF 00 00 
2117.61339 2 0737       Rx   d 8 07 23 00 00 83 14 00 04 
2117.94415 2 073F       Rx   d 8 05 63 FF FF FF FF 00 00 
2118.07199 2 0737       Rx   d 8 07 23 00 00 83 18 00 04 
2118.33383 2 073F       Rx   d 8 05 63 FF FF FF FF 00 00 
2118.54988 2 0737       Rx   d 8 07 23 00 00 83 1C 00 04 
2118.87069 2 073F       Rx   d 8 05 63 7C EA 00 00 00 00 
2119.03524 2 0737       Rx   d 8 07 23 00 00 83 20 00 04 
2119.35158 2 073F       Rx   d 8 05 63 29 00 42 19 00 00 
2119.41941 2 0737       Rx   d 8 07 23 00 00 83 24 00 04 
2119.77829 2 073F       Rx   d 8 05 63 00 F8 F1 F3 00 00 
2119.93408 2 0737       Rx   d 8 07 23 00 00 83 28 00 04 
2120.24313 2 073F       Rx   d 8 05 63 FA F3 E9 EC 00 00 
2120.41044 2 0737       Rx   d 8 07 23 00 00 83 2C 00 04 
2120.64223 2 073F       Rx   d 8 05 63 F7 00 29 00 00 00 
2120.72663 2 0737       Rx   d 8 07 23 00 00 83 30 00 04 
2121.04206 2 073F       Rx   d 8 05 63 42 19 00 F8 00 00 
2121.19659 2 0737       Rx   d 8 07 23 00 00 83 34 00 04 
2121.44150 2 073F       Rx   d 8 05 63 F1 F1 FA F3 00 00 
2121.50951 2 0737       Rx   d 8 07 23 00 00 83 38 00 04 
2121.84226 2 073F       Rx   d 8 05 63 E9 E9 F6 00 00 00 
2122.27824 2 0737       Rx   d 8 07 23 00 00 83 3C 00 04 
2122.55624 2 073F       Rx   d 8 05 63 FF FF FF FF 00 00 
2122.89830 2 0737       Rx   d 8 07 23 00 00 83 40 00 04 
2123.14074 2 073F       Rx   d 8 05 63 FF FF FF FF 00 00 
2123.25379 2 0737       Rx   d 8 07 23 00 00 83 44 00 04 
2123.54438 2 073F       Rx   d 8 05 63 FF FF FF FF 00 00 
2123.57680 2 0737       Rx   d 8 07 23 00 00 83 48 00 04 
2123.84348 2 073F       Rx   d 8 05 63 FF FF FF FF 00 00 
2123.89491 2 0737       Rx   d 8 07 23 00 00 83 4C 00 04 
2124.15528 2 073F       Rx   d 8 05 63 90 92 51 6A 00 00 
2124.21809 2 0737       Rx   d 8 07 23 00 00 83 50 00 04 
2124.54107 2 073F       Rx   d 8 05 63 8F 16 72 29 00 00 
2124.69398 2 0737       Rx   d 8 07 23 00 00 83 54 00 04 
2124.95613 2 073F       Rx   d 8 05 63 94 00 62 23 00 00 
2125.01396 2 0737       Rx   d 8 07 23 00 00 83 58 00 04 
2125.33978 2 073F       Rx   d 8 05 63 93 14 A0 52 00 00 
2125.49393 2 0737       Rx   d 8 07 23 00 00 83 5C 00 04 
2125.77001 2 073F       Rx   d 8 05 63 8C 13 C8 F0 00 00 
2125.81390 2 0737       Rx   d 8 07 23 00 00 83 60 00 04 
2126.13276 2 073F       Rx   d 8 05 63 90 92 51 6A 00 00 
2126.29870 2 0737       Rx   d 8 07 23 00 00 83 64 00 04 
2126.55916 2 073F       Rx   d 8 05 63 8F 16 72 29 00 00 
2126.78053 2 0737       Rx   d 8 07 23 00 00 83 68 00 04 
2127.03859 2 073F       Rx   d 8 05 63 94 00 62 23 00 00 
2127.24434 2 0737       Rx   d 8 07 23 00 00 83 6C 00 04 
2127.54183 2 073F       Rx   d 8 05 63 93 14 A0 52 00 00 
2127.72686 2 0737       Rx   d 8 07 23 00 00 83 70 00 04 
2127.92923 2 073F       Rx   d 8 05 63 8C 13 C8 F0 00 00 
2128.16520 2 0737       Rx   d 8 07 23 00 00 83 74 00 04 
2128.44181 2 073F       Rx   d 8 05 63 0E 18 FF FF 00 00 
2128.53185 2 0737       Rx   d 8 07 23 00 00 83 78 00 04 
2128.83841 2 073F       Rx   d 8 05 63 19 2D FF FF 00 00 
2129.02240 2 0737       Rx   d 8 07 23 00 00 83 7C 00 04 
2129.33125 2 073F       Rx   d 8 05 63 00 32 FF FF 00 00 
2129.49318 2 0737       Rx   d 8 07 23 00 00 83 80 00 04 
2129.76320 2 073F       Rx   d 8 05 63 28 3E FF FF 00 00 
2129.82023 2 0737       Rx   d 8 07 23 00 00 83 84 00 04 
2130.12772 2 073F       Rx   d 8 05 63 05 06 FF FF 00 00 
2130.29224 2 0737       Rx   d 8 07 23 00 00 83 88 00 04 
2130.56338 2 073F       Rx   d 8 05 63 03 06 FF FF 00 00 
2130.61180 2 0737       Rx   d 8 07 23 00 00 83 8C 00 04 
2130.92749 2 073F       Rx   d 8 05 63 1E 2A FF FF 00 00 
2131.09216 2 0737       Rx   d 8 07 23 00 00 83 90 00 04 
2131.36493 2 073F       Rx   d 8 05 63 00 00 16 17 00 00 
2131.41194 2 0737       Rx   d 8 07 23 00 00 83 94 00 04 
2131.77205 2 073F       Rx   d 8 05 63 00 00 50 55 00 00 
2131.89230 2 0737       Rx   d 8 07 23 00 00 83 98 00 04 
2132.12743 2 073F       Rx   d 8 05 63 5F 69 FF FF 00 00 
2132.21829 2 0737       Rx   d 8 07 23 00 00 83 9C 00 04 
2132.52724 2 073F       Rx   d 8 05 63 46 50 FF FF 00 00 
2132.69209 2 0737       Rx   d 8 07 23 00 00 83 A0 00 04 
2132.92943 2 073F       Rx   d 8 05 63 8C 96 FF FF 00 00 
2133.01083 2 0737       Rx   d 8 07 23 00 00 83 A4 00 04 
2133.33854 2 073F       Rx   d 8 05 63 5A 5F FF FF 00 00 
2133.49257 2 0737       Rx   d 8 07 23 00 00 83 A8 00 04 
2133.79761 2 073F       Rx   d 8 05 63 0A 0F FF FF 00 00 
2134.12225 2 0737       Rx   d 8 07 23 00 00 83 AC 00 04 
2134.43595 2 073F       Rx   d 8 05 63 90 92 94 16 00 00 
2134.74989 2 0737       Rx   d 8 07 23 00 00 83 B0 00 04 
2135.04761 2 073F       Rx   d 8 05 63 84 06 86 08 00 00 
2135.22884 2 0737       Rx   d 8 07 23 00 00 83 B4 00 04 
2135.53738 2 073F       Rx   d 8 05 63 80 02 8A 8C 00 00 
2135.57680 2 0737       Rx   d 8 07 23 00 00 83 B8 00 04 
2135.84858 2 073F       Rx   d 8 05 63 8E 7E 98 1A 00 00 
2135.89269 2 0737       Rx   d 8 07 23 00 00 83 BC 00 04 
2136.13432 2 073F       Rx   d 8 05 63 18 12 19 0C 00 00 
2136.21800 2 0737       Rx   d 8 07 23 00 00 83 C0 00 04 
2136.53417 2 073F       Rx   d 8 05 63 1A 1B 0F 09 00 00 
2136.69129 2 0737       Rx   d 8 07 23 00 00 83 C4 00 04 
2136.92420 2 073F       Rx   d 8 05 63 0D 10 0C 11 00 00 
2137.01120 2 0737       Rx   d 8 07 23 00 00 83 C8 00 04 
2137.33326 2 073F       Rx   d 8 05 63 09 1C 0F 09 00 00 
2137.49039 2 0737       Rx   d 8 07 23 00 00 83 CC 00 04 
2137.77348 2 073F       Rx   d 8 05 63 03 FF 13 08 00 00 
2137.81017 2 0737       Rx   d 8 07 23 00 00 83 D0 00 04 
2138.12678 2 073F       Rx   d 8 05 63 02 FF 12 09 00 00 
2138.29751 2 0737       Rx   d 8 07 23 00 00 83 D4 00 04 
2138.63299 2 073F       Rx   d 8 05 63 04 FF 10 09 00 00 
2138.77116 2 0737       Rx   d 8 07 23 00 00 83 D8 00 04 
2139.05203 2 073F       Rx   d 8 05 63 04 FF 11 0C 00 00 
2139.09043 2 0737       Rx   d 8 07 23 00 00 83 DC 00 04 
2139.32339 2 073F       Rx   d 8 05 63 02 FF 36 E7 00 00 
2139.55709 2 0737       Rx   d 8 07 23 00 00 83 E0 00 04 
2139.85262 2 073F       Rx   d 8 05 63 04 00 1F 19 00 00 
2140.03659 2 0737       Rx   d 8 07 23 00 00 83 E4 00 04 
2140.34239 2 073F       Rx   d 8 05 63 34 FB 27 21 00 00 
2140.51714 2 0737       Rx   d 8 07 23 00 00 83 E8 00 04 
2140.84473 2 073F       Rx   d 8 05 63 38 31 23 AF 00 00 
2141.14471 2 0737       Rx   d 8 07 23 00 00 83 EC 00 04 
2141.45190 2 073F       Rx   d 8 05 63 2E 23 3D 39 00 00 
2141.62856 2 0737       Rx   d 8 07 23 00 00 83 F0 00 04 
2141.94432 2 073F       Rx   d 8 05 63 26 E0 02 00 00 00 
2141.96694 2 0737       Rx   d 8 07 23 00 00 83 F4 00 04 
2142.25253 2 073F       Rx   d 8 05 63 0A 07 19 F6 00 00 
2142.28902 2 0737       Rx   d 8 07 23 00 00 83 F8 00 04 
2142.53071 2 073F       Rx   d 8 05 63 2D 27 53 4C 00 00 
2142.60745 2 0737       Rx   d 8 07 23 00 00 83 FC 00 04 
2142.93138 2 073F       Rx   d 8 05 63 42 00 6D 01 00 00 
2143.08987 2 0737       Rx   d 8 07 23 00 00 84 00 00 04 
2143.32387 2 073F       Rx   d 8 05 63 01 FF 01 FF 00 00 
2143.40985 2 0737       Rx   d 8 07 23 00 00 84 04 00 04 
2143.75408 2 073F       Rx   d 8 05 63 FF 7F 2C 00 00 00 
2143.88747 2 0737       Rx   d 8 07 23 00 00 84 08 00 04 
2144.12070 2 073F       Rx   d 8 05 63 35 85 80 4D 00 00 
2144.20772 2 0737       Rx   d 8 07 23 00 00 84 0C 00 04 
2144.53298 2 073F       Rx   d 8 05 63 3D 15 3C 29 00 00 
2144.68831 2 0737       Rx   d 8 07 23 00 00 84 10 00 04 
2144.92070 2 073F       Rx   d 8 05 63 50 50 08 0A 00 00 
2145.00673 2 0737       Rx   d 8 07 23 00 00 84 14 00 04 
2145.32983 2 073F       Rx   d 8 05 63 08 14 09 1E 00 00 
2145.48800 2 0737       Rx   d 8 07 23 00 00 84 18 00 04 
2145.80812 2 073F       Rx   d 8 05 63 06 07 28 02 00 00 
2146.11983 2 0737       Rx   d 8 07 23 00 00 84 1C 00 04 
2146.43075 2 073F       Rx   d 8 05 63 07 03 09 7D 00 00 
2146.60634 2 0737       Rx   d 8 07 23 00 00 84 20 00 04 
2146.92833 2 073F       Rx   d 8 05 63 00 02 04 07 00 00 
2147.23014 2 0737       Rx   d 8 07 23 00 00 84 24 00 04 
2147.54420 2 073F       Rx   d 8 05 63 08 0E 07 04 00 00 
2147.66083 2 0737       Rx   d 8 07 23 00 00 84 28 00 04 
2147.92943 2 073F       Rx   d 8 05 63 04 83 30 0C 00 00 
2148.11438 2 0737       Rx   d 8 07 23 00 00 84 2C 00 04 
2148.42911 2 073F       Rx   d 8 05 63 08 07 06 29 00 00 
2148.52611 2 0737       Rx   d 8 07 23 00 00 84 30 00 04 
2148.83509 2 073F       Rx   d 8 05 63 1C 2B 05 02 00 00 
2149.00586 2 0737       Rx   d 8 07 23 00 00 84 34 00 04 
2149.32363 2 073F       Rx   d 8 05 63 50 01 1E 33 00 00 
2149.49464 2 0737       Rx   d 8 07 23 00 00 84 38 00 04 
2149.80614 2 073F       Rx   d 8 05 63 33 96 96 97 00 00 
2149.97678 2 0737       Rx   d 8 07 23 00 00 84 3C 00 04 
2150.21828 2 073F       Rx   d 8 05 63 23 EE 7C 20 00 00 
2150.28568 2 0737       Rx   d 8 07 23 00 00 84 40 00 04 
2150.52755 2 073F       Rx   d 8 05 63 6E FF 00 6E 00 00 
2150.76085 2 0737       Rx   d 8 07 23 00 00 84 44 00 04 
2151.01665 2 073F       Rx   d 8 05 63 FF 00 50 64 00 00 
2151.23743 2 0737       Rx   d 8 07 23 00 00 84 48 00 04 
2151.54130 2 073F       Rx   d 8 05 63 03 85 15 53 00 00 
2151.72547 2 0737       Rx   d 8 07 23 00 00 84 4C 00 04 
2152.02907 2 073F       Rx   d 8 05 63 06 0A 04 28 00 00 
2152.34673 2 0737       Rx   d 8 07 23 00 00 84 50 00 04 
2152.61654 2 073F       Rx   d 8 05 63 28 00 03 85 00 00 
2152.82747 2 0737       Rx   d 8 07 23 00 00 84 54 00 04 
2153.14382 2 073F       Rx   d 8 05 63 15 53 06 0A 00 00 
2153.33005 2 0737       Rx   d 8 07 23 00 00 84 58 00 04 
2153.62939 2 073F       Rx   d 8 05 63 04 28 28 00 00 00 
2153.90722 2 0737       Rx   d 8 07 23 00 00 84 5C 00 04 
2154.22855 2 073F       Rx   d 8 05 63 03 85 15 53 00 00 
2154.37509 2 0737       Rx   d 8 07 23 00 00 84 60 00 04 
2154.61567 2 073F       Rx   d 8 05 63 06 0A 04 64 00 00 
2154.85105 2 0737       Rx   d 8 07 23 00 00 84 64 00 04 
2155.12766 2 073F       Rx   d 8 05 63 64 00 00 51 00 00 
2155.32027 2 0737       Rx   d 8 07 23 00 00 84 68 00 04 
2155.62547 2 073F       Rx   d 8 05 63 21 B9 FF FF 00 00 
2155.73668 2 0737       Rx   d 8 07 23 00 00 84 6C 00 04 
2156.03426 2 073F       Rx   d 8 05 63 FF FF FF FF 00 00 
2156.20805 2 0737       Rx   d 8 07 23 00 00 84 70 00 04 
2156.52603 2 073F       Rx   d 8 05 63 FF FF FF FF 00 00 
2156.68425 2 0737       Rx   d 8 07 23 00 00 84 74 00 04 
2156.91665 2 073F       Rx   d 8 05 63 FF FF FF FF 00 00 
2157.00873 2 0737       Rx   d 8 07 23 00 00 84 78 00 04 
2157.33143 2 073F       Rx   d 8 05 63 FF FF FF FF 00 00 
2157.48836 2 0737       Rx   d 8 07 23 00 00 84 7C 00 04 
2157.81439 2 073F       Rx   d 8 05 63 FF FF FF FF 00 00 
2157.96340 2 0737       Rx   d 8 07 23 00 00 84 80 00 04 
2158.22337 2 073F       Rx   d 8 05 63 FF FF FF FF 00 00 
2158.43626 2 0737       Rx   d 8 07 23 00 00 84 84 00 04 
2158.76229 2 073F       Rx   d 8 05 63 FF FF FF FF 00 00 
2159.07036 2 0737       Rx   d 8 07 23 00 00 84 88 00 04 
2159.32290 2 073F       Rx   d 8 05 63 FF FF FF FF 00 00 
2159.55052 2 0737       Rx   d 8 07 23 00 00 84 8C 00 04 
2159.81574 2 073F       Rx   d 8 05 63 FF FF FF FF 00 00 
2160.03596 2 0737       Rx   d 8 07 23 00 00 84 90 00 04 
2160.31503 2 073F       Rx   d 8 05 63 FF FF FF FF 00 00 
2160.45587 2 0737       Rx   d 8 07 23 00 00 84 94 00 04 
2160.75461 2 073F       Rx   d 8 05 63 FF FF FF FF 00 00 
2160.92617 2 0737       Rx   d 8 07 23 00 00 84 98 00 04 
2161.22456 2 073F       Rx   d 8 05 63 FF FF FF FF 00 00 
2161.39995 2 0737       Rx   d 8 07 23 00 00 84 9C 00 04 
2161.75498 2 073F       Rx   d 8 05 63 FF FF FF FF 00 00 
2161.88051 2 0737       Rx   d 8 07 23 00 00 84 A0 00 04 
2162.12602 2 073F       Rx   d 8 05 63 FF FF FF FF 00 00 
2162.28807 2 0737       Rx   d 8 07 23 00 00 84 A4 00 04 
2162.52045 2 073F       Rx   d 8 05 63 FF FF FF FF 00 00 
2162.61379 2 0737       Rx   d 8 07 23 00 00 84 A8 00 04 
2162.92946 2 073F       Rx   d 8 05 63 FF FF FF FF 00 00 
2163.08455 2 0737       Rx   d 8 07 23 00 00 84 AC 00 04 
2163.31389 2 073F       Rx   d 8 05 63 FF FF FF FF 00 00 
2163.41577 2 0737       Rx   d 8 07 23 00 00 84 B0 00 04 
2163.74385 2 073F       Rx   d 8 05 63 FF FF FF FF 00 00 
2163.88515 2 0737       Rx   d 8 07 23 00 00 84 B4 00 04 
2164.11093 2 073F       Rx   d 8 05 63 FF FF FF FF 00 00 
2164.21940 2 0737       Rx   d 8 07 23 00 00 84 B8 00 04 
2164.53169 2 073F       Rx   d 8 05 63 FF FF FF FF 00 00 
2164.68757 2 0737       Rx   d 8 07 23 00 00 84 BC 00 04 
2164.91247 2 073F       Rx   d 8 05 63 FF FF FF FF 00 00 
2165.02273 2 0737       Rx   d 8 07 23 00 00 84 C0 00 04 
2165.33477 2 073F       Rx   d 8 05 63 FF FF FF FF 00 00 
2165.48692 2 0737       Rx   d 8 07 23 00 00 84 C4 00 04 
2165.75216 2 073F       Rx   d 8 05 63 FF FF FF FF 00 00 
2165.81944 2 0737       Rx   d 8 07 23 00 00 84 C8 00 04 
2166.12658 2 073F       Rx   d 8 05 63 FF FF FF FF 00 00 
2166.43551 2 0737       Rx   d 8 07 23 00 00 84 CC 00 04 
2166.79316 2 073F       Rx   d 8 05 63 FF FF FF FF 00 00 
2167.03308 2 0737       Rx   d 8 07 23 00 00 84 D0 00 04 
2167.31903 2 073F       Rx   d 8 05 63 FF FF FF FF 00 00 
2167.49338 2 0737       Rx   d 8 07 23 00 00 84 D4 00 04 
2167.81859 2 073F       Rx   d 8 05 63 FF FF FF FF 00 00 
2167.96551 2 0737       Rx   d 8 07 23 00 00 84 D8 00 04 
2168.22145 2 073F       Rx   d 8 05 63 FF FF FF FF 00 00 
2168.41590 2 0737       Rx   d 8 07 23 00 00 84 DC 00 04 
2168.74894 2 073F       Rx   d 8 05 63 FF FF FF FF 00 00 
2168.83978 2 0737       Rx   d 8 07 23 00 00 84 E0 00 04 
2169.11771 2 073F       Rx   d 8 05 63 FF FF FF FF 00 00 
2169.16549 2 0737       Rx   d 8 07 23 00 00 84 E4 00 04 
2169.41747 2 073F       Rx   d 8 05 63 FF FF FF FF 00 00 
2169.49476 2 0737       Rx   d 8 07 23 00 00 84 E8 00 04 
2169.74041 2 073F       Rx   d 8 05 63 FF FF FF FF 00 00 
2169.82731 2 0737       Rx   d 8 07 23 00 00 84 EC 00 04 
2170.13061 2 073F       Rx   d 8 05 63 FF FF FF FF 00 00 
2170.29159 2 0737       Rx   d 8 07 23 00 00 84 F0 00 04 
2170.61890 2 073F       Rx   d 8 05 63 FF FF FF FF 00 00 
2170.92957 2 0737       Rx   d 8 07 23 00 00 84 F4 00 04 
2171.11960 2 073F       Rx   d 8 05 63 FF FF FF FF 00 00 
2171.42079 2 0737       Rx   d 8 07 23 00 00 84 F8 00 04 
2171.73987 2 073F       Rx   d 8 05 63 FF FF FF FF 00 00 
2172.04084 2 0737       Rx   d 8 07 23 00 00 84 FC 00 04 
2172.31612 2 073F       Rx   d 8 05 63 FF FF FF FF 00 00 
2172.47588 2 0737       Rx   d 8 07 23 00 00 85 00 00 04 
2172.73640 2 073F       Rx   d 8 05 63 63 05 45 06 00 00 
2172.94161 2 0737       Rx   d 8 07 23 00 00 85 04 00 04 
2173.22568 2 073F       Rx   d 8 05 63 58 7F 58 7F 00 00 
2173.41117 2 0737       Rx   d 8 07 23 00 00 85 08 00 04 
2173.73825 2 073F       Rx   d 8 05 63 D8 01 D8 01 00 00 
2173.89362 2 0737       Rx   d 8 07 23 00 00 85 0C 00 04 
2174.21945 2 073F       Rx   d 8 05 63 58 7F 58 7F 00 00 
2174.35180 2 0737       Rx   d 8 07 23 00 00 85 10 00 04 
2174.62639 2 073F       Rx   d 8 05 63 04 04 50 04 00 00 
2174.82881 2 0737       Rx   d 8 07 23 00 00 85 14 00 04 
2175.11736 2 073F       Rx   d 8 05 63 0A 14 03 64 00 00 
2175.28409 2 0737       Rx   d 8 07 23 00 00 85 18 00 04 
2175.61714 2 073F       Rx   d 8 05 63 01 34 A3 DA 00 00 
2175.74347 2 0737       Rx   d 8 07 23 00 00 85 1C 00 04 
2176.04455 2 073F       Rx   d 8 05 63 FF FF FF FF 00 00 
2176.22830 2 0737       Rx   d 8 07 23 00 00 85 20 00 04 
2176.53732 2 073F       Rx   d 8 05 63 FF FF FF FF 00 00 
2176.69724 2 0737       Rx   d 8 07 23 00 00 85 24 00 04 
2177.02905 2 073F       Rx   d 8 05 63 FF FF FF FF 00 00 
2177.16571 2 0737       Rx   d 8 07 23 00 00 85 28 00 04 
2177.40361 2 073F       Rx   d 8 05 63 FF FF FF FF 00 00 
2177.51060 2 0737       Rx   d 8 07 23 00 00 85 2C 00 04 
2177.82316 2 073F       Rx   d 8 05 63 FF FF FF FF 00 00 
2178.13611 2 0737       Rx   d 8 07 23 00 00 85 30 00 04 
2178.41267 2 073F       Rx   d 8 05 63 FF FF FF FF 00 00 
2178.62385 2 0737       Rx   d 8 07 23 00 00 85 34 00 04 
2178.94144 2 073F       Rx   d 8 05 63 FF FF FF FF 00 00 
2179.24942 2 0737       Rx   d 8 07 23 00 00 85 38 00 04 
2179.50830 2 073F       Rx   d 8 05 63 FF FF FF FF 00 00 
2179.74682 2 0737       Rx   d 8 07 23 00 00 85 3C 00 04 
2180.00254 2 073F       Rx   d 8 05 63 FF FF FF FF 00 00 
2180.16528 2 0737       Rx   d 8 07 23 00 00 85 40 00 04 
2180.41271 2 073F       Rx   d 8 05 63 FF FF FF FF 00 00 
2180.64240 2 0737       Rx   d 8 07 23 00 00 85 44 00 04 
2180.90632 2 073F       Rx   d 8 05 63 FF FF FF FF 00 00 
2181.11403 2 0737       Rx   d 8 07 23 00 00 85 48 00 04 
2181.40213 2 073F       Rx   d 8 05 63 FF FF FF FF 00 00 
2181.58667 2 0737       Rx   d 8 07 23 00 00 85 4C 00 04 
2181.91392 2 073F       Rx   d 8 05 63 FF FF FF FF 00 00 
2182.04492 2 0737       Rx   d 8 07 23 00 00 85 50 00 04 
2182.31523 2 073F       Rx   d 8 05 63 FF FF FF FF 00 00 
2182.51019 2 0737       Rx   d 8 07 23 00 00 85 54 00 04 
2182.82401 2 073F       Rx   d 8 05 63 FF FF FF FF 00 00 
2182.93928 2 0737       Rx   d 8 07 23 00 00 85 58 00 04 
2183.21398 2 073F       Rx   d 8 05 63 FF FF FF FF 00 00 
2183.25571 2 0737       Rx   d 8 07 23 00 00 85 5C 00 04 
2183.50799 2 073F       Rx   d 8 05 63 FF FF FF FF 00 00 
2183.59295 2 0737       Rx   d 8 07 23 00 00 85 60 00 04 
2183.91613 2 073F       Rx   d 8 05 63 FF FF FF FF 00 00 
2184.05645 2 0737       Rx   d 8 07 23 00 00 85 64 00 04 
2184.31052 2 073F       Rx   d 8 05 63 FF FF FF FF 00 00 
2184.39193 2 0737       Rx   d 8 07 23 00 00 85 68 00 04 
2184.73251 2 073F       Rx   d 8 05 63 FF FF FF FF 00 00 
2184.85581 2 0737       Rx   d 8 07 23 00 00 85 6C 00 04 
2185.10532 2 073F       Rx   d 8 05 63 FF FF FF FF 00 00 
2185.19034 2 0737       Rx   d 8 07 23 00 00 85 70 00 04 
2185.51822 2 073F       Rx   d 8 05 63 FF FF FF FF 00 00 
2185.65366 2 0737       Rx   d 8 07 23 00 00 85 74 00 04 
2185.90981 2 073F       Rx   d 8 05 63 FF FF FF FF 00 00 
2185.99603 2 0737       Rx   d 8 07 23 00 00 85 78 00 04 
2186.32131 2 073F       Rx   d 8 05 63 FF FF FF FF 00 00 
2186.62551 2 0737       Rx   d 8 07 23 00 00 85 7C 00 04 
2186.94170 2 073F       Rx   d 8 05 63 FF FF FF FF 00 00 
2187.21544 2 0737       Rx   d 8 07 23 00 00 85 80 00 04 
2187.50862 2 073F       Rx   d 8 05 63 FF FF FF FF 00 00 
2187.68316 2 0737       Rx   d 8 07 23 00 00 85 84 00 04 
2187.92024 2 073F       Rx   d 8 05 63 FF FF FF FF 00 00 
2188.14387 2 0737       Rx   d 8 07 23 00 00 85 88 00 04 
2188.40872 2 073F       Rx   d 8 05 63 FF FF FF FF 00 00 
2188.62187 2 0737       Rx   d 8 07 23 00 00 85 8C 00 04 
2188.90580 2 073F       Rx   d 8 05 63 FF FF FF FF 00 00 
2189.09234 2 0737       Rx   d 8 07 23 00 00 85 90 00 04 
2189.40013 2 073F       Rx   d 8 05 63 FF FF FF FF 00 00 
2189.51931 2 0737       Rx   d 8 07 23 00 00 85 94 00 04 
2189.82553 2 073F       Rx   d 8 05 63 FF FF FF FF 00 00 
2190.00246 2 0737       Rx   d 8 07 23 00 00 85 98 00 04 
2190.32526 2 073F       Rx   d 8 05 63 FF FF FF FF 00 00 
2190.45826 2 0737       Rx   d 8 07 23 00 00 85 9C 00 04 
2190.73762 2 073F       Rx   d 8 05 63 FF FF FF FF 00 00 
2190.94146 2 0737       Rx   d 8 07 23 00 00 85 A0 00 04 
2191.21274 2 073F       Rx   d 8 05 63 FF FF FF FF 00 00 
2191.42614 2 0737       Rx   d 8 07 23 00 00 85 A4 00 04 
2191.75937 2 073F       Rx   d 8 05 63 FF FF FF FF 00 00 
2191.92196 2 0737       Rx   d 8 07 23 00 00 85 A8 00 04 
2192.22746 2 073F       Rx   d 8 05 63 FF FF FF FF 00 00 
2192.40037 2 0737       Rx   d 8 07 23 00 00 85 AC 00 04 
2192.73901 2 073F       Rx   d 8 05 63 FF FF FF FF 00 00 
2192.86263 2 0737       Rx   d 8 07 23 00 00 85 B0 00 04 
2193.10820 2 073F       Rx   d 8 05 63 FF FF FF FF 00 00 
2193.20207 2 0737       Rx   d 8 07 23 00 00 85 B4 00 04 
2193.52990 2 073F       Rx   d 8 05 63 FF FF FF FF 00 00 
2193.82874 2 0737       Rx   d 8 07 23 00 00 85 B8 00 04 
2194.10538 2 073F       Rx   d 8 05 63 FF FF FF FF 00 00 
2194.39879 2 0737       Rx   d 8 07 23 00 00 85 BC 00 04 
2194.71851 2 073F       Rx   d 8 05 63 FF FF FF FF 00 00 
2194.87999 2 0737       Rx   d 8 07 23 00 00 85 C0 00 04 
2195.21459 2 073F       Rx   d 8 05 63 FF FF FF FF 00 00 
2195.49276 2 0737       Rx   d 8 07 23 00 00 85 C4 00 04 
2195.80691 2 073F       Rx   d 8 05 63 FF FF FF FF 00 00 
2195.92537 2 0737       Rx   d 8 07 23 00 00 85 C8 00 04 
2196.23098 2 073F       Rx   d 8 05 63 FF FF FF FF 00 00 
2196.40423 2 0737       Rx   d 8 07 23 00 00 85 CC 00 04 
2196.74414 2 073F       Rx   d 8 05 63 FF FF FF FF 00 00 
2196.82861 2 0737       Rx   d 8 07 23 00 00 85 D0 00 04 
2197.09407 2 073F       Rx   d 8 05 63 FF FF FF FF 00 00 
2197.14838 2 0737       Rx   d 8 07 23 00 00 85 D4 00 04 
2197.39411 2 073F       Rx   d 8 05 63 FF FF FF FF 00 00 
2197.46931 2 0737       Rx   d 8 07 23 00 00 85 D8 00 04 
2197.73627 2 073F       Rx   d 8 05 63 FF FF FF FF 00 00 
2197.78839 2 0737       Rx   d 8 07 23 00 00 85 DC 00 04 
2198.10673 2 073F       Rx   d 8 05 63 FF FF FF FF 00 00 
2198.33046 2 0737       Rx   d 8 07 23 00 00 85 E0 00 04 
2198.63015 2 073F       Rx   d 8 05 63 FF FF FF FF 00 00 
2198.74711 2 0737       Rx   d 8 07 23 00 00 85 E4 00 04 
2199.00200 2 073F       Rx   d 8 05 63 FF FF 70 F0 00 00 
2199.06755 2 0737       Rx   d 8 07 23 00 00 85 E8 00 04 
2199.29319 2 073F       Rx   d 8 05 63 01 00 FF FF 00 00 
2199.54664 2 0737       Rx   d 8 07 23 00 00 85 EC 00 04 
2199.79557 2 073F       Rx   d 8 05 63 FF FF FF FF 00 00 
2199.99929 2 0737       Rx   d 8 07 23 00 00 85 F0 00 04 
2200.30629 2 073F       Rx   d 8 05 63 FF FF FF FF 00 00 
2200.46917 2 0737       Rx   d 8 07 23 00 00 85 F4 00 04 
2200.73205 2 073F       Rx   d 8 05 63 FF FF FF FF 00 00 
2200.93342 2 0737       Rx   d 8 07 23 00 00 85 F8 00 04 
2201.20574 2 073F       Rx   d 8 05 63 FF FF FF FF 00 00 
2201.40040 2 0737       Rx   d 8 07 23 00 00 85 FC 00 04 
2201.72349 2 073F       Rx   d 8 05 63 FF FF FF FF 00 00 
2201.86153 2 0737       Rx   d 8 07 23 00 00 86 00 00 04 
2202.10393 2 073F       Rx   d 8 05 63 FF FF FF FF 00 00 
2202.33189 2 0737       Rx   d 8 07 23 00 00 86 04 00 04 
2202.59061 2 073F       Rx   d 8 05 63 FF FF FF FF 00 00 
2202.81880 2 0737       Rx   d 8 07 23 00 00 86 08 00 04 
2203.12533 2 073F       Rx   d 8 05 63 FF FF FF FF 00 00 
2203.22593 2 0737       Rx   d 8 07 23 00 00 86 0C 00 04 
2203.49119 2 073F       Rx   d 8 05 63 FF FF FF FF 00 00 
2203.54586 2 0737       Rx   d 8 07 23 00 00 86 10 00 04 
2203.79106 2 073F       Rx   d 8 05 63 FF FF FF FF 00 00 
2203.92258 2 0737       Rx   d 8 07 23 00 00 86 14 00 04 
2204.23863 2 073F       Rx   d 8 05 63 FF FF FF FF 00 00 
2204.34626 2 0737       Rx   d 8 07 23 00 00 86 18 00 04 
2204.59974 2 073F       Rx   d 8 05 63 FF FF FF FF 00 00 
2204.66560 2 0737       Rx   d 8 07 23 00 00 86 1C 00 04 
2204.90544 2 073F       Rx   d 8 05 63 FF FF FF FF 00 00 
2204.98803 2 0737       Rx   d 8 07 23 00 00 86 20 00 04 
2205.29004 2 073F       Rx   d 8 05 63 FF FF FF FF 00 00 
2205.46629 2 0737       Rx   d 8 07 23 00 00 86 24 00 04 
2205.72371 2 073F       Rx   d 8 05 63 FF FF FF FF 00 00 
2205.92300 2 0737       Rx   d 8 07 23 00 00 86 28 00 04 
2206.21261 2 073F       Rx   d 8 05 63 FF FF FF FF 00 00 
2206.38892 2 0737       Rx   d 8 07 23 00 00 86 2C 00 04 
2206.73825 2 073F       Rx   d 8 05 63 FF FF FF FF 00 00 
2207.01373 2 0737       Rx   d 8 07 23 00 00 86 30 00 04 
2207.29097 2 073F       Rx   d 8 05 63 FF FF FF FF 00 00 
2207.49010 2 0737       Rx   d 8 07 23 00 00 86 34 00 04 
2207.79896 2 073F       Rx   d 8 05 63 FF FF FF FF 00 00 
2207.95116 2 0737       Rx   d 8 07 23 00 00 86 38 00 04 
2208.18888 2 073F       Rx   d 8 05 63 FF FF FF FF 00 00 
2208.41946 2 0737       Rx   d 8 07 23 00 00 86 3C 00 04 
2208.73761 2 073F       Rx   d 8 05 63 FF FF FF FF 00 00 
2208.88836 2 0737       Rx   d 8 07 23 00 00 86 40 00 04 
2209.22040 2 073F       Rx   d 8 05 63 FF FF FF FF 00 00 
2209.36074 2 0737       Rx   d 8 07 23 00 00 86 44 00 04 
2209.59983 2 073F       Rx   d 8 05 63 FF FF FF FF 00 00 
2209.62421 2 0737       Rx   d 8 07 23 00 00 86 48 00 04 
2209.90331 2 073F       Rx   d 8 05 63 FF FF FF FF 00 00 
2209.94417 2 0737       Rx   d 8 07 23 00 00 86 4C 00 04 
2210.19649 2 073F       Rx   d 8 05 63 FF FF FF FF 00 00 
2210.26340 2 0737       Rx   d 8 07 23 00 00 86 50 00 04 
2210.50505 2 073F       Rx   d 8 05 63 FF FF FF FF 00 00 
2210.58809 2 0737       Rx   d 8 07 23 00 00 86 54 00 04 
2210.88951 2 073F       Rx   d 8 05 63 FF FF FF FF 00 00 
2211.07770 2 0737       Rx   d 8 07 23 00 00 86 58 00 04 
2211.38902 2 073F       Rx   d 8 05 63 FF FF FF FF 00 00 
2211.69363 2 0737       Rx   d 8 07 23 00 00 86 5C 00 04 
2211.98919 2 073F       Rx   d 8 05 63 FF FF FF FF 00 00 
2212.16680 2 0737       Rx   d 8 07 23 00 00 86 60 00 04 
2212.48831 2 073F       Rx   d 8 05 63 FF FF FF FF 00 00 
2212.79763 2 0737       Rx   d 8 07 23 00 00 86 64 00 04 
2213.08862 2 073F       Rx   d 8 05 63 FF FF FF FF 00 00 
2213.28186 2 0737       Rx   d 8 07 23 00 00 86 68 00 04 
2213.53229 2 073F       Rx   d 8 05 63 FF FF FF FF 00 00 
2213.74745 2 0737       Rx   d 8 07 23 00 00 86 6C 00 04 
2214.02275 2 073F       Rx   d 8 05 63 FF FF FF FF 00 00 
2214.20344 2 0737       Rx   d 8 07 23 00 00 86 70 00 04 
2214.50564 2 073F       Rx   d 8 05 63 FF FF FF FF 00 00 
2214.66645 2 0737       Rx   d 8 07 23 00 00 86 74 00 04 
2214.90584 2 073F       Rx   d 8 05 63 FF FF FF FF 00 00 
2215.13656 2 0737       Rx   d 8 07 23 00 00 86 78 00 04 
2215.38767 2 073F       Rx   d 8 05 63 FF FF FF FF 00 00 
2215.62165 2 0737       Rx   d 8 07 23 00 00 86 7C 00 04 
2215.79452 2 073F       Rx   d 8 05 63 FF FF FF FF 00 00 
2215.93250 2 0737       Rx   d 8 07 23 00 00 86 80 00 04 
2216.19701 2 073F       Rx   d 8 05 63 FF FF FF FF 00 00 
2216.34644 2 0737       Rx   d 8 07 23 00 00 86 84 00 04 
2216.58765 2 073F       Rx   d 8 05 63 FF FF FF FF 00 00 
2216.66197 2 0737       Rx   d 8 07 23 00 00 86 88 00 04 
2216.90985 2 073F       Rx   d 8 05 63 FF FF FF FF 00 00 
2216.98823 2 0737       Rx   d 8 07 23 00 00 86 8C 00 04 
2217.29273 2 073F       Rx   d 8 05 63 FF FF FF FF 00 00 
2217.61377 2 0737       Rx   d 8 07 23 00 00 86 90 00 04 
2217.89257 2 073F       Rx   d 8 05 63 FF FF FF FF 00 00 
2218.08180 2 0737       Rx   d 8 07 23 00 00 86 94 00 04 
2218.39234 2 073F       Rx   d 8 05 63 FF FF FF FF 00 00 
2218.53869 2 0737       Rx   d 8 07 23 00 00 86 98 00 04 
2218.82207 2 073F       Rx   d 8 05 63 FF FF FF FF 00 00 
2219.01394 2 0737       Rx   d 8 07 23 00 00 86 9C 00 04 
2219.31253 2 073F       Rx   d 8 05 63 FF FF FF FF 00 00 
2219.48530 2 0737       Rx   d 8 07 23 00 00 86 A0 00 04 
2219.80191 2 073F       Rx   d 8 05 63 FF FF FF FF 00 00 
2219.96707 2 0737       Rx   d 8 07 23 00 00 86 A4 00 04 
2220.19144 2 073F       Rx   d 8 05 63 FF FF FF FF 00 00 
2220.43300 2 0737       Rx   d 8 07 23 00 00 86 A8 00 04 
2220.74653 2 073F       Rx   d 8 05 63 FF FF FF FF 00 00 
2220.91194 2 0737       Rx   d 8 07 23 00 00 86 AC 00 04 
2221.22585 2 073F       Rx   d 8 05 63 FF FF FF FF 00 00 
2221.38744 2 0737       Rx   d 8 07 23 00 00 86 B0 00 04 
2221.72176 2 073F       Rx   d 8 05 63 FF FF FF FF 00 00 
2221.85018 2 0737       Rx   d 8 07 23 00 00 86 B4 00 04 
2222.08379 2 073F       Rx   d 8 05 63 FF FF FF FF 00 00 
2222.25894 2 0737       Rx   d 8 07 23 00 00 86 B8 00 04 
2222.51487 2 073F       Rx   d 8 05 63 FF FF FF FF 00 00 
2222.65067 2 0737       Rx   d 8 07 23 00 00 86 BC 00 04 
2222.88964 2 073F       Rx   d 8 05 63 FF FF FF FF 00 00 
2223.05905 2 0737       Rx   d 8 07 23 00 00 86 C0 00 04 
2223.38969 2 073F       Rx   d 8 05 63 FF FF FF FF 00 00 
2223.53676 2 0737       Rx   d 8 07 23 00 00 86 C4 00 04 
2223.79452 2 073F       Rx   d 8 05 63 FF FF FF FF 00 00 
2223.85898 2 0737       Rx   d 8 07 23 00 00 86 C8 00 04 
2224.19235 2 073F       Rx   d 8 05 63 FF FF FF FF 00 00 
2224.33904 2 0737       Rx   d 8 07 23 00 00 86 CC 00 04 
2224.59218 2 073F       Rx   d 8 05 63 FF FF FF FF 00 00 
2224.65894 2 0737       Rx   d 8 07 23 00 00 86 D0 00 04 
2224.98931 2 073F       Rx   d 8 05 63 FF FF FF FF 00 00 
2225.13786 2 0737       Rx   d 8 07 23 00 00 86 D4 00 04 
2225.38911 2 073F       Rx   d 8 05 63 FF FF FF FF 00 00 
2225.60815 2 0737       Rx   d 8 07 23 00 00 86 D8 00 04 
2225.88861 2 073F       Rx   d 8 05 63 FF FF FF FF 00 00 
2226.07888 2 0737       Rx   d 8 07 23 00 00 86 DC 00 04 
2226.38396 2 073F       Rx   d 8 05 63 FF FF FF FF 00 00 
2226.54087 2 0737       Rx   d 8 07 23 00 00 86 E0 00 04 
2226.82860 2 073F       Rx   d 8 05 63 FF FF FF FF 00 00 
2227.00987 2 0737       Rx   d 8 07 23 00 00 86 E4 00 04 
2227.31947 2 073F       Rx   d 8 05 63 FF FF FF FF 00 00 
2227.47975 2 0737       Rx   d 8 07 23 00 00 86 E8 00 04 
2227.79822 2 073F       Rx   d 8 05 63 FF FF FF FF 00 00 
2227.93616 2 0737       Rx   d 8 07 23 00 00 86 EC 00 04 
2228.18477 2 073F       Rx   d 8 05 63 FF FF FF FF 00 00 
2228.41922 2 0737       Rx   d 8 07 23 00 00 86 F0 00 04 
2228.75410 2 073F       Rx   d 8 05 63 FF FF FF FF 00 00 
2228.91694 2 0737       Rx   d 8 07 23 00 00 86 F4 00 04 
2229.22632 2 073F       Rx   d 8 05 63 FF FF FF FF 00 00 
2229.32728 2 0737       Rx   d 8 07 23 00 00 86 F8 00 04 
2229.58449 2 073F       Rx   d 8 05 63 FF FF FF FF 00 00 
2229.63888 2 0737       Rx   d 8 07 23 00 00 86 FC 00 04 
2229.88989 2 073F       Rx   d 8 05 63 FF FF FF FF 00 00 
2229.93730 2 0737       Rx   d 8 07 23 00 00 87 00 00 04 
2230.19339 2 073F       Rx   d 8 05 63 FF FF FF FF 00 00 
2230.25582 2 0737       Rx   d 8 07 23 00 00 87 04 00 04 
2230.58719 2 073F       Rx   d 8 05 63 FF FF FF FF 00 00 
2230.88360 2 0737       Rx   d 8 07 23 00 00 87 08 00 04 
2231.18936 2 073F       Rx   d 8 05 63 FF FF FF FF 00 00 
2231.34775 2 0737       Rx   d 8 07 23 00 00 87 0C 00 04 
2231.62157 2 073F       Rx   d 8 05 63 FF FF FF FF 00 00 
2231.82001 2 0737       Rx   d 8 07 23 00 00 87 10 00 04 
2232.11900 2 073F       Rx   d 8 05 63 FF FF FF FF 00 00 
2232.28716 2 0737       Rx   d 8 07 23 00 00 87 14 00 04 
2232.59993 2 073F       Rx   d 8 05 63 FF FF FF FF 00 00 
2232.74980 2 0737       Rx   d 8 07 23 00 00 87 18 00 04 
2232.98572 2 073F       Rx   d 8 05 63 FF FF FF FF 00 00 
2233.22606 2 0737       Rx   d 8 07 23 00 00 87 1C 00 04 
2233.47801 2 073F       Rx   d 8 05 63 FF FF FF FF 00 00 
2233.72829 2 0737       Rx   d 8 07 23 00 00 87 20 00 04 
2234.02349 2 073F       Rx   d 8 05 63 FF FF FF FF 00 00 
2234.19693 2 0737       Rx   d 8 07 23 00 00 87 24 00 04 
2234.52215 2 073F       Rx   d 8 05 63 FF FF FF FF 00 00 
2234.62627 2 0737       Rx   d 8 07 23 00 00 87 28 00 04 
2234.88469 2 073F       Rx   d 8 05 63 FF FF FF FF 00 00 
2235.10176 2 0737       Rx   d 8 07 23 00 00 87 2C 00 04 
2235.38492 2 073F       Rx   d 8 05 63 FF FF FF FF 00 00 
2235.58207 2 0737       Rx   d 8 07 23 00 00 87 30 00 04 
2235.87646 2 073F       Rx   d 8 05 63 FF FF FF FF 00 00 
2236.03684 2 0737       Rx   d 8 07 23 00 00 87 34 00 04 
2236.28427 2 073F       Rx   d 8 05 63 FF FF FF FF 00 00 
2236.35273 2 0737       Rx   d 8 07 23 00 00 87 38 00 04 
2236.75598 2 073F       Rx   d 8 05 63 FF FF FF FF 00 00 
2236.96469 2 0737       Rx   d 8 07 23 00 00 87 3C 00 04 
2237.28508 2 073F       Rx   d 8 05 63 FF FF FF FF 00 00 
2237.60505 2 0737       Rx   d 8 07 23 00 00 87 40 00 04 
2237.87751 2 073F       Rx   d 8 05 63 FF FF FF FF 00 00 
2238.08208 2 0737       Rx   d 8 07 23 00 00 87 44 00 04 
2238.38269 2 073F       Rx   d 8 05 63 FF FF FF FF 00 00 
2238.55757 2 0737       Rx   d 8 07 23 00 00 87 48 00 04 
2238.87843 2 073F       Rx   d 8 05 63 FF FF FF FF 00 00 
2239.18536 2 0737       Rx   d 8 07 23 00 00 87 4C 00 04 
2239.47806 2 073F       Rx   d 8 05 63 FF FF FF FF 00 00 
2239.66474 2 0737       Rx   d 8 07 23 00 00 87 50 00 04 
2239.98723 2 073F       Rx   d 8 05 63 FF FF FF FF 00 00 
2240.14690 2 0737       Rx   d 8 07 23 00 00 87 54 00 04 
2240.38168 2 073F       Rx   d 8 05 63 FF FF FF FF 00 00 
2240.60779 2 0737       Rx   d 8 07 23 00 00 87 58 00 04 
2240.92438 2 073F       Rx   d 8 05 63 FF FF FF FF 00 00 
2241.08048 2 0737       Rx   d 8 07 23 00 00 87 5C 00 04 
2241.40827 2 073F       Rx   d 8 05 63 FF FF FF FF 00 00 
2241.54859 2 0737       Rx   d 8 07 23 00 00 87 60 00 04 
2241.78964 2 073F       Rx   d 8 05 63 FF FF FF FF 00 00 
2242.02890 2 0737       Rx   d 8 07 23 00 00 87 64 00 04 
2242.28094 2 073F       Rx   d 8 05 63 FF FF FF FF 00 00 
2242.52825 2 0737       Rx   d 8 07 23 00 00 87 68 00 04 
2242.78422 2 073F       Rx   d 8 05 63 FF FF FF FF 00 00 
2243.01265 2 0737       Rx   d 8 07 23 00 00 87 6C 00 04 
2243.32843 2 073F       Rx   d 8 05 63 FF FF FF FF 00 00 
2243.38224 2 0737       Rx   d 8 07 23 00 00 87 70 00 04 
2243.71821 2 073F       Rx   d 8 05 63 FF FF FF FF 00 00 
2243.85171 2 0737       Rx   d 8 07 23 00 00 87 74 00 04 
2244.18404 2 073F       Rx   d 8 05 63 FF FF FF FF 00 00 
2244.33077 2 0737       Rx   d 8 07 23 00 00 87 78 00 04 
2244.60943 2 073F       Rx   d 8 05 63 FF FF FF FF 00 00 
2244.64961 2 0737       Rx   d 8 07 23 00 00 87 7C 00 04 
2244.87467 2 073F       Rx   d 8 05 63 FF FF FF FF 00 00 
2244.98492 2 0737       Rx   d 8 07 23 00 00 87 80 00 04 
2245.27926 2 073F       Rx   d 8 05 63 FF FF FF FF 00 00 
2245.45041 2 0737       Rx   d 8 07 23 00 00 87 84 00 04 
2245.78481 2 073F       Rx   d 8 05 63 FF FF FF FF 00 00 
2245.92968 2 0737       Rx   d 8 07 23 00 00 87 88 00 04 
2246.21724 2 073F       Rx   d 8 05 63 FF FF FF FF 00 00 
2246.39925 2 0737       Rx   d 8 07 23 00 00 87 8C 00 04 
2246.72779 2 073F       Rx   d 8 05 63 FF FF FF FF 00 00 
2247.02035 2 0737       Rx   d 8 07 23 00 00 87 90 00 04 
2247.33198 2 073F       Rx   d 8 05 63 FF FF FF FF 00 00 
2247.49030 2 0737       Rx   d 8 07 23 00 00 87 94 00 04 
2247.81977 2 073F       Rx   d 8 05 63 FF FF FF FF 00 00 
2247.98358 2 0737       Rx   d 8 07 23 00 00 87 98 00 04 
2248.28804 2 073F       Rx   d 8 05 63 FF FF FF FF 00 00 
2248.44824 2 0737       Rx   d 8 07 23 00 00 87 9C 00 04 
2248.78767 2 073F       Rx   d 8 05 63 FF FF FF FF 00 00 
2248.92371 2 0737       Rx   d 8 07 23 00 00 87 A0 00 04 
2249.18146 2 073F       Rx   d 8 05 63 FF FF FF FF 00 00 
2249.41426 2 0737       Rx   d 8 07 23 00 00 87 A4 00 04 
2249.73644 2 073F       Rx   d 8 05 63 FF FF FF FF 00 00 
2249.78368 2 0737       Rx   d 8 07 23 00 00 87 A8 00 04 
2250.07784 2 073F       Rx   d 8 05 63 FF FF FF FF 00 00 
2250.24835 2 0737       Rx   d 8 07 23 00 00 87 AC 00 04 
2250.58169 2 073F       Rx   d 8 05 63 FF FF FF FF 00 00 
2250.73330 2 0737       Rx   d 8 07 23 00 00 87 B0 00 04 
2251.02109 2 073F       Rx   d 8 05 63 FF FF FF FF 00 00 
2251.04863 2 0737       Rx   d 8 07 23 00 00 87 B4 00 04 
2251.38382 2 073F       Rx   d 8 05 63 FF FF FF FF 00 00 
2251.52722 2 0737       Rx   d 8 07 23 00 00 87 B8 00 04 
2251.82365 2 073F       Rx   d 8 05 63 FF FF FF FF 00 00 
2251.84731 2 0737       Rx   d 8 07 23 00 00 87 BC 00 04 
2252.18513 2 073F       Rx   d 8 05 63 FF FF FF FF 00 00 
2252.48147 2 0737       Rx   d 8 07 23 00 00 87 C0 00 04 
2252.78371 2 073F       Rx   d 8 05 63 FF FF FF FF 00 00 
2252.95131 2 0737       Rx   d 8 07 23 00 00 87 C4 00 04 
2253.18505 2 073F       Rx   d 8 05 63 FF FF FF FF 00 00 
2253.42752 2 0737       Rx   d 8 07 23 00 00 87 C8 00 04 
2253.73259 2 073F       Rx   d 8 05 63 FF FF FF FF 00 00 
2253.88921 2 0737       Rx   d 8 07 23 00 00 87 CC 00 04 
2254.22114 2 073F       Rx   d 8 05 63 FF FF FF FF 00 00 
2254.38241 2 0737       Rx   d 8 07 23 00 00 87 D0 00 04 
2254.69440 2 073F       Rx   d 8 05 63 FF FF FF FF 00 00 
2254.84187 2 0737       Rx   d 8 07 23 00 00 87 D4 00 04 
2255.06805 2 073F       Rx   d 8 05 63 FF FF FF FF 00 00 
2255.33400 2 0737       Rx   d 8 07 23 00 00 87 D8 00 04 
2255.58336 2 073F       Rx   d 8 05 63 FF FF FF FF 00 00 
2255.82048 2 0737       Rx   d 8 07 23 00 00 87 DC 00 04 
2256.06411 2 073F       Rx   d 8 05 63 FF FF FF FF 00 00 
2256.22670 2 0737       Rx   d 8 07 23 00 00 87 E0 00 04 
2256.48082 2 073F       Rx   d 8 05 63 FF FF FF FF 00 00 
2256.64721 2 0737       Rx   d 8 07 23 00 00 87 E4 00 04 
2256.98300 2 073F       Rx   d 8 05 63 FF FF FF FF 00 00 
2257.12675 2 0737       Rx   d 8 07 23 00 00 87 E8 00 04 
2257.41767 2 073F       Rx   d 8 05 63 FF FF FF FF 00 00 
2257.44503 2 0737       Rx   d 8 07 23 00 00 87 EC 00 04 
2257.78260 2 073F       Rx   d 8 05 63 FF FF FF FF 00 00 
2257.92575 2 0737       Rx   d 8 07 23 00 00 87 F0 00 04 
2258.21999 2 073F       Rx   d 8 05 63 FF FF FF FF 00 00 
2258.24431 2 0737       Rx   d 8 07 23 00 00 87 F4 00 04 
2258.58202 2 073F       Rx   d 8 05 63 FF FF FF FF 00 00 
2258.72688 2 0737       Rx   d 8 07 23 00 00 87 F8 00 04 
2259.01831 2 073F       Rx   d 8 05 63 FF FF FF FF 00 00 
2259.20276 2 0737       Rx   d 8 07 23 00 00 87 FC 00 04 
2259.50918 2 073F       Rx   d 8 05 63 FF FF FF FF 00 00 
2259.69843 2 0737       Rx   d 8 07 23 00 00 88 00 00 04 
2259.98598 2 073F       Rx   d 8 05 63 09 52 44 14 00 00 
2260.13853 2 0737       Rx   d 8 07 23 00 00 88 04 00 04 
2260.38256 2 073F       Rx   d 8 05 63 28 20 20 15 00 00 
2260.61502 2 0737       Rx   d 8 07 23 00 00 88 08 00 04 
2260.87487 2 073F       Rx   d 8 05 63 17 09 F3 FF 00 00 
2261.10908 2 0737       Rx   d 8 07 23 00 00 88 0C 00 04 
2261.41467 2 073F       Rx   d 8 05 63 89 86 02 01 00 00 
2261.58538 2 0737       Rx   d 8 07 23 00 00 88 10 00 04 
2261.91071 2 073F       Rx   d 8 05 63 04 07 35 0B 00 00 
2262.22185 2 0737       Rx   d 8 07 23 00 00 88 14 00 04 
2262.47947 2 073F       Rx   d 8 05 63 1F 2B 9D 61 00 00 
2262.64077 2 0737       Rx   d 8 07 23 00 00 88 18 00 04 
2262.87546 2 073F       Rx   d 8 05 63 02 27 3F D8 00 00 
2263.11580 2 0737       Rx   d 8 07 23 00 00 88 1C 00 04 
2263.38398 2 073F       Rx   d 8 05 63 11 0D 05 17 00 00 
2263.52360 2 0737       Rx   d 8 07 23 00 00 88 20 00 04 
2263.81961 2 073F       Rx   d 8 05 63 79 7D 16 3B 00 00 
2263.84569 2 0737       Rx   d 8 07 23 00 00 88 24 00 04 
2264.17891 2 073F       Rx   d 8 05 63 05 02 A8 FB 00 00 
2264.32220 2 0737       Rx   d 8 07 23 00 00 88 28 00 04 
2264.55923 2 073F       Rx   d 8 05 63 09 06 00 09 00 00 
2264.64223 2 0737       Rx   d 8 07 23 00 00 88 2C 00 04 
2264.95909 2 073F       Rx   d 8 05 63 08 8F 03 0C 00 00 
2265.12377 2 0737       Rx   d 8 07 23 00 00 88 30 00 04 
2265.35850 2 073F       Rx   d 8 05 63 20 00 1D 06 00 00 
2265.44342 2 0737       Rx   d 8 07 23 00 00 88 34 00 04 
2265.75078 2 073F       Rx   d 8 05 63 00 00 0E 97 00 00 
2265.92311 2 0737       Rx   d 8 07 23 00 00 88 38 00 04 
2266.17785 2 073F       Rx   d 8 05 63 2A 96 84 88 00 00 
2266.24211 2 0737       Rx   d 8 07 23 00 00 88 3C 00 04 
2266.57871 2 073F       Rx   d 8 05 63 49 5B 5F 08 00 00 
2266.72417 2 0737       Rx   d 8 07 23 00 00 88 40 00 04 
2267.01891 2 073F       Rx   d 8 05 63 1B 9A 22 B7 00 00 
2267.19676 2 0737       Rx   d 8 07 23 00 00 88 44 00 04 
2267.51652 2 073F       Rx   d 8 05 63 0C 16 15 08 00 00 
2267.83085 2 0737       Rx   d 8 07 23 00 00 88 48 00 04 
2268.07380 2 073F       Rx   d 8 05 63 04 10 EC 63 00 00 
2268.31935 2 0737       Rx   d 8 07 23 00 00 88 4C 00 04 
2268.57742 2 073F       Rx   d 8 05 63 13 14 C0 00 00 00 
2268.79872 2 0737       Rx   d 8 07 23 00 00 88 50 00 04 
2269.11486 2 073F       Rx   d 8 05 63 FF FF FF FF 00 00 
2269.41602 2 0737       Rx   d 8 07 23 00 00 88 54 00 04 
2269.68758 2 073F       Rx   d 8 05 63 FF FF FF FF 00 00 
2269.84823 2 0737       Rx   d 8 07 23 00 00 88 58 00 04 
2270.17813 2 073F       Rx   d 8 05 63 FF FF FF FF 00 00 
2270.24101 2 0737       Rx   d 8 07 23 00 00 88 5C 00 04 
2270.55659 2 073F       Rx   d 8 05 63 FF FF FF FF 00 00 
2270.72305 2 0737       Rx   d 8 07 23 00 00 88 60 00 04 
2270.98042 2 073F       Rx   d 8 05 63 FF FF FF FF 00 00 
2271.04152 2 0737       Rx   d 8 07 23 00 00 88 64 00 04 
2271.37776 2 073F       Rx   d 8 05 63 FF FF FF FF 00 00 
2271.52154 2 0737       Rx   d 8 07 23 00 00 88 68 00 04 
2271.82359 2 073F       Rx   d 8 05 63 FF FF FF FF 00 00 
2272.00011 2 0737       Rx   d 8 07 23 00 00 88 6C 00 04 
2272.31896 2 073F       Rx   d 8 05 63 FF FF FF FF 00 00 
2272.48011 2 0737       Rx   d 8 07 23 00 00 88 70 00 04 
2272.68834 2 073F       Rx   d 8 05 63 FF FF FF FF 00 00 
2272.80433 2 0737       Rx   d 8 07 23 00 00 88 74 00 04 
2273.05558 2 073F       Rx   d 8 05 63 FF FF FF FF 00 00 
2273.27045 2 0737       Rx   d 8 07 23 00 00 88 78 00 04 
2273.59937 2 073F       Rx   d 8 05 63 FF FF FF FF 00 00 
2273.91548 2 0737       Rx   d 8 07 23 00 00 88 7C 00 04 
2274.15748 2 073F       Rx   d 8 05 63 FF FF FF FF 00 00 
2274.39983 2 0737       Rx   d 8 07 23 00 00 88 80 00 04 
2274.72089 2 073F       Rx   d 8 05 63 00 00 8C FF 00 00 
2274.97914 2 0737       Rx   d 8 07 23 00 00 88 84 00 04 
2275.26768 2 073F       Rx   d 8 05 63 FA 0C 32 88 00 00 
2275.45211 2 0737       Rx   d 8 07 23 00 00 88 88 00 04 
2275.77913 2 073F       Rx   d 8 05 63 0A 96 1E DC 00 00 
2275.91487 2 0737       Rx   d 8 07 23 00 00 88 8C 00 04 
2276.15667 2 073F       Rx   d 8 05 63 0A 50 64 01 00 00 
2276.38774 2 0737       Rx   d 8 07 23 00 00 88 90 00 04 
2276.71541 2 073F       Rx   d 8 05 63 1E 14 28 05 00 00 
2276.80505 2 0737       Rx   d 8 07 23 00 00 88 94 00 04 
2277.05603 2 073F       Rx   d 8 05 63 49 72 FF 14 00 00 
2277.11947 2 0737       Rx   d 8 07 23 00 00 88 98 00 04 
2277.35540 2 073F       Rx   d 8 05 63 01 00 0F 64 00 00 
2277.44074 2 0737       Rx   d 8 07 23 00 00 88 9C 00 04 
2277.78202 2 073F       Rx   d 8 05 63 19 00 0F 26 00 00 
2277.92074 2 0737       Rx   d 8 07 23 00 00 88 A0 00 04 
2278.17711 2 073F       Rx   d 8 05 63 0D 32 00 23 00 00 
2278.24153 2 0737       Rx   d 8 07 23 00 00 88 A4 00 04 
2278.55172 2 073F       Rx   d 8 05 63 0F 0F 33 B8 00 00 
2278.72152 2 0737       Rx   d 8 07 23 00 00 88 A8 00 04 
2278.98096 2 073F       Rx   d 8 05 63 FF 0A 36 0D 00 00 
2279.04037 2 0737       Rx   d 8 07 23 00 00 88 AC 00 04 
2279.37657 2 073F       Rx   d 8 05 63 14 1B 94 64 00 00 
2279.67694 2 0737       Rx   d 8 07 23 00 00 88 B0 00 04 
2280.00982 2 073F       Rx   d 8 05 63 96 96 FA 00 00 00 
2280.32362 2 0737       Rx   d 8 07 23 00 00 88 B4 00 04 
2280.55066 2 073F       Rx   d 8 05 63 37 80 3B 01 00 00 
2280.81113 2 0737       Rx   d 8 07 23 00 00 88 B8 00 04 
2280.95006 2 073F       Rx   d 8 05 63 69 28 1E 19 00 00 
2281.22135 2 0737       Rx   d 8 07 23 00 00 88 BC 00 04 
2281.45394 2 073F       Rx   d 8 05 63 00 0B 28 00 00 00 
2281.69028 2 0737       Rx   d 8 07 23 00 00 88 C0 00 04 
2281.98138 2 073F       Rx   d 8 05 63 19 32 65 79 00 00 
2282.17586 2 0737       Rx   d 8 07 23 00 00 88 C4 00 04 
2282.46022 2 073F       Rx   d 8 05 63 5E 10 1B 1B 00 00 
2282.62117 2 0737       Rx   d 8 07 23 00 00 88 C8 00 04 
2282.87851 2 073F       Rx   d 8 05 63 0B 0B 0B 01 00 00 
2283.09862 2 0737       Rx   d 8 07 23 00 00 88 CC 00 04 
2283.37859 2 073F       Rx   d 8 05 63 4E E3 FF FF 00 00 
2283.55537 2 0737       Rx   d 8 07 23 00 00 88 D0 00 04 
2283.78093 2 073F       Rx   d 8 05 63 FF FF FF FF 00 00 
2283.83925 2 0737       Rx   d 8 07 23 00 00 88 D4 00 04 
2284.15192 2 073F       Rx   d 8 05 63 FF FF FF FF 00 00 
2284.32393 2 0737       Rx   d 8 07 23 00 00 88 D8 00 04 
2284.55190 2 073F       Rx   d 8 05 63 FF FF FF FF 00 00 
2284.63708 2 0737       Rx   d 8 07 23 00 00 88 DC 00 04 
2284.94989 2 073F       Rx   d 8 05 63 FF FF FF FF 00 00 
2285.12202 2 0737       Rx   d 8 07 23 00 00 88 E0 00 04 
2285.34924 2 073F       Rx   d 8 05 63 FF FF FF FF 00 00 
2285.61048 2 0737       Rx   d 8 07 23 00 00 88 E4 00 04 
2285.86524 2 073F       Rx   d 8 05 63 FF FF FF FF 00 00 
2286.03447 2 0737       Rx   d 8 07 23 00 00 88 E8 00 04 
2286.40926 2 073F       Rx   d 8 05 63 FF FF FF FF 00 00 
2286.66486 2 0737       Rx   d 8 07 23 00 00 88 EC 00 04 
2286.94922 2 073F       Rx   d 8 05 63 FF FF FF FF 00 00 
2287.13325 2 0737       Rx   d 8 07 23 00 00 88 F0 00 04 
2287.45738 2 073F       Rx   d 8 05 63 FF FF FF FF 00 00 
2287.60141 2 0737       Rx   d 8 07 23 00 00 88 F4 00 04 
2287.86323 2 073F       Rx   d 8 05 63 FF FF FF FF 00 00 
2288.06641 2 0737       Rx   d 8 07 23 00 00 88 F8 00 04 
2288.35783 2 073F       Rx   d 8 05 63 FF FF FF FF 00 00 
2288.54354 2 0737       Rx   d 8 07 23 00 00 88 FC 00 04 
2288.85600 2 073F       Rx   d 8 05 63 FF FF FF FF 00 00 
2289.01457 2 0737       Rx   d 8 07 23 00 00 89 00 00 04 
2289.28625 2 073F       Rx   d 8 05 63 96 96 96 96 00 00 
2289.51404 2 0737       Rx   d 8 07 23 00 00 89 04 00 04 
2289.75430 2 073F       Rx   d 8 05 63 32 32 32 32 00 00 
2289.97752 2 0737       Rx   d 8 07 23 00 00 89 08 00 04 
2290.24881 2 073F       Rx   d 8 05 63 0F 0F 0F 0F 00 00 
2290.41306 2 0737       Rx   d 8 07 23 00 00 89 0C 00 04 
2290.72806 2 073F       Rx   d 8 05 63 FF FF FF FF 00 00 
2290.88361 2 0737       Rx   d 8 07 23 00 00 89 10 00 04 
2291.21616 2 073F       Rx   d 8 05 63 FF FF FF FF 00 00 
2291.35473 2 0737       Rx   d 8 07 23 00 00 89 14 00 04 
2291.69804 2 073F       Rx   d 8 05 63 FF FF FF FF 00 00 
2291.83716 2 0737       Rx   d 8 07 23 00 00 89 18 00 04 
2292.17753 2 073F       Rx   d 8 05 63 FF FF FF FF 00 00 
2292.33206 2 0737       Rx   d 8 07 23 00 00 89 1C 00 04 
2292.54513 2 073F       Rx   d 8 05 63 FF FF FF FF 00 00 
2292.63557 2 0737       Rx   d 8 07 23 00 00 89 20 00 04 
2292.97786 2 073F       Rx   d 8 05 63 1E 14 00 FF 00 00 
2293.28821 2 0737       Rx   d 8 07 23 00 00 89 24 00 04 
2293.61277 2 073F       Rx   d 8 05 63 00 00 01 00 00 00 
2293.92818 2 0737       Rx   d 8 07 23 00 00 89 28 00 04 
2294.24750 2 073F       Rx   d 8 05 63 08 00 00 00 00 00 
2294.51439 2 0737       Rx   d 8 07 23 00 00 89 2C 00 04 
2294.75419 2 073F       Rx   d 8 05 63 00 00 00 00 00 00 
2294.98484 2 0737       Rx   d 8 07 23 00 00 89 30 00 04 
2295.24643 2 073F       Rx   d 8 05 63 00 00 00 00 00 00 
2295.46746 2 0737       Rx   d 8 07 23 00 00 89 34 00 04 
2295.75394 2 073F       Rx   d 8 05 63 00 00 00 00 00 00 
2295.93652 2 0737       Rx   d 8 07 23 00 00 89 38 00 04 
2296.25300 2 073F       Rx   d 8 05 63 00 00 00 00 00 00 
2296.39713 2 0737       Rx   d 8 07 23 00 00 89 3C 00 04 
2296.69302 2 073F       Rx   d 8 05 63 50 00 00 00 00 00 
2296.85833 2 0737       Rx   d 8 07 23 00 00 89 40 00 04 
2297.17467 2 073F       Rx   d 8 05 63 00 00 00 00 00 00 
2297.32506 2 0737       Rx   d 8 07 23 00 00 89 44 00 04 
2297.55340 2 073F       Rx   d 8 05 63 00 00 00 00 00 00 
2297.61336 2 0737       Rx   d 8 07 23 00 00 89 48 00 04 
2297.85230 2 073F       Rx   d 8 05 63 50 00 00 00 00 00 
2297.93024 2 0737       Rx   d 8 07 23 00 00 89 4C 00 04 
2298.25508 2 073F       Rx   d 8 05 63 20 00 00 00 00 00 
2298.40987 2 0737       Rx   d 8 07 23 00 00 89 50 00 04 
2298.67509 2 073F       Rx   d 8 05 63 59 00 00 00 00 00 
2298.73740 2 0737       Rx   d 8 07 23 00 00 89 54 00 04 
2299.04446 2 073F       Rx   d 8 05 63 00 00 00 00 00 00 
2299.21453 2 0737       Rx   d 8 07 23 00 00 89 58 00 04 
2299.45174 2 073F       Rx   d 8 05 63 00 00 00 00 00 00 
2299.53367 2 0737       Rx   d 8 07 23 00 00 89 5C 00 04 
2299.84600 2 073F       Rx   d 8 05 63 59 00 00 00 00 00 
2300.12769 2 0737       Rx   d 8 07 23 00 00 89 60 00 04 
2300.37468 2 073F       Rx   d 8 05 63 20 00 00 00 00 00 
2300.59025 2 0737       Rx   d 8 07 23 00 00 89 64 00 04 
2300.85052 2 073F       Rx   d 8 05 63 00 00 00 00 00 00 
2301.05519 2 0737       Rx   d 8 07 23 00 00 89 68 00 04 
2301.35026 2 073F       Rx   d 8 05 63 00 00 00 00 00 00 
2301.51540 2 0737       Rx   d 8 07 23 00 00 89 6C 00 04 
2301.78887 2 073F       Rx   d 8 05 63 00 00 00 00 00 00 
2301.98417 2 0737       Rx   d 8 07 23 00 00 89 70 00 04 
2302.24477 2 073F       Rx   d 8 05 63 00 00 00 00 00 00 
2302.45549 2 0737       Rx   d 8 07 23 00 00 89 74 00 04 
2302.75034 2 073F       Rx   d 8 05 63 00 00 00 00 00 00 
2302.92943 2 0737       Rx   d 8 07 23 00 00 89 78 00 04 
2303.24287 2 073F       Rx   d 8 05 63 00 00 00 00 00 00 
2303.39992 2 0737       Rx   d 8 07 23 00 00 89 7C 00 04 
2303.71691 2 073F       Rx   d 8 05 63 00 00 00 00 00 00 
2303.86353 2 0737       Rx   d 8 07 23 00 00 89 80 00 04 
2304.18754 2 073F       Rx   d 8 05 63 00 00 00 00 00 00 
2304.33565 2 0737       Rx   d 8 07 23 00 00 89 84 00 04 
2304.67468 2 073F       Rx   d 8 05 63 00 00 00 00 00 00 
2304.81610 2 0737       Rx   d 8 07 23 00 00 89 88 00 04 
2305.17298 2 073F       Rx   d 8 05 63 00 00 00 00 00 00 
2305.30947 2 0737       Rx   d 8 07 23 00 00 89 8C 00 04 
2305.67831 2 073F       Rx   d 8 05 63 00 00 00 00 00 00 
2305.79243 2 0737       Rx   d 8 07 23 00 00 89 90 00 04 
2306.03878 2 073F       Rx   d 8 05 63 00 00 00 00 00 00 
2306.11009 2 0737       Rx   d 8 07 23 00 00 89 94 00 04 
2306.34802 2 073F       Rx   d 8 05 63 00 A0 00 20 00 00 
2306.58802 2 0737       Rx   d 8 07 23 00 00 89 98 00 04 
2306.84052 2 073F       Rx   d 8 05 63 00 50 00 10 00 00 
2307.01003 2 0737       Rx   d 8 07 23 00 00 89 9C 00 04 
2307.24841 2 073F       Rx   d 8 05 63 00 00 00 00 00 00 
2307.47413 2 0737       Rx   d 8 07 23 00 00 89 A0 00 04 
2307.74011 2 073F       Rx   d 8 05 63 00 00 20 00 00 00 
2307.95013 2 0737       Rx   d 8 07 23 00 00 89 A4 00 04 
2308.23798 2 073F       Rx   d 8 05 63 00 00 00 00 00 00 
2308.43192 2 0737       Rx   d 8 07 23 00 00 89 A8 00 04 
2308.77472 2 073F       Rx   d 8 05 63 FF FF FF FF 00 00 
2309.06677 2 0737       Rx   d 8 07 23 00 00 89 AC 00 04 
2309.33728 2 073F       Rx   d 8 05 63 FF FF 86 FF 00 00 
2309.53795 2 0737       Rx   d 8 07 23 00 00 89 B0 00 04 
2309.84687 2 073F       Rx   d 8 05 63 FF 0F 05 05 00 00 
2310.01455 2 0737       Rx   d 8 07 23 00 00 89 B4 00 04 
2310.34605 2 073F       Rx   d 8 05 63 09 04 0C 02 00 00 
2310.50312 2 0737       Rx   d 8 07 23 00 00 89 B8 00 04 
2310.77798 2 073F       Rx   d 8 05 63 04 00 00 04 00 00 
2310.91415 2 0737       Rx   d 8 07 23 00 00 89 BC 00 04 
2311.14867 2 073F       Rx   d 8 05 63 04 04 04 00 00 00 
2311.22012 2 0737       Rx   d 8 07 23 00 00 89 C0 00 04 
2311.54494 2 073F       Rx   d 8 05 63 00 00 00 00 00 00 
2311.71889 2 0737       Rx   d 8 07 23 00 00 89 C4 00 04 
2312.04482 2 073F       Rx   d 8 05 63 04 04 04 04 00 00 
2312.19333 2 0737       Rx   d 8 07 23 00 00 89 C8 00 04 
2312.44415 2 073F       Rx   d 8 05 63 00 F0 16 BE 00 00 
2312.51658 2 0737       Rx   d 8 07 23 00 00 89 CC 00 04 
2312.73816 2 073F       Rx   d 8 05 63 FF FF FF FF 00 00 
2312.82144 2 0737       Rx   d 8 07 23 00 00 89 D0 00 04 
2313.15466 2 073F       Rx   d 8 05 63 FF FF FF FF 00 00 
2313.31900 2 0737       Rx   d 8 07 23 00 00 89 D4 00 04 
2313.54699 2 073F       Rx   d 8 05 63 FF FF FF FF 00 00 
2313.61958 2 0737       Rx   d 8 07 23 00 00 89 D8 00 04 
2313.84468 2 073F       Rx   d 8 05 63 FF FF FF FF 00 00 
2313.93731 2 0737       Rx   d 8 07 23 00 00 89 DC 00 04 
2314.26297 2 073F       Rx   d 8 05 63 FF FF FF FF 00 00 
2314.41860 2 0737       Rx   d 8 07 23 00 00 89 E0 00 04 
2314.74709 2 073F       Rx   d 8 05 63 FF FF FF FF 00 00 
2314.91237 2 0737       Rx   d 8 07 23 00 00 89 E4 00 04 
2315.24353 2 073F       Rx   d 8 05 63 FF FF FF FF 00 00 
2315.39672 2 0737       Rx   d 8 07 23 00 00 89 E8 00 04 
2315.72164 2 073F       Rx   d 8 05 63 FF FF FF FF 00 00 
2315.86476 2 0737       Rx   d 8 07 23 00 00 89 EC 00 04 
2316.14327 2 073F       Rx   d 8 05 63 FF FF FF FF 00 00 
2316.34046 2 0737       Rx   d 8 07 23 00 00 89 F0 00 04 
2316.69200 2 073F       Rx   d 8 05 63 FF FF FF FF 00 00 
2316.93106 2 0737       Rx   d 8 07 23 00 00 89 F4 00 04 
2317.24293 2 073F       Rx   d 8 05 63 FF FF FF FF 00 00 
2317.39639 2 0737       Rx   d 8 07 23 00 00 89 F8 00 04 
2317.67556 2 073F       Rx   d 8 05 63 FF FF FF FF 00 00 
2317.74358 2 0737       Rx   d 8 07 23 00 00 89 FC 00 04 
2318.04177 2 073F       Rx   d 8 05 63 FF FF FF FF 00 00 
2318.11782 2 0737       Rx   d 8 07 23 00 00 8A 00 00 04 
2318.34514 2 073F       Rx   d 8 05 63 03 00 03 00 00 00 
2318.38576 2 0737       Rx   d 8 07 23 00 00 8A 04 00 04 
2318.66197 2 073F       Rx   d 8 05 63 88 00 78 00 00 00 
2318.74846 2 0737       Rx   d 8 07 23 00 00 8A 08 00 04 
2319.07463 2 073F       Rx   d 8 05 63 2D 00 14 00 00 00 
2319.18517 2 0737       Rx   d 8 07 23 00 00 8A 0C 00 04 
2319.43429 2 073F       Rx   d 8 05 63 08 00 06 00 00 00 
2319.54167 2 0737       Rx   d 8 07 23 00 00 8A 10 00 04 
2319.86625 2 073F       Rx   d 8 05 63 2D 00 04 37 00 00 
2320.02482 2 0737       Rx   d 8 07 23 00 00 8A 14 00 04 
2320.34422 2 073F       Rx   d 8 05 63 0A 37 05 02 00 00 
2320.51671 2 0737       Rx   d 8 07 23 00 00 8A 18 00 04 
2320.84148 2 073F       Rx   d 8 05 63 8B 00 75 00 00 00 
2321.00923 2 0737       Rx   d 8 07 23 00 00 8A 1C 00 04 
2321.34122 2 073F       Rx   d 8 05 63 2D 00 25 00 00 00 
2321.42276 2 0737       Rx   d 8 07 23 00 00 8A 20 00 04 
2321.81024 2 073F       Rx   d 8 05 63 14 00 06 00 00 00 
2321.90307 2 0737       Rx   d 8 07 23 00 00 8A 24 00 04 
2322.27352 2 073F       Rx   d 8 05 63 2D 00 04 37 00 00 
2322.38568 2 0737       Rx   d 8 07 23 00 00 8A 28 00 04 
2322.66266 2 073F       Rx   d 8 05 63 0A 37 05 02 00 00 
2322.86442 2 0737       Rx   d 8 07 23 00 00 8A 2C 00 04 
2323.13949 2 073F       Rx   d 8 05 63 FF FF 00 00 00 00 
2323.32317 2 0737       Rx   d 8 07 23 00 00 8A 30 00 04 
2323.67247 2 073F       Rx   d 8 05 63 01 00 FF FF 00 00 
2323.95086 2 0737       Rx   d 8 07 23 00 00 8A 34 00 04 
2324.24160 2 073F       Rx   d 8 05 63 00 00 01 00 00 00 
2324.30385 2 0737       Rx   d 8 07 23 00 00 8A 38 00 04 
2324.53186 2 073F       Rx   d 8 05 63 01 00 FF 01 00 00 
2324.62266 2 0737       Rx   d 8 07 23 00 00 8A 3C 00 04 
2324.93135 2 073F       Rx   d 8 05 63 01 01 00 00 00 00 
2325.10156 2 0737       Rx   d 8 07 23 00 00 8A 40 00 04 
2325.33118 2 073F       Rx   d 8 05 63 FF FF 00 00 00 00 
2325.42257 2 0737       Rx   d 8 07 23 00 00 8A 44 00 04 
2325.73804 2 073F       Rx   d 8 05 63 01 00 FF FF 00 00 
2325.90263 2 0737       Rx   d 8 07 23 00 00 8A 48 00 04 
2326.14105 2 073F       Rx   d 8 05 63 00 00 01 00 00 00 
2326.22913 2 0737       Rx   d 8 07 23 00 00 8A 4C 00 04 
2326.52744 2 073F       Rx   d 8 05 63 01 00 FF 01 00 00 
2326.71028 2 0737       Rx   d 8 07 23 00 00 8A 50 00 04 
2327.02722 2 073F       Rx   d 8 05 63 01 01 00 00 00 00 
2327.18231 2 0737       Rx   d 8 07 23 00 00 8A 54 00 04 
2327.43010 2 073F       Rx   d 8 05 63 FF FF 00 00 00 00 
2327.50313 2 0737       Rx   d 8 07 23 00 00 8A 58 00 04 
2327.74022 2 073F       Rx   d 8 05 63 01 00 FF FF 00 00 
2327.82157 2 0737       Rx   d 8 07 23 00 00 8A 5C 00 04 
2328.13023 2 073F       Rx   d 8 05 63 00 00 01 00 00 00 
2328.30161 2 0737       Rx   d 8 07 23 00 00 8A 60 00 04 
2328.52986 2 073F       Rx   d 8 05 63 01 00 FF 01 00 00 
2328.62073 2 0737       Rx   d 8 07 23 00 00 8A 64 00 04 
2328.83248 2 073F       Rx   d 8 05 63 01 01 00 00 00 00 
2328.94169 2 0737       Rx   d 8 07 23 00 00 8A 68 00 04 
2329.23714 2 073F       Rx   d 8 05 63 14 04 88 00 00 00 
2329.41366 2 0737       Rx   d 8 07 23 00 00 8A 6C 00 04 
2329.72888 2 073F       Rx   d 8 05 63 78 00 04 FF 00 00 
2330.04059 2 0737       Rx   d 8 07 23 00 00 8A 70 00 04 
2330.33617 2 073F       Rx   d 8 05 63 32 09 8B 00 00 00 
2330.51700 2 0737       Rx   d 8 07 23 00 00 8A 74 00 04 
2330.82880 2 073F       Rx   d 8 05 63 75 00 04 FF 00 00 
2330.99063 2 0737       Rx   d 8 07 23 00 00 8A 78 00 04 
2331.23855 2 073F       Rx   d 8 05 63 FF FF FF FF 00 00 
2331.34488 2 0737       Rx   d 8 07 23 00 00 8A 7C 00 04 
2331.67092 2 073F       Rx   d 8 05 63 00 00 FF FF 00 00 
2331.81975 2 0737       Rx   d 8 07 23 00 00 8A 80 00 04 
2332.13545 2 073F       Rx   d 8 05 63 FF FF FF FF 00 00 
2332.30493 2 0737       Rx   d 8 07 23 00 00 8A 84 00 04 
2332.53505 2 073F       Rx   d 8 05 63 00 00 FF FF 00 00 
2332.62572 2 0737       Rx   d 8 07 23 00 00 8A 88 00 04 
2332.92393 2 073F       Rx   d 8 05 63 FF FF FF FF 00 00 
2333.10012 2 0737       Rx   d 8 07 23 00 00 8A 8C 00 04 
2333.32810 2 073F       Rx   d 8 05 63 00 00 FF FF 00 00 
2333.41993 2 0737       Rx   d 8 07 23 00 00 8A 90 00 04 
2333.73726 2 073F       Rx   d 8 05 63 20 02 E0 01 00 00 
2333.89853 2 0737       Rx   d 8 07 23 00 00 8A 94 00 04 
2334.12682 2 073F       Rx   d 8 05 63 00 02 1B 00 00 00 
2334.22573 2 0737       Rx   d 8 07 23 00 00 8A 98 00 04 
2334.52683 2 073F       Rx   d 8 05 63 00 00 01 00 00 00 
2334.70880 2 0737       Rx   d 8 07 23 00 00 8A 9C 00 04 
2335.02406 2 073F       Rx   d 8 05 63 2C 02 D4 01 00 00 
2335.18525 2 0737       Rx   d 8 07 23 00 00 8A A0 00 04 
2335.43316 2 073F       Rx   d 8 05 63 00 02 37 00 00 00 
2335.66167 2 0737       Rx   d 8 07 23 00 00 8A A4 00 04 
2335.92720 2 073F       Rx   d 8 05 63 00 00 00 01 00 00 
2336.12347 2 0737       Rx   d 8 07 23 00 00 8A A8 00 04 
2336.43192 2 073F       Rx   d 8 05 63 FF 03 01 00 00 00 
2336.59094 2 0737       Rx   d 8 07 23 00 00 8A AC 00 04 
2336.84185 2 073F       Rx   d 8 05 63 00 02 90 01 00 00 
2337.05684 2 0737       Rx   d 8 07 23 00 00 8A B0 00 04 
2337.33339 2 073F       Rx   d 8 05 63 00 00 01 02 00 00 
2337.51907 2 0737       Rx   d 8 07 23 00 00 8A B4 00 04 
2337.82238 2 073F       Rx   d 8 05 63 FF 03 01 00 00 00 
2337.90055 2 0737       Rx   d 8 07 23 00 00 8A B8 00 04 
2338.14127 2 073F       Rx   d 8 05 63 00 02 05 00 00 00 
2338.21689 2 0737       Rx   d 8 07 23 00 00 8A BC 00 04 
2338.52177 2 073F       Rx   d 8 05 63 00 00 01 03 00 00 
2338.70842 2 0737       Rx   d 8 07 23 00 00 8A C0 00 04 
2339.02123 2 073F       Rx   d 8 05 63 0A 02 F6 01 00 00 
2339.17814 2 0737       Rx   d 8 07 23 00 00 8A C4 00 04 
2339.42443 2 073F       Rx   d 8 05 63 00 02 37 00 00 00 
2339.49836 2 0737       Rx   d 8 07 23 00 00 8A C8 00 04 
2339.73710 2 073F       Rx   d 8 05 63 00 00 00 04 00 00 
2339.81860 2 0737       Rx   d 8 07 23 00 00 8A CC 00 04 
2340.13051 2 073F       Rx   d 8 05 63 00 08 01 00 00 00 
2340.29741 2 0737       Rx   d 8 07 23 00 00 8A D0 00 04 
2340.52817 2 073F       Rx   d 8 05 63 06 01 01 01 00 00 
2340.61641 2 0737       Rx   d 8 07 23 00 00 8A D4 00 04 
2340.84391 2 073F       Rx   d 8 05 63 40 04 01 08 00 00 
2340.93710 2 0737       Rx   d 8 07 23 00 00 8A D8 00 04 
2341.23275 2 073F       Rx   d 8 05 63 01 00 06 01 00 00 
2341.26073 2 0737       Rx   d 8 07 23 00 00 8A DC 00 04 
2341.53050 2 073F       Rx   d 8 05 63 01 01 10 04 00 00 
2341.73843 2 0737       Rx   d 8 07 23 00 00 8A E0 00 04 
2342.02986 2 073F       Rx   d 8 05 63 02 08 10 27 00 00 
2342.20991 2 0737       Rx   d 8 07 23 00 00 8A E4 00 04 
2342.53008 2 073F       Rx   d 8 05 63 04 01 01 01 00 00 
2342.84936 2 0737       Rx   d 8 07 23 00 00 8A E8 00 04 
2343.13231 2 073F       Rx   d 8 05 63 02 04 03 08 00 00 
2343.32554 2 0737       Rx   d 8 07 23 00 00 8A EC 00 04 
2343.65178 2 073F       Rx   d 8 05 63 E8 03 04 01 00 00 
2343.96556 2 0737       Rx   d 8 07 23 00 00 8A F0 00 04 
2344.22823 2 073F       Rx   d 8 05 63 01 01 01 04 00 00 
2344.29527 2 0737       Rx   d 8 07 23 00 00 8A F4 00 04 
2344.53043 2 073F       Rx   d 8 05 63 04 08 01 00 00 00 
2344.76350 2 0737       Rx   d 8 07 23 00 00 8A F8 00 04 
2345.02875 2 073F       Rx   d 8 05 63 04 01 01 01 00 00 
2345.09644 2 0737       Rx   d 8 07 23 00 00 8A FC 00 04 
2345.33023 2 073F       Rx   d 8 05 63 40 04 00 08 00 00 
2345.42140 2 0737       Rx   d 8 07 23 00 00 8B 00 00 04 
2345.73073 2 073F       Rx   d 8 05 63 01 00 04 01 00 00 
2345.89824 2 0737       Rx   d 8 07 23 00 00 8B 04 00 04 
2346.12772 2 073F       Rx   d 8 05 63 01 01 40 02 00 00 
2346.21697 2 0737       Rx   d 8 07 23 00 00 8B 08 00 04 
2346.44847 2 073F       Rx   d 8 05 63 01 08 01 00 00 00 
2346.53444 2 0737       Rx   d 8 07 23 00 00 8B 0C 00 04 
2346.82658 2 073F       Rx   d 8 05 63 04 01 01 01 00 00 
2346.85788 2 0737       Rx   d 8 07 23 00 00 8B 10 00 04 
2347.13036 2 073F       Rx   d 8 05 63 10 02 2F AB 00 00 
2347.17556 2 0737       Rx   d 8 07 23 00 00 8B 14 00 04 
2347.41723 2 073F       Rx   d 8 05 63 FF FF FF FF 00 00 
2347.49867 2 0737       Rx   d 8 07 23 00 00 8B 18 00 04 
2347.81955 2 073F       Rx   d 8 05 63 FF FF FF FF 00 00 
2347.98006 2 0737       Rx   d 8 07 23 00 00 8B 1C 00 04 
2348.22638 2 073F       Rx   d 8 05 63 FF FF FF FF 00 00 
2348.29389 2 0737       Rx   d 8 07 23 00 00 8B 20 00 04 
2348.64670 2 073F       Rx   d 8 05 63 FF FF FF FF 00 00 
2348.77502 2 0737       Rx   d 8 07 23 00 00 8B 24 00 04 
2349.01623 2 073F       Rx   d 8 05 63 FF FF FF FF 00 00 
2349.24622 2 0737       Rx   d 8 07 23 00 00 8B 28 00 04 
2349.52913 2 073F       Rx   d 8 05 63 FF FF FF FF 00 00 
2349.71208 2 0737       Rx   d 8 07 23 00 00 8B 2C 00 04 
2350.01622 2 073F       Rx   d 8 05 63 FF FF FF FF 00 00 
2350.20046 2 0737       Rx   d 8 07 23 00 00 8B 30 00 04 
2350.51638 2 073F       Rx   d 8 05 63 FF FF FF FF 00 00 
2350.69242 2 0737       Rx   d 8 07 23 00 00 8B 34 00 04 
2350.93074 2 073F       Rx   d 8 05 63 FF FF 01 FF 00 00 
2351.13353 2 0737       Rx   d 8 07 23 00 00 8B 38 00 04 
2351.41832 2 073F       Rx   d 8 05 63 00 00 01 FF 00 00 
2351.49373 2 0737       Rx   d 8 07 23 00 00 8B 3C 00 04 
2351.82493 2 073F       Rx   d 8 05 63 FF FF FF FF 00 00 
2351.97124 2 0737       Rx   d 8 07 23 00 00 8B 40 00 04 
2352.22101 2 073F       Rx   d 8 05 63 FF FF FF 01 00 00 
2352.29628 2 0737       Rx   d 8 07 23 00 00 8B 44 00 04 
2352.65436 2 073F       Rx   d 8 05 63 00 02 1F 3C 00 00 
2352.77275 2 0737       Rx   d 8 07 23 00 00 8B 48 00 04 
2353.01777 2 073F       Rx   d 8 05 63 01 00 01 08 00 00 
2353.09334 2 0737       Rx   d 8 07 23 00 00 8B 4C 00 04 
2353.33554 2 073F       Rx   d 8 05 63 00 00 00 00 00 00 
2353.41057 2 0737       Rx   d 8 07 23 00 00 8B 50 00 04 
2353.71712 2 073F       Rx   d 8 05 63 10 FF FF FF 00 00 
2353.89701 2 0737       Rx   d 8 07 23 00 00 8B 54 00 04 
2354.21697 2 073F       Rx   d 8 05 63 FF FF FF FF 00 00 
2354.37272 2 0737       Rx   d 8 07 23 00 00 8B 58 00 04 
2354.64370 2 073F       Rx   d 8 05 63 FF FF FF FF 00 00 
2354.69015 2 0737       Rx   d 8 07 23 00 00 8B 5C 00 04 
2354.93472 2 073F       Rx   d 8 05 63 FF FF FF FF 00 00 
2355.01125 2 0737       Rx   d 8 07 23 00 00 8B 60 00 04 
2355.32382 2 073F       Rx   d 8 05 63 FF 00 0D 00 00 00 
2355.64299 2 0737       Rx   d 8 07 23 00 00 8B 64 00 04 
2355.92303 2 073F       Rx   d 8 05 63 74 FF FF FF 00 00 
2356.12145 2 0737       Rx   d 8 07 23 00 00 8B 68 00 04 
2356.42255 2 073F       Rx   d 8 05 63 FF FF FF FF 00 00 
2356.59430 2 0737       Rx   d 8 07 23 00 00 8B 6C 00 04 
2356.91198 2 073F       Rx   d 8 05 63 FF FF FF FF 00 00 
2357.05582 2 0737       Rx   d 8 07 23 00 00 8B 70 00 04 
2357.34373 2 073F       Rx   d 8 05 63 FF FF FF FF 00 00 
2357.52548 2 0737       Rx   d 8 07 23 00 00 8B 74 00 04 
2357.82467 2 073F       Rx   d 8 05 63 FF FF FF FF 00 00 
2357.89924 2 0737       Rx   d 8 07 23 00 00 8B 78 00 04 
2358.22441 2 073F       Rx   d 8 05 63 FF FF FF FF 00 00 
2358.37056 2 0737       Rx   d 8 07 23 00 00 8B 7C 00 04 
2358.65392 2 073F       Rx   d 8 05 63 FF FF FF FF 00 00 
2358.68976 2 0737       Rx   d 8 07 23 00 00 8B 80 00 04 
2358.93840 2 073F       Rx   d 8 05 63 FF FF FF FF 00 00 
2359.00846 2 0737       Rx   d 8 07 23 00 00 8B 84 00 04 
2359.32047 2 073F       Rx   d 8 05 63 FF FF FF FF 00 00 
2359.49550 2 0737       Rx   d 8 07 23 00 00 8B 88 00 04 
2359.81084 2 073F       Rx   d 8 05 63 30 15 CB 00 00 00 
2359.97243 2 0737       Rx   d 8 07 23 00 00 8B 8C 00 04 
2360.22921 2 073F       Rx   d 8 05 63 01 0F 11 FF 00 00 
2360.29333 2 0737       Rx   d 8 07 23 00 00 8B 90 00 04 
2360.54025 2 073F       Rx   d 8 05 63 30 16 C0 00 00 00 
2360.61610 2 0737       Rx   d 8 07 23 00 00 8B 94 00 04 
2360.92038 2 073F       Rx   d 8 05 63 01 10 07 FF 00 00 
2361.09297 2 0737       Rx   d 8 07 23 00 00 8B 98 00 04 
2361.34504 2 073F       Rx   d 8 05 63 30 17 1D 00 00 00 
2361.56116 2 0737       Rx   d 8 07 23 00 00 8B 9C 00 04 
2361.82544 2 073F       Rx   d 8 05 63 01 11 65 FF 00 00 
2362.03731 2 0737       Rx   d 8 07 23 00 00 8B A0 00 04 
2362.32925 2 073F       Rx   d 8 05 63 30 16 6A 00 00 00 
2362.51540 2 0737       Rx   d 8 07 23 00 00 8B A4 00 04 
2362.81945 2 073F       Rx   d 8 05 63 01 12 B1 FF 00 00 
2362.98256 2 0737       Rx   d 8 07 23 00 00 8B A8 00 04 
2363.21176 2 073F       Rx   d 8 05 63 30 15 E1 00 00 00 
2363.42274 2 0737       Rx   d 8 07 23 00 00 8B AC 00 04 
2363.74636 2 073F       Rx   d 8 05 63 11 13 37 FF 00 00 
2363.85559 2 0737       Rx   d 8 07 23 00 00 8B B0 00 04 
2364.11119 2 073F       Rx   d 8 05 63 30 06 70 00 00 00 
2364.29546 2 0737       Rx   d 8 07 23 00 00 8B B4 00 04 
2364.63870 2 073F       Rx   d 8 05 63 01 14 A7 FF 00 00 
2364.77398 2 0737       Rx   d 8 07 23 00 00 8B B8 00 04 
2365.02670 2 073F       Rx   d 8 05 63 30 00 00 00 00 00 
2365.09249 2 0737       Rx   d 8 07 23 00 00 8B BC 00 04 
2365.41109 2 073F       Rx   d 8 05 63 01 15 31 FF 00 00 
2365.71676 2 0737       Rx   d 8 07 23 00 00 8B C0 00 04 
2366.01026 2 073F       Rx   d 8 05 63 30 00 00 00 00 00 
2366.17265 2 0737       Rx   d 8 07 23 00 00 8B C4 00 04 
2366.40782 2 073F       Rx   d 8 05 63 01 16 31 FF 00 00 
2366.52624 2 0737       Rx   d 8 07 23 00 00 8B C8 00 04 
2366.81051 2 073F       Rx   d 8 05 63 30 00 00 00 00 00 
2366.84627 2 0737       Rx   d 8 07 23 00 00 8B CC 00 04 
2367.11784 2 073F       Rx   d 8 05 63 11 17 41 FF 00 00 
2367.17140 2 0737       Rx   d 8 07 23 00 00 8B D0 00 04 
2367.42897 2 073F       Rx   d 8 05 63 30 00 00 00 00 00 
2367.49496 2 0737       Rx   d 8 07 23 00 00 8B D4 00 04 
2367.80753 2 073F       Rx   d 8 05 63 11 18 41 FF 00 00 
2367.97076 2 0737       Rx   d 8 07 23 00 00 8B D8 00 04 
2368.23599 2 073F       Rx   d 8 05 63 02 02 03 03 00 00 
2368.29266 2 0737       Rx   d 8 07 23 00 00 8B DC 00 04 
2368.63892 2 073F       Rx   d 8 05 63 03 01 01 02 00 00 
2368.77261 2 0737       Rx   d 8 07 23 00 00 8B E0 00 04 
2369.02794 2 073F       Rx   d 8 05 63 02 02 02 03 00 00 
2369.13793 2 0737       Rx   d 8 07 23 00 00 8B E4 00 04 
2369.41544 2 073F       Rx   d 8 05 63 03 04 04 03 00 00 
2369.56523 2 0737       Rx   d 8 07 23 00 00 8B E8 00 04 
2369.83377 2 073F       Rx   d 8 05 63 03 04 03 03 00 00 
2369.92497 2 0737       Rx   d 8 07 23 00 00 8B EC 00 04 
2370.20581 2 073F       Rx   d 8 05 63 02 03 03 02 00 00 
2370.39620 2 0737       Rx   d 8 07 23 00 00 8B F0 00 04 
2370.71944 2 073F       Rx   d 8 05 63 03 05 05 05 00 00 
2371.01487 2 0737       Rx   d 8 07 23 00 00 8B F4 00 04 
2371.30494 2 073F       Rx   d 8 05 63 05 05 01 5B 00 00 
2371.32508 2 0737       Rx   d 8 07 23 00 00 8B F8 00 04 
2371.64724 2 073F       Rx   d 8 05 63 05 04 04 04 00 00 
2372.10523 2 0737       Rx   d 8 07 23 00 00 8B FC 00 04 
2372.41727 2 073F       Rx   d 8 05 63 03 04 05 06 00 00 
2372.44533 2 0737       Rx   d 8 07 23 00 00 8C 00 00 04 
2372.72839 2 073F       Rx   d 8 05 63 06 07 08 08 00 00 
2372.77266 2 0737       Rx   d 8 07 23 00 00 8C 04 00 04 
2373.03177 2 073F       Rx   d 8 05 63 08 08 09 0A 00 00 
2373.09246 2 0737       Rx   d 8 07 23 00 00 8C 08 00 04 
2373.41641 2 073F       Rx   d 8 05 63 09 09 07 04 00 00 
2373.56359 2 0737       Rx   d 8 07 23 00 00 8C 0C 00 04 
2373.83520 2 073F       Rx   d 8 05 63 04 06 08 08 00 00 
2373.89504 2 0737       Rx   d 8 07 23 00 00 8C 10 00 04 
2374.20642 2 073F       Rx   d 8 05 63 07 05 06 0B 00 00 
2374.36436 2 0737       Rx   d 8 07 23 00 00 8C 14 00 04 
2374.64644 2 073F       Rx   d 8 05 63 0C 0B 02 CE 00 00 
2374.68543 2 0737       Rx   d 8 07 23 00 00 8C 18 00 04 
2375.01565 2 073F       Rx   d 8 05 63 0A 07 06 06 00 00 
2375.16383 2 0737       Rx   d 8 07 23 00 00 8C 1C 00 04 
2375.43608 2 073F       Rx   d 8 05 63 07 08 06 03 00 00 
2375.49207 2 0737       Rx   d 8 07 23 00 00 8C 20 00 04 
2375.80568 2 073F       Rx   d 8 05 63 03 06 08 08 00 00 
2375.96407 2 0737       Rx   d 8 07 23 00 00 8C 24 00 04 
2376.23886 2 073F       Rx   d 8 05 63 07 08 06 04 00 00 
2376.29743 2 0737       Rx   d 8 07 23 00 00 8C 28 00 04 
2376.65296 2 073F       Rx   d 8 05 63 04 03 02 04 00 00 
2376.90452 2 0737       Rx   d 8 07 23 00 00 8C 2C 00 04 
2377.21157 2 073F       Rx   d 8 05 63 07 06 05 07 00 00 
2377.37554 2 0737       Rx   d 8 07 23 00 00 8C 30 00 04 
2377.68813 2 073F       Rx   d 8 05 63 08 06 04 04 00 00 
2377.83884 2 0737       Rx   d 8 07 23 00 00 8C 34 00 04 
2378.11132 2 073F       Rx   d 8 05 63 06 07 03 B0 00 00 
2378.32788 2 0737       Rx   d 8 07 23 00 00 8C 38 00 04 
2378.64103 2 073F       Rx   d 8 05 63 05 05 04 02 00 00 
2378.68133 2 0737       Rx   d 8 07 23 00 00 8C 3C 00 04 
2378.90396 2 073F       Rx   d 8 05 63 02 04 04 04 00 00 
2379.00279 2 0737       Rx   d 8 07 23 00 00 8C 40 00 04 
2379.30406 2 073F       Rx   d 8 05 63 03 04 05 04 00 00 
2379.32214 2 0737       Rx   d 8 07 23 00 00 8C 44 00 04 
2379.64045 2 073F       Rx   d 8 05 63 02 02 02 01 00 00 
2379.80125 2 0737       Rx   d 8 07 23 00 00 8C 48 00 04 
2380.10337 2 073F       Rx   d 8 05 63 02 03 03 01 00 00 
2380.12511 2 0737       Rx   d 8 07 23 00 00 8C 4C 00 04 
2380.41082 2 073F       Rx   d 8 05 63 01 02 01 00 00 00 
2380.44830 2 0737       Rx   d 8 07 23 00 00 8C 50 00 04 
2380.73781 2 073F       Rx   d 8 05 63 00 01 02 01 00 00 
2380.76230 2 0737       Rx   d 8 07 23 00 00 8C 54 00 04 
2381.00258 2 073F       Rx   d 8 05 63 01 01 04 48 00 00 
2381.09509 2 0737       Rx   d 8 07 23 00 00 8C 58 00 04 
2381.41048 2 073F       Rx   d 8 05 63 00 00 00 01 00 00 
2381.56369 2 0737       Rx   d 8 07 23 00 00 8C 5C 00 04 
2381.84520 2 073F       Rx   d 8 05 63 01 00 00 01 00 00 
2381.87954 2 0737       Rx   d 8 07 23 00 00 8C 60 00 04 
2382.20224 2 073F       Rx   d 8 05 63 01 00 00 00 00 00 
2382.51957 2 0737       Rx   d 8 07 23 00 00 8C 64 00 04 
2382.80906 2 073F       Rx   d 8 05 63 FF FF FF FF 00 00 
2382.99653 2 0737       Rx   d 8 07 23 00 00 8C 68 00 04 
2383.30359 2 073F       Rx   d 8 05 63 FF FF FF FF 00 00 
2383.49683 2 0737       Rx   d 8 07 23 00 00 8C 6C 00 04 
2383.79868 2 073F       Rx   d 8 05 63 FF FF FF FF 00 00 
2384.10245 2 0737       Rx   d 8 07 23 00 00 8C 70 00 04 
2384.40710 2 073F       Rx   d 8 05 63 FF FF FF FF 00 00 
2384.58246 2 0737       Rx   d 8 07 23 00 00 8C 74 00 04 
2384.80739 2 073F       Rx   d 8 05 63 FF FF 05 F2 00 00 
2385.01013 2 0737       Rx   d 8 07 23 00 00 8C 78 00 04 
2385.30102 2 073F       Rx   d 8 05 63 FF FF FF FF 00 00 
2385.39954 2 0737       Rx   d 8 07 23 00 00 8C 7C 00 04 
2385.71432 2 073F       Rx   d 8 05 63 FF FF FF FF 00 00 
2385.88045 2 0737       Rx   d 8 07 23 00 00 8C 80 00 04 
2386.20167 2 073F       Rx   d 8 05 63 FF FF FF FF 00 00 
2386.36003 2 0737       Rx   d 8 07 23 00 00 8C 84 00 04 
2386.67663 2 073F       Rx   d 8 05 63 FF FF FF FF 00 00 
2386.84002 2 0737       Rx   d 8 07 23 00 00 8C 88 00 04 
2387.13003 2 073F       Rx   d 8 05 63 FF FF FF FF 00 00 
2387.15800 2 0737       Rx   d 8 07 23 00 00 8C 8C 00 04 
2387.39744 2 073F       Rx   d 8 05 63 FF FF FF FF 00 00 
2387.47927 2 0737       Rx   d 8 07 23 00 00 8C 90 00 04 
2387.70800 2 073F       Rx   d 8 05 63 FF FF FF FF 00 00 
2387.79924 2 0737       Rx   d 8 07 23 00 00 8C 94 00 04 
2388.10380 2 073F       Rx   d 8 05 63 FF FF FF FF 00 00 
2388.27778 2 0737       Rx   d 8 07 23 00 00 8C 98 00 04 
2388.62913 2 073F       Rx   d 8 05 63 FF FF FF FF 00 00 
2388.91764 2 0737       Rx   d 8 07 23 00 00 8C 9C 00 04 
2389.21455 2 073F       Rx   d 8 05 63 FF FF FF FF 00 00 
2389.38938 2 0737       Rx   d 8 07 23 00 00 8C A0 00 04 
2389.70881 2 073F       Rx   d 8 05 63 FF FF FF FF 00 00 
2390.01474 2 0737       Rx   d 8 07 23 00 00 8C A4 00 04 
2390.33252 2 073F       Rx   d 8 05 63 FF FF FF FF 00 00 
2390.50473 2 0737       Rx   d 8 07 23 00 00 8C A8 00 04 
2390.81314 2 073F       Rx   d 8 05 63 FF FF FF FF 00 00 
2390.99501 2 0737       Rx   d 8 07 23 00 00 8C AC 00 04 
2391.30904 2 073F       Rx   d 8 05 63 FF FF FF FF 00 00 
2391.61513 2 0737       Rx   d 8 07 23 00 00 8C B0 00 04 
2391.92980 2 073F       Rx   d 8 05 63 FF FF FF FF 00 00 
2391.96133 2 0737       Rx   d 8 07 23 00 00 8C B4 00 04 
2392.20501 2 073F       Rx   d 8 05 63 FF FF FF FF 00 00 
2392.27608 2 0737       Rx   d 8 07 23 00 00 8C B8 00 04 
2392.62728 2 073F       Rx   d 8 05 63 01 01 03 04 00 00 
2392.76061 2 0737       Rx   d 8 07 23 00 00 8C BC 00 04 
2392.99440 2 073F       Rx   d 8 05 63 04 02 00 FF 00 00 
2393.07664 2 0737       Rx   d 8 07 23 00 00 8C C0 00 04 
2393.40367 2 073F       Rx   d 8 05 63 02 06 08 07 00 00 
2393.55895 2 0737       Rx   d 8 07 23 00 00 8C C4 00 04 
2393.80405 2 073F       Rx   d 8 05 63 05 05 05 04 00 00 
2393.88004 2 0737       Rx   d 8 07 23 00 00 8C C8 00 04 
2394.19391 2 073F       Rx   d 8 05 63 04 05 04 04 00 00 
2394.35636 2 0737       Rx   d 8 07 23 00 00 8C CC 00 04 
2394.65897 2 073F       Rx   d 8 05 63 04 04 05 05 00 00 
2394.83816 2 0737       Rx   d 8 07 23 00 00 8C D0 00 04 
2395.13445 2 073F       Rx   d 8 05 63 05 03 04 06 00 00 
2395.31190 2 0737       Rx   d 8 07 23 00 00 8C D4 00 04 
2395.64235 2 073F       Rx   d 8 05 63 06 05 06 78 00 00 
2395.93533 2 0737       Rx   d 8 07 23 00 00 8C D8 00 04 
2396.19753 2 073F       Rx   d 8 05 63 05 02 FF FE 00 00 
2396.41659 2 0737       Rx   d 8 07 23 00 00 8C DC 00 04 
2396.74149 2 073F       Rx   d 8 05 63 FF 03 08 0A 00 00 
2397.06188 2 0737       Rx   d 8 07 23 00 00 8C E0 00 04 
2397.29450 2 073F       Rx   d 8 05 63 09 08 08 07 00 00 
2397.49267 2 0737       Rx   d 8 07 23 00 00 8C E4 00 04 
2397.79148 2 073F       Rx   d 8 05 63 05 04 05 05 00 00 
2397.96083 2 0737       Rx   d 8 07 23 00 00 8C E8 00 04 
2398.19368 2 073F       Rx   d 8 05 63 06 06 06 05 00 00 
2398.43723 2 0737       Rx   d 8 07 23 00 00 8C EC 00 04 
2398.70866 2 073F       Rx   d 8 05 63 02 02 07 09 00 00 
2398.83426 2 0737       Rx   d 8 07 23 00 00 8C F0 00 04 
2399.13657 2 073F       Rx   d 8 05 63 05 04 04 07 00 00 
2399.31582 2 0737       Rx   d 8 07 23 00 00 8C F4 00 04 
2399.62207 2 073F       Rx   d 8 05 63 09 08 07 9B 00 00 
2399.79860 2 0737       Rx   d 8 07 23 00 00 8C F8 00 04 
2400.11449 2 073F       Rx   d 8 05 63 05 FC FA FE 00 00 
2400.27291 2 0737       Rx   d 8 07 23 00 00 8C FC 00 04 
2400.48996 2 073F       Rx   d 8 05 63 FE FC FC F9 00 00 
2400.60040 2 0737       Rx   d 8 07 23 00 00 8D 00 00 04 
2400.91513 2 073F       Rx   d 8 05 63 FA FE 02 04 00 00 
2401.23058 2 0737       Rx   d 8 07 23 00 00 8D 04 00 04 
2401.49969 2 073F       Rx   d 8 05 63 00 F9 F8 FE 00 00 
2401.71821 2 0737       Rx   d 8 07 23 00 00 8D 08 00 04 
2402.01954 2 073F       Rx   d 8 05 63 03 02 FF 05 00 00 
2402.34221 2 0737       Rx   d 8 07 23 00 00 8D 0C 00 04 
2402.61905 2 073F       Rx   d 8 05 63 0C 0E 0A FF 00 00 
2402.82262 2 0737       Rx   d 8 07 23 00 00 8D 10 00 04 
2403.14051 2 073F       Rx   d 8 05 63 FA FC 02 05 00 00 
2403.40499 2 0737       Rx   d 8 07 23 00 00 8D 14 00 04 
2403.70420 2 073F       Rx   d 8 05 63 04 01 08 03 00 00 
2403.87016 2 0737       Rx   d 8 07 23 00 00 8D 18 00 04 
2404.19684 2 073F       Rx   d 8 05 63 FF FD FD FE 00 00 
2404.35807 2 0737       Rx   d 8 07 23 00 00 8D 1C 00 04 
2404.61815 2 073F       Rx   d 8 05 63 FF FE FD FE 00 00 
2404.82171 2 0737       Rx   d 8 07 23 00 00 8D 20 00 04 
2405.10761 2 073F       Rx   d 8 05 63 00 00 FD FA 00 00 
2405.29028 2 0737       Rx   d 8 07 23 00 00 8D 24 00 04 
2405.62019 2 073F       Rx   d 8 05 63 F9 FC FE FD 00 00 
2405.72237 2 0737       Rx   d 8 07 23 00 00 8D 28 00 04 
2405.98743 2 073F       Rx   d 8 05 63 FD FF FF FE 00 00 
2406.03290 2 0737       Rx   d 8 07 23 00 00 8D 2C 00 04 
2406.29476 2 073F       Rx   d 8 05 63 FC FD FD FE 00 00 
2406.35818 2 0737       Rx   d 8 07 23 00 00 8D 30 00 04 
2406.67320 2 073F       Rx   d 8 05 63 01 00 FE FE 00 00 
2406.99980 2 0737       Rx   d 8 07 23 00 00 8D 34 00 04 
2407.31669 2 073F       Rx   d 8 05 63 00 00 09 C0 00 00 
2407.62778 2 0737       Rx   d 8 07 23 00 00 8D 38 00 04 
2407.88980 2 073F       Rx   d 8 05 63 FB FA FC 00 00 00 
